!test
!File generated by LCAF-GAM-UPV software
!josevmart@iteam.upv.es
!S2P File: Measurements: S11, S21, S12, S22:
# Hz S  dB   R 50
1000000000 -2.995173e+00 -1.005986e+02 -8.361211e+01 -4.342360e+01 -8.749082e+01 -1.334664e+02 -8.241517e-02 1.617427e+01
1100000000 -3.053252e+00 7.246751e+01 -8.363836e+01 1.033939e+02 -8.452116e+01 1.715288e+02 1.096102e-01 1.656452e+01
1200000000 -3.233669e+00 -1.147128e+02 -8.669125e+01 9.482456e+01 -8.242019e+01 9.399434e+01 -1.325658e-01 1.541815e+01
1300000000 -3.186985e+00 5.761614e+01 -8.202548e+01 -2.874189e+01 -8.564795e+01 -3.786220e+01 -1.470215e-01 1.799467e+01
1400000000 -3.308900e+00 -1.284259e+02 -8.017696e+01 1.143025e+02 -8.895988e+01 7.038190e+01 1.445114e-01 1.795785e+01
1500000000 -3.387973e+00 4.876749e+01 -8.328925e+01 -3.540225e+01 -8.133568e+01 1.534338e+02 2.682989e-01 1.840565e+01
1600000000 -3.544318e+00 -1.416031e+02 -8.318884e+01 -1.607293e+02 -8.057055e+01 -4.656382e+01 2.197950e-01 1.676072e+01
1700000000 -3.527205e+00 2.669313e+01 -8.125629e+01 7.843977e+01 -8.347462e+01 1.240357e+02 -4.847248e-02 1.901058e+01
1800000000 -4.004930e+00 -1.569448e+02 -8.248249e+01 -1.328855e+01 -8.141241e+01 -9.007169e+01 4.757399e-01 2.084721e+01
1900000000 -3.601851e+00 1.406286e+01 -8.439117e+01 4.192030e+01 -9.669390e+01 4.093996e+01 5.270602e-01 1.714576e+01
2000000000 -3.717764e+00 -1.710152e+02 -8.777472e+01 -2.807609e+01 -8.309342e+01 -6.118188e+01 -1.771946e-02 1.811277e+01
2100000000 -3.788892e+00 -4.581476e+00 -7.822237e+01 1.413435e+02 -7.968217e+01 -1.022492e+01 2.325232e-02 2.036225e+01
2200000000 -4.472947e+00 1.678747e+02 -7.994326e+01 7.231921e+01 -8.868150e+01 1.231350e+02 2.948992e-01 2.215664e+01
2300000000 -4.042065e+00 -2.348508e+01 -8.256176e+01 1.591913e+02 -8.147025e+01 2.835237e+01 3.351418e-01 2.145251e+01
2400000000 -4.563848e+00 1.486769e+02 -8.793847e+01 1.207668e+02 -8.125029e+01 -1.045121e+02 8.722851e-02 2.405666e+01
2500000000 -3.983901e+00 -4.026245e+01 -7.852312e+01 7.022516e-01 -8.066832e+01 -1.723494e+02 2.679700e-01 2.645691e+01
2600000000 -5.156812e+00 1.259278e+02 -8.792532e+01 1.040429e+02 -7.426301e+01 5.398783e+01 4.118878e-01 2.912669e+01
2700000000 -4.296894e+00 -6.371914e+01 -9.271157e+01 1.429187e+01 -8.193281e+01 9.868259e+01 1.055764e+00 2.743048e+01
2800000000 -4.943298e+00 1.047423e+02 -7.744116e+01 2.958528e+01 -8.185709e+01 1.175322e+02 3.161018e-01 2.439359e+01
2900000000 -4.567071e+00 -7.938274e+01 -7.598693e+01 -8.571954e+01 -7.911425e+01 1.338836e+02 1.858765e-01 3.041499e+01
3000000000 -5.061618e+00 9.060881e+01 -7.926517e+01 -5.191157e+01 -8.287908e+01 -4.068094e+01 7.290889e-01 2.938303e+01
3100000000 -5.164238e+00 -9.730798e+01 -8.009540e+01 -1.571084e+02 -8.721805e+01 -8.211480e+01 2.682441e-01 2.989213e+01
3200000000 -5.192156e+00 6.779755e+01 -8.544746e+01 -1.241628e+02 -7.501894e+01 1.707417e+02 2.932317e-01 3.278393e+01
3300000000 -5.807287e+00 -1.104683e+02 -8.327241e+01 6.367125e+01 -9.601686e+01 1.888997e+01 3.865133e-01 3.081068e+01
3400000000 -5.225104e+00 5.699010e+01 -8.072229e+01 -1.030011e+02 -9.123803e+01 -1.086088e+02 -1.401436e-02 3.219938e+01
3500000000 -5.761158e+00 -1.251622e+02 -8.705307e+01 -1.052031e+02 -8.471257e+01 -1.120897e+01 1.554901e-01 3.499744e+01
3600000000 -5.581337e+00 4.769775e+01 -8.556300e+01 1.366028e+02 -8.147720e+01 -1.718846e+02 3.038693e-01 3.507851e+01
3700000000 -6.216419e+00 -1.427275e+02 -8.122746e+01 -3.467544e+01 -7.905954e+01 -3.761566e+01 4.601930e-01 3.429882e+01
3800000000 -5.774987e+00 3.304476e+01 -9.201904e+01 -7.674796e+01 -8.131006e+01 -1.781298e+02 1.071512e-02 3.318396e+01
3900000000 -5.790818e+00 -1.535839e+02 -8.483435e+01 -9.700866e+01 -8.576190e+01 1.507130e+02 -1.976380e-01 3.791796e+01
4000000000 -5.334642e+00 2.557917e+01 -8.445400e+01 -5.312577e+01 -8.390128e+01 -1.428648e+01 5.510857e-01 3.919311e+01
4100000000 -6.078344e+00 -1.654496e+02 -8.408778e+01 -1.548744e+02 -9.049174e+01 -1.444400e+02 4.746232e-01 3.415538e+01
4200000000 -6.303902e+00 1.031395e+01 -8.323647e+01 -9.211832e+01 -8.426490e+01 1.768826e+02 -2.396557e-01 3.492552e+01
4300000000 -6.125906e+00 -1.777154e+02 -8.329397e+01 1.545817e+00 -8.723299e+01 -4.732116e+01 -5.734936e-02 3.901331e+01
4400000000 -6.658925e+00 -7.359562e+00 -8.304115e+01 -1.024420e+02 -8.351466e+01 -7.837354e+01 4.161166e-01 3.577919e+01
4500000000 -5.992353e+00 1.658120e+02 -8.263588e+01 1.313277e+02 -8.164218e+01 -1.285114e+02 -4.165965e-01 3.536927e+01
4600000000 -7.238788e+00 -2.859922e+01 -7.478398e+01 -2.710375e+01 -8.424668e+01 -1.123741e+02 -2.063745e-02 3.970729e+01
4700000000 -6.571139e+00 1.470769e+02 -7.887994e+01 6.467701e+01 -7.899252e+01 -1.595043e+02 -2.729214e-01 3.647971e+01
4800000000 -7.060608e+00 -4.937625e+01 -8.098955e+01 5.886363e+01 -8.376256e+01 -5.008256e+01 -4.201921e-01 4.268327e+01
4900000000 -6.779414e+00 1.297308e+02 -9.019070e+01 1.732165e+02 -9.920432e+01 -4.485610e+01 1.556862e-01 3.919222e+01
5000000000 -7.308340e+00 -6.880624e+01 -8.457974e+01 -5.427894e+01 -9.301460e+01 -1.985744e+01 -8.203251e-01 4.192924e+01
5100000000 -7.599109e+00 1.087071e+02 -8.416066e+01 5.789874e+01 -9.249397e+01 1.020171e+02 1.029754e-01 4.731636e+01
5200000000 -6.840493e+00 -9.093324e+01 -8.074636e+01 -4.717661e+01 -8.100390e+01 1.057374e+02 5.318882e-01 4.193927e+01
5300000000 -8.107363e+00 9.449447e+01 -8.861382e+01 2.604649e+01 -7.964914e+01 -6.297041e+01 1.711818e-01 4.070467e+01
5400000000 -6.738847e+00 -9.089890e+01 -8.676298e+01 -6.513984e+01 -8.006755e+01 1.114418e+02 -6.650387e-02 3.539595e+01
5500000000 -7.723137e+00 8.764225e+01 -9.149882e+01 -2.511658e+01 -7.921576e+01 -1.748714e+02 2.036014e-01 3.747408e+01
5600000000 -6.568683e+00 -1.088632e+02 -8.642491e+01 1.008779e+02 -8.224629e+01 -1.440590e+02 3.941922e-01 3.420324e+01
5700000000 -7.723576e+00 6.546468e+01 -8.763058e+01 -1.537970e+02 -8.071928e+01 4.642687e+01 -3.115709e-01 3.352099e+01
5800000000 -6.638228e+00 -1.180718e+02 -9.517696e+01 -8.133762e+01 -8.702058e+01 3.659010e+00 -5.952023e-01 3.849850e+01
5900000000 -7.403347e+00 5.351333e+01 -9.194008e+01 9.249072e+01 -8.560979e+01 -1.775747e+02 -1.510810e-01 4.123829e+01
6000000000 -6.659533e+00 -1.330418e+02 -9.499081e+01 3.998275e+01 -8.254183e+01 1.347686e+02 1.860921e-01 4.002599e+01
6100000000 -7.279206e+00 3.676606e+01 -8.280453e+01 -1.058633e+02 -8.317288e+01 -1.660918e+02 -6.820880e-02 3.990833e+01
6200000000 -7.540009e+00 -1.468709e+02 -7.924350e+01 -1.589427e+02 -9.232919e+01 -5.661898e-01 -1.685283e-01 4.392641e+01
6300000000 -7.387986e+00 2.510042e+01 -9.339153e+01 -1.505873e+02 -9.362966e+01 1.428105e+02 5.499877e-01 4.568174e+01
6400000000 -8.056586e+00 -1.647919e+02 -8.704501e+01 9.762348e+01 -8.126693e+01 -1.791456e+02 7.734519e-01 4.314628e+01
6500000000 -7.411796e+00 8.963693e+00 -8.021647e+01 5.346482e+01 -8.495715e+01 -1.293891e+02 6.299711e-01 3.986374e+01
6600000000 -8.428964e+00 1.766795e+02 -8.243499e+01 -1.590471e+02 -8.199480e+01 1.199336e+02 -3.276053e-01 4.193094e+01
6700000000 -7.772810e+00 -5.659621e+00 -7.653606e+01 6.683692e+01 -8.857716e+01 -2.054314e+01 -5.980055e-02 5.026317e+01
6800000000 -8.418886e+00 1.506338e+02 -8.799416e+01 -1.179258e+02 -8.038319e+01 3.777929e+01 8.186830e-01 5.062106e+01
6900000000 -8.155814e+00 -2.757874e+01 -8.292361e+01 5.348297e+01 -8.725624e+01 -1.332153e+02 -3.384615e-01 5.116745e+01
7000000000 -8.467987e+00 1.341168e+02 -8.245696e+01 8.318874e+01 -8.043702e+01 -9.839178e+01 -1.177820e-01 5.790202e+01
7100000000 -8.895313e+00 -4.008824e+01 -9.410513e+01 -7.738333e+01 -8.552132e+01 -8.429925e+01 1.340889e-01 5.933653e+01
7200000000 -7.839169e+00 1.167158e+02 -8.131909e+01 1.250462e+02 -9.068970e+01 3.049739e+01 7.544543e-01 5.909274e+01
7300000000 -9.754491e+00 -6.149351e+01 -8.903232e+01 -7.550483e+00 -8.528233e+01 -1.302317e+02 -2.516582e-02 5.684499e+01
7400000000 -7.854939e+00 9.938175e+01 -7.848360e+01 6.082704e+00 -8.812504e+01 -1.537280e+02 2.401881e-01 6.484255e+01
7500000000 -1.041137e+01 -8.121538e+01 -8.289404e+01 -8.117013e+01 -8.372284e+01 1.775342e+02 7.873587e-01 5.801976e+01
7600000000 -7.341731e+00 8.603870e+01 -7.852245e+01 -1.716133e+02 -8.118992e+01 1.462467e+02 -3.292702e-01 6.095395e+01
7700000000 -1.019240e+01 -1.016871e+02 -8.356773e+01 1.016340e+02 -9.281424e+01 1.577811e+02 1.209657e-01 6.254574e+01
7800000000 -7.352311e+00 7.275771e+01 -9.340766e+01 -1.267612e+02 -8.409604e+01 -4.256848e+00 -5.373738e-01 6.351149e+01
7900000000 -9.627898e+00 -1.162213e+02 -9.213337e+01 1.428221e+02 -8.087233e+01 -1.401640e+02 -2.682802e-02 6.789343e+01
8000000000 -7.818254e+00 6.398948e+01 -7.915605e+01 -1.381340e+02 -8.833315e+01 -9.151134e+01 8.746954e-02 6.441149e+01
8100000000 -8.747997e+00 -1.286823e+02 -8.305124e+01 1.794720e+02 -8.337576e+01 7.209399e+01 -3.663016e-01 6.061252e+01
8200000000 -8.101003e+00 5.376637e+01 -7.656396e+01 -1.312981e+01 -9.236543e+01 -1.387152e+02 -5.738887e-01 6.453519e+01
8300000000 -8.469292e+00 -1.464976e+02 -7.974055e+01 -4.737614e+01 -8.961060e+01 -1.200763e+02 1.663523e-01 6.733338e+01
8400000000 -8.710778e+00 4.013361e+01 -8.009882e+01 1.540770e+02 -8.797686e+01 -3.673712e+01 5.621401e-01 6.175277e+01
8500000000 -8.664432e+00 -1.511416e+02 -9.022701e+01 -2.533553e+01 -8.575464e+01 -2.812682e+01 -3.274938e-01 5.993027e+01
8600000000 -9.303684e+00 1.954045e+01 -8.621178e+01 -9.277851e+01 -8.065228e+01 -1.241990e+02 -6.288162e-01 6.521176e+01
8700000000 -8.662691e+00 -1.701350e+02 -8.636425e+01 1.516676e+01 -8.977785e+01 1.361438e+02 2.526828e-01 6.590480e+01
8800000000 -1.005234e+01 -6.443176e+00 -9.304665e+01 4.429364e+01 -9.349060e+01 -8.936910e+01 -6.933163e-03 6.068092e+01
8900000000 -9.649365e+00 1.714541e+02 -8.130667e+01 1.121894e+02 -8.309662e+01 1.670108e+02 -5.397474e-01 6.361663e+01
9000000000 -9.963780e+00 -2.142976e+01 -7.910362e+01 5.384430e+01 -8.430946e+01 3.297144e+01 -2.851180e-01 6.748785e+01
9100000000 -1.011972e+01 1.587679e+02 -8.477923e+01 4.098763e+01 -8.074747e+01 1.178627e+02 5.861166e-01 6.643502e+01
9200000000 -8.547944e+00 -4.412396e+01 -8.197944e+01 3.206279e+01 -9.062166e+01 5.055194e+01 1.599599e-01 6.141901e+01
9300000000 -1.150727e+01 1.357703e+02 -8.401993e+01 -8.861664e+01 -8.509355e+01 -6.702513e+01 -3.472659e-02 6.659145e+01
9400000000 -8.932834e+00 -6.000269e+01 -8.613906e+01 -4.436608e+00 -9.296542e+01 -1.369806e+02 3.503968e-01 6.367881e+01
9500000000 -1.150567e+01 1.281912e+02 -7.982475e+01 -8.146124e+01 -8.482614e+01 -4.920741e+01 3.436364e-02 6.682146e+01
9600000000 -7.721353e+00 -6.344800e+01 -8.467875e+01 -1.731884e+02 -8.299068e+01 2.011171e+01 6.187300e-01 6.318595e+01
9700000000 -1.101979e+01 1.019054e+02 -8.399543e+01 -1.607159e+02 -8.550565e+01 1.719581e+02 -6.339666e-01 6.375177e+01
9800000000 -8.234098e+00 -7.566698e+01 -8.311958e+01 -8.872615e+01 -8.671283e+01 1.643842e+02 -6.059106e-02 7.096498e+01
9900000000 -1.127801e+01 8.978564e+01 -9.175919e+01 -9.379835e+01 -7.985554e+01 -1.148278e+02 3.614544e-01 6.870753e+01
10000000000 -8.354600e+00 -7.968124e+01 -7.627722e+01 8.099093e+01 -1.086753e+02 -6.125036e+01 6.097925e-01 6.883303e+01
