!Agilent Technologies,N5227A,US51270477,A.10.00.00

!File generated by LCAF-GAM-UPV software
!josevmart@iteam.upv.es
!S2P File: Measurements: S11, S21, S12, S22:
# Hz S  dB   R 50
1000000000 -1.123438e-02 -3.438257e+01 -7.540960e+01 -1.323876e+02 -8.868024e+01 1.610963e+02 7.053942e-03 -3.451022e+01
1010000000 -2.692580e-03 -3.461618e+01 -7.846933e+01 -1.227481e+02 -7.824294e+01 -1.228059e+02 1.045724e-02 -3.489305e+01
1020000000 -8.836193e-03 -3.499516e+01 -7.829951e+01 1.776957e+02 -8.354338e+01 -1.369589e+02 5.200752e-03 -3.518948e+01
1030000000 -5.797812e-03 -3.526180e+01 -7.661195e+01 -1.661676e+02 -7.397150e+01 -1.130220e+02 1.137386e-02 -3.556681e+01
1040000000 -9.039341e-03 -3.559963e+01 -7.874698e+01 -4.279725e+01 -7.146622e+01 -1.116173e+02 8.282294e-03 -3.584996e+01
1050000000 -1.107317e-02 -3.595909e+01 -7.895107e+01 1.790356e+02 -6.722929e+01 -1.310566e+02 7.542868e-03 -3.616534e+01
1060000000 -1.320447e-02 -3.627271e+01 -6.877344e+01 -1.332408e+02 -7.321551e+01 -1.338260e+02 3.830697e-03 -3.666265e+01
1070000000 -1.042361e-02 -3.667864e+01 -6.990726e+01 -1.240355e+02 -7.479736e+01 -1.360583e+02 9.715459e-03 -3.698849e+01
1080000000 -1.077636e-02 -3.696935e+01 -7.146876e+01 -9.693397e+01 -7.967250e+01 -1.558366e+02 3.004373e-03 -3.727297e+01
1090000000 -1.197786e-02 -3.733505e+01 -7.340773e+01 -1.012300e+02 -7.373319e+01 -9.507548e+01 1.053393e-02 -3.761892e+01
1100000000 -1.986035e-02 -3.760850e+01 -8.108006e+01 -1.737343e+02 -8.321647e+01 2.993742e+01 1.159694e-02 -3.796799e+01
1110000000 -1.325025e-02 -3.787112e+01 -7.141074e+01 -8.641474e+01 -7.611113e+01 -1.129253e+02 1.245034e-02 -3.822943e+01
1120000000 -1.026315e-02 -3.830458e+01 -7.047881e+01 -1.250574e+02 -6.785741e+01 -1.135346e+02 4.363480e-03 -3.866370e+01
1130000000 -1.973006e-02 -3.861149e+01 -7.570698e+01 -1.634552e+02 -7.329874e+01 -8.163176e+01 1.028287e-02 -3.904111e+01
1140000000 -2.109107e-02 -3.948535e+01 -7.252144e+01 -8.592028e+01 -7.300343e+01 -1.531489e+02 1.123738e-02 -3.935376e+01
1150000000 -1.511543e-02 -3.930257e+01 -6.920082e+01 -1.246541e+02 -7.558492e+01 -1.279787e+02 1.390215e-02 -3.962143e+01
1160000000 -1.472308e-02 -3.946247e+01 -7.027477e+01 -1.011055e+02 -6.921761e+01 -1.275000e+02 1.338255e-02 -3.996962e+01
1170000000 -1.523630e-02 -4.003144e+01 -7.427090e+01 -1.634567e+02 -6.845422e+01 -1.270273e+02 1.299036e-02 -4.031536e+01
1180000000 -1.905372e-02 -4.037180e+01 -7.066309e+01 -1.161660e+02 -6.994886e+01 -1.045210e+02 1.229212e-02 -4.067253e+01
1190000000 -1.826547e-02 -4.069982e+01 -6.979799e+01 -1.219191e+02 -6.657719e+01 -1.212854e+02 9.880610e-03 -4.105199e+01
1200000000 -1.761469e-02 -4.112840e+01 -7.003119e+01 -1.315821e+02 -7.580629e+01 -1.364460e+02 1.121020e-02 -4.142595e+01
1210000000 -1.780198e-02 -4.148589e+01 -6.977732e+01 -1.041290e+02 -6.870857e+01 -1.440611e+02 1.491245e-02 -4.179760e+01
1220000000 -1.738088e-02 -4.184621e+01 -6.711223e+01 -1.377644e+02 -6.721186e+01 -1.341287e+02 8.782298e-03 -4.219316e+01
1230000000 -1.682659e-02 -4.222380e+01 -6.907509e+01 -1.364543e+02 -7.113370e+01 -1.487203e+02 1.079342e-02 -4.253964e+01
1240000000 -2.329486e-02 -4.258516e+01 -6.829192e+01 -1.546173e+02 -6.579756e+01 -1.435082e+02 1.028321e-02 -4.291367e+01
1250000000 -2.014529e-02 -4.291160e+01 -6.749509e+01 -1.341136e+02 -6.863565e+01 -1.316584e+02 1.154089e-02 -4.368220e+01
1260000000 -2.326504e-02 -4.327987e+01 -6.755907e+01 -1.310449e+02 -6.868552e+01 -1.668255e+02 9.508044e-03 -4.372758e+01
1270000000 -2.265389e-02 -4.361876e+01 -6.911927e+01 -1.426271e+02 -6.881094e+01 -1.475034e+02 9.235060e-03 -4.418506e+01
1280000000 -2.254760e-02 -4.396906e+01 -6.946548e+01 -1.118596e+02 -6.962838e+01 -1.507106e+02 8.111189e-03 -4.467611e+01
1290000000 -1.880378e-02 -4.427389e+01 -6.834861e+01 -1.308324e+02 -7.038304e+01 -1.340082e+02 9.327409e-03 -4.495912e+01
1300000000 -2.105123e-02 -4.463169e+01 -6.986725e+01 -1.244485e+02 -6.825884e+01 -1.294939e+02 1.121705e-02 -4.542414e+01
1310000000 -2.414940e-02 -4.499869e+01 -7.169452e+01 -1.216012e+02 -6.715882e+01 -1.323144e+02 8.790788e-03 -4.566872e+01
1320000000 -2.092674e-02 -4.532691e+01 -6.621916e+01 -1.408553e+02 -6.765329e+01 -1.575031e+02 1.179048e-02 -4.598270e+01
1330000000 -2.435414e-02 -4.564524e+01 -6.992245e+01 -1.300350e+02 -6.767081e+01 -1.310129e+02 7.602391e-03 -4.652021e+01
1340000000 -2.356568e-02 -4.600516e+01 -6.687047e+01 -1.585697e+02 -6.906153e+01 -1.340377e+02 9.317673e-03 -4.690174e+01
1350000000 -2.554790e-02 -4.635312e+01 -6.922614e+01 -1.560468e+02 -6.667847e+01 -1.312082e+02 9.303571e-03 -4.716367e+01
1360000000 -1.776742e-02 -4.670720e+01 -6.649030e+01 -1.408205e+02 -6.600271e+01 -1.293913e+02 1.530558e-02 -4.753654e+01
1370000000 -2.209673e-02 -4.702963e+01 -6.833728e+01 -1.317371e+02 -6.512938e+01 -1.293998e+02 9.129192e-03 -4.797121e+01
1380000000 -2.301725e-02 -4.738318e+01 -6.839383e+01 -1.373913e+02 -6.558446e+01 -1.311852e+02 1.265480e-02 -4.795015e+01
1390000000 -2.536481e-02 -4.772934e+01 -6.800406e+01 -1.324817e+02 -6.709795e+01 -1.395883e+02 1.081055e-02 -4.844084e+01
1400000000 -2.322904e-02 -4.808434e+01 -6.691856e+01 -1.464089e+02 -6.779974e+01 -1.511466e+02 1.156641e-02 -4.891342e+01
1410000000 -2.147751e-02 -4.845333e+01 -6.900364e+01 -1.414346e+02 -6.786108e+01 -1.450314e+02 9.825769e-03 -4.946915e+01
1420000000 -2.434407e-02 -4.877187e+01 -6.701298e+01 -1.435874e+02 -6.463966e+01 -1.451184e+02 1.184422e-02 -4.972841e+01
1430000000 -2.866186e-02 -4.910747e+01 -6.502000e+01 -1.502131e+02 -6.552615e+01 -1.590676e+02 1.199594e-02 -5.002420e+01
1440000000 -2.223326e-02 -4.948179e+01 -6.556177e+01 -1.349513e+02 -6.558345e+01 -1.507972e+02 7.678073e-03 -5.070692e+01
1450000000 -2.580649e-02 -4.980529e+01 -6.562594e+01 -1.558303e+02 -6.452406e+01 -1.449143e+02 5.096715e-03 -5.077500e+01
1460000000 -2.484981e-02 -5.015729e+01 -6.646781e+01 -1.415182e+02 -6.576060e+01 -1.348997e+02 6.778572e-03 -5.114002e+01
1470000000 -2.429728e-02 -5.051937e+01 -6.565730e+01 -1.445528e+02 -6.722971e+01 -1.463273e+02 9.965211e-03 -5.170368e+01
1480000000 -2.503980e-02 -5.088071e+01 -6.734981e+01 -1.285645e+02 -6.469846e+01 -1.322681e+02 1.282527e-02 -5.190708e+01
1490000000 -2.816416e-02 -5.120507e+01 -6.762113e+01 -1.362686e+02 -6.574188e+01 -1.512462e+02 8.450670e-03 -5.237660e+01
1500000000 -2.850407e-02 -5.155642e+01 -6.441418e+01 -1.411608e+02 -6.402446e+01 -1.519685e+02 8.194070e-03 -5.272146e+01
1510000000 -2.789057e-02 -5.190775e+01 -6.634169e+01 -1.486406e+02 -6.679811e+01 -1.267157e+02 3.779192e-05 -5.313889e+01
1520000000 -2.793867e-02 -5.228805e+01 -6.556778e+01 -1.492531e+02 -6.427812e+01 -1.388931e+02 4.665293e-03 -5.345269e+01
1530000000 -3.091311e-02 -5.263802e+01 -6.787193e+01 -1.475364e+02 -6.433260e+01 -1.478420e+02 4.175983e-03 -5.393786e+01
1540000000 -3.279440e-02 -5.300157e+01 -6.688626e+01 -1.365436e+02 -6.627574e+01 -1.381426e+02 6.334748e-03 -5.398976e+01
1550000000 -3.092484e-02 -5.335691e+01 -6.447619e+01 -1.306075e+02 -6.466158e+01 -1.378963e+02 5.311763e-03 -5.429891e+01
1560000000 -2.989656e-02 -5.373722e+01 -6.594180e+01 -1.341445e+02 -6.370530e+01 -1.464079e+02 7.185961e-03 -5.471369e+01
1570000000 -2.855476e-02 -5.406500e+01 -6.431754e+01 -1.435273e+02 -6.565253e+01 -1.304093e+02 3.886694e-03 -5.493925e+01
1580000000 -3.533625e-02 -5.444046e+01 -6.470197e+01 -1.244491e+02 -6.402846e+01 -1.319728e+02 5.476748e-03 -5.539868e+01
1590000000 -4.281316e-02 -5.480001e+01 -6.356415e+01 -1.416813e+02 -6.427291e+01 -1.359965e+02 2.635544e-03 -5.582659e+01
1600000000 -3.892942e-02 -5.515764e+01 -6.438834e+01 -1.243774e+02 -6.318269e+01 -1.340102e+02 9.332203e-03 -5.603469e+01
1610000000 -3.564322e-02 -5.552105e+01 -6.532730e+01 -1.297417e+02 -6.470139e+01 -1.315355e+02 5.900953e-03 -5.633846e+01
1620000000 -4.159636e-02 -5.586764e+01 -6.174070e+01 -1.397578e+02 -6.363465e+01 -1.297510e+02 7.316633e-03 -5.669640e+01
1630000000 -4.165240e-02 -5.625151e+01 -6.121851e+01 -1.427946e+02 -6.098259e+01 -1.515384e+02 -1.923033e-03 -5.840823e+01
1640000000 -4.222435e-02 -5.659997e+01 -6.115652e+01 -1.481440e+02 -6.160075e+01 -1.548886e+02 5.292825e-03 -5.756147e+01
1650000000 -4.520315e-02 -5.695384e+01 -6.140416e+01 -1.575480e+02 -6.397259e+01 -1.465604e+02 6.720802e-03 -5.787832e+01
1660000000 -4.216222e-02 -5.730755e+01 -6.395391e+01 -1.564496e+02 -6.293967e+01 -1.578146e+02 3.867296e-05 -5.832308e+01
1670000000 -4.378854e-02 -5.768481e+01 -6.324910e+01 -1.564336e+02 -6.287562e+01 -1.456277e+02 7.817784e-04 -5.857148e+01
1680000000 -3.937410e-02 -5.805470e+01 -6.505751e+01 -1.479819e+02 -6.264884e+01 -1.495372e+02 5.056271e-03 -5.879210e+01
1690000000 -4.873408e-02 -5.876917e+01 -6.200354e+01 -1.581017e+02 -6.438619e+01 -1.458183e+02 5.652016e-03 -5.938615e+01
1700000000 -4.118505e-02 -5.888734e+01 -6.356652e+01 -1.627794e+02 -6.538327e+01 -1.577125e+02 2.231755e-03 -5.974272e+01
1710000000 -5.234425e-02 -5.963863e+01 -6.269836e+01 -1.502522e+02 -6.264943e+01 -1.414743e+02 2.538632e-03 -6.012864e+01
1720000000 -5.027257e-02 -5.990749e+01 -6.256062e+01 -1.425249e+02 -6.212852e+01 -1.517916e+02 3.099045e-03 -6.050721e+01
1730000000 -5.135130e-02 -6.013437e+01 -6.355781e+01 -1.520273e+02 -6.231468e+01 -1.608492e+02 -4.977132e-03 -6.087747e+01
1740000000 -5.372298e-02 -6.061399e+01 -6.362545e+01 -1.435585e+02 -6.348528e+01 -1.481590e+02 -9.667145e-04 -6.128224e+01
1750000000 -5.195839e-02 -6.101333e+01 -6.447030e+01 -1.390407e+02 -6.238238e+01 -1.385256e+02 -2.917909e-03 -6.165923e+01
1760000000 -5.562656e-02 -6.144751e+01 -6.372692e+01 -1.460488e+02 -6.363869e+01 -1.454637e+02 8.606350e-04 -6.201848e+01
1770000000 -5.346182e-02 -6.184374e+01 -6.319667e+01 -1.494057e+02 -6.213476e+01 -1.473259e+02 -3.426300e-03 -6.236721e+01
1780000000 -5.499281e-02 -6.217051e+01 -6.271305e+01 -1.519312e+02 -6.468723e+01 -1.394340e+02 -8.367431e-05 -6.275078e+01
1790000000 -5.311983e-02 -6.266460e+01 -6.287697e+01 -1.593025e+02 -6.231162e+01 -1.510378e+02 -4.937508e-04 -6.312273e+01
1800000000 -5.720644e-02 -6.307194e+01 -6.148557e+01 -1.486987e+02 -6.337566e+01 -1.509297e+02 -5.423521e-03 -6.350582e+01
1810000000 -6.438056e-02 -6.351302e+01 -6.383826e+01 -1.603809e+02 -6.120243e+01 -1.628116e+02 4.905190e-04 -6.389647e+01
1820000000 -6.203700e-02 -6.369703e+01 -6.290400e+01 -1.528999e+02 -6.352147e+01 -1.553291e+02 -5.128921e-03 -6.426319e+01
1830000000 -6.646570e-02 -6.439505e+01 -6.286631e+01 -1.494599e+02 -6.312543e+01 -1.645364e+02 -5.610023e-03 -6.458839e+01
1840000000 -6.002097e-02 -6.474626e+01 -6.450131e+01 -1.590914e+02 -6.212105e+01 -1.572315e+02 -3.511631e-03 -6.496879e+01
1850000000 -6.684308e-02 -6.518144e+01 -6.217679e+01 -1.466809e+02 -6.215201e+01 -1.557480e+02 -9.439738e-03 -6.538456e+01
1860000000 -6.663714e-02 -6.534695e+01 -6.208593e+01 -1.517668e+02 -6.451584e+01 -1.587451e+02 -8.189748e-03 -6.576392e+01
1870000000 -7.313368e-02 -6.581303e+01 -6.374937e+01 -1.418824e+02 -6.324825e+01 -1.370641e+02 -6.937959e-03 -6.616641e+01
1880000000 -7.313705e-02 -6.674564e+01 -6.513743e+01 -1.464110e+02 -6.385009e+01 -1.373267e+02 -6.695570e-03 -6.654772e+01
1890000000 -6.631575e-02 -6.641785e+01 -6.258983e+01 -1.421426e+02 -6.532243e+01 -1.473510e+02 -9.365211e-03 -6.695121e+01
1900000000 -7.348569e-02 -6.719087e+01 -6.201996e+01 -1.537611e+02 -6.440618e+01 -1.499702e+02 -7.333589e-03 -6.733186e+01
1910000000 -7.442106e-02 -6.731155e+01 -6.260275e+01 -1.501306e+02 -6.311564e+01 -1.529160e+02 -7.691074e-03 -6.770686e+01
1920000000 -7.782344e-02 -6.805245e+01 -6.395792e+01 -1.393159e+02 -6.418574e+01 -1.477610e+02 -5.534179e-03 -6.809534e+01
1930000000 -8.108152e-02 -6.868611e+01 -6.522053e+01 -1.519828e+02 -6.424788e+01 -1.432417e+02 -1.084853e-02 -6.849400e+01
1940000000 -8.016384e-02 -6.878917e+01 -6.466541e+01 -1.474621e+02 -6.255902e+01 -1.527557e+02 -1.585984e-02 -6.887537e+01
1950000000 -8.424670e-02 -6.919322e+01 -6.393726e+01 -1.471838e+02 -6.543289e+01 -1.592550e+02 -1.697136e-02 -6.926354e+01
1960000000 -8.084369e-02 -6.956717e+01 -6.347180e+01 -1.542992e+02 -6.569469e+01 -1.560588e+02 -1.124104e-02 -6.966693e+01
1970000000 -8.979642e-02 -7.011231e+01 -6.600269e+01 -1.599662e+02 -6.543462e+01 -1.540040e+02 -1.076741e-02 -7.005153e+01
1980000000 -9.324599e-02 -7.040345e+01 -6.465948e+01 -1.435916e+02 -6.586241e+01 -1.537699e+02 -1.040008e-02 -7.044661e+01
1990000000 -8.806952e-02 -7.092240e+01 -6.471013e+01 -1.411341e+02 -6.495932e+01 -1.362078e+02 -2.175949e-02 -7.086556e+01
2000000000 -8.778070e-02 -7.068155e+01 -6.868021e+01 -1.427270e+02 -6.700242e+01 -1.468085e+02 -2.624050e-02 -7.120476e+01
2010000000 -9.088412e-02 -7.125245e+01 -6.905141e+01 -1.389827e+02 -6.526113e+01 -1.474650e+02 -2.161737e-02 -7.164588e+01
2020000000 -1.035150e-01 -7.197600e+01 -6.629393e+01 -1.225427e+02 -7.114462e+01 -1.039563e+02 -1.803458e-02 -7.204787e+01
2030000000 -1.007811e-01 -7.205856e+01 -6.759898e+01 -1.249153e+02 -7.176571e+01 -1.356185e+02 -2.599913e-02 -7.247111e+01
2040000000 -9.806670e-02 -7.234683e+01 -7.054002e+01 -1.129249e+02 -6.813421e+01 -9.811107e+01 -2.076124e-02 -7.287958e+01
2050000000 -1.095369e-01 -7.329828e+01 -7.092933e+01 -1.149636e+02 -7.624722e+01 -1.474673e+02 -2.919373e-02 -7.328265e+01
2060000000 -1.122213e-01 -7.341805e+01 -7.167673e+01 -8.171731e+01 -7.004906e+01 -6.715440e+01 -2.708662e-02 -7.374563e+01
2070000000 -1.094562e-01 -7.381107e+01 -6.830255e+01 -7.387125e+01 -6.998598e+01 -8.349103e+01 -3.525895e-02 -7.416178e+01
2080000000 -1.125284e-01 -7.448429e+01 -6.363031e+01 -5.516970e+01 -6.658492e+01 -5.603089e+01 -3.569055e-02 -7.461545e+01
2090000000 -1.136696e-01 -7.458358e+01 -6.177058e+01 -6.480096e+01 -6.322358e+01 -6.479323e+01 -3.610037e-02 -7.501955e+01
2100000000 -1.193369e-01 -7.530917e+01 -6.185112e+01 -6.769213e+01 -6.149147e+01 -6.690063e+01 -3.498403e-02 -7.545755e+01
2110000000 -1.210425e-01 -7.586365e+01 -6.126713e+01 -7.794796e+01 -6.187574e+01 -8.116126e+01 -4.118686e-02 -7.590187e+01
2120000000 -1.239908e-01 -7.574098e+01 -6.249287e+01 -8.003844e+01 -6.127419e+01 -8.798598e+01 -4.273564e-02 -7.630100e+01
2130000000 -1.244825e-01 -7.650867e+01 -6.069237e+01 -9.773987e+01 -6.304433e+01 -8.810539e+01 -4.719275e-02 -7.673265e+01
2140000000 -1.315579e-01 -7.699888e+01 -6.270736e+01 -1.043319e+02 -6.100483e+01 -9.560882e+01 -5.159093e-02 -7.762427e+01
2150000000 -1.287511e-01 -7.709650e+01 -6.367630e+01 -8.874194e+01 -6.310574e+01 -9.408405e+01 -5.401287e-02 -7.789701e+01
2160000000 -1.329386e-01 -7.774840e+01 -6.420815e+01 -8.920041e+01 -6.336316e+01 -8.551229e+01 -5.360906e-02 -7.863467e+01
2170000000 -1.354923e-01 -7.820911e+01 -6.329126e+01 -7.608280e+01 -6.685931e+01 -5.809630e+01 -6.370451e-02 -7.945017e+01
2180000000 -1.353129e-01 -7.854810e+01 -6.672833e+01 -5.988892e+01 -6.702344e+01 -6.148530e+01 -5.299444e-02 -7.922544e+01
2190000000 -1.409817e-01 -7.909832e+01 -6.413695e+01 -6.729870e+01 -6.489200e+01 -5.632573e+01 -6.203907e-02 -8.006289e+01
2200000000 -1.427174e-01 -7.951929e+01 -6.367586e+01 -3.117191e+01 -6.402139e+01 -4.184954e+01 -6.907748e-02 -8.075820e+01
2210000000 -1.462237e-01 -7.996799e+01 -6.207474e+01 -3.275394e+01 -6.300581e+01 -2.549793e+01 -6.142959e-02 -8.065752e+01
2220000000 -1.639578e-01 -8.147979e+01 -6.207819e+01 -2.681878e+01 -6.190537e+01 -1.877649e+01 -6.854276e-02 -8.157899e+01
2230000000 -1.696837e-01 -8.191140e+01 -6.024920e+01 -2.983698e+01 -6.017341e+01 -2.224732e+01 -7.040907e-02 -8.203522e+01
2240000000 -1.585114e-01 -8.170267e+01 -5.949086e+01 -2.361654e+01 -6.055123e+01 -1.495660e+01 -6.454287e-02 -8.190654e+01
2250000000 -1.729914e-01 -8.296635e+01 -5.751876e+01 -1.836698e+01 -5.690776e+01 -2.447376e+01 -7.227837e-02 -8.286137e+01
2260000000 -1.816622e-01 -8.321005e+01 -5.733472e+01 -1.725268e+01 -5.668754e+01 -2.131398e+01 -8.340400e-02 -8.372560e+01
2270000000 -1.730887e-01 -8.336743e+01 -5.577177e+01 -2.180138e+01 -5.648866e+01 -1.560680e+01 -8.093050e-02 -8.348666e+01
2280000000 -1.887178e-01 -8.431650e+01 -5.494427e+01 -1.806139e+01 -5.587711e+01 -1.695076e+01 -8.599529e-02 -8.425845e+01
2290000000 -1.834935e-01 -8.444605e+01 -5.383342e+01 -1.979840e+01 -5.408127e+01 -1.133676e+01 -9.136337e-02 -8.480174e+01
2300000000 -1.866743e-01 -8.457581e+01 -5.288059e+01 -1.612212e+01 -5.288292e+01 -1.257531e+01 -8.971450e-02 -8.484190e+01
2310000000 -2.027004e-01 -8.579727e+01 -5.248310e+01 -1.728225e+01 -5.267629e+01 -1.532503e+01 -9.341424e-02 -8.587356e+01
2320000000 -2.049833e-01 -8.607085e+01 -5.150681e+01 -1.800550e+01 -5.195333e+01 -1.543961e+01 -1.048901e-01 -8.629974e+01
2330000000 -1.930567e-01 -8.611256e+01 -5.121752e+01 -1.551699e+01 -5.057491e+01 -1.290202e+01 -9.956724e-02 -8.641011e+01
2340000000 -2.083481e-01 -8.714309e+01 -5.033006e+01 -1.338361e+01 -5.040997e+01 -1.617676e+01 -1.081730e-01 -8.744017e+01
2350000000 -2.077837e-01 -8.728108e+01 -4.928381e+01 -1.426656e+01 -4.995593e+01 -1.510806e+01 -1.127313e-01 -8.782555e+01
2360000000 -2.199216e-01 -8.809692e+01 -4.847797e+01 -1.805297e+01 -4.862630e+01 -1.494124e+01 -1.144471e-01 -8.816651e+01
2370000000 -2.354041e-01 -8.911385e+01 -4.779950e+01 -1.557060e+01 -4.853024e+01 -1.325878e+01 -9.580954e-02 -8.661498e+01
2380000000 -2.194222e-01 -8.831807e+01 -4.755894e+01 -1.318258e+01 -4.729008e+01 -1.666578e+01 -1.313044e-01 -8.955141e+01
2390000000 -2.252738e-01 -8.888256e+01 -4.659243e+01 -1.607475e+01 -4.686771e+01 -1.428920e+01 -1.311388e-01 -8.967818e+01
2400000000 -2.453707e-01 -9.001079e+01 -4.605167e+01 -1.718931e+01 -4.592802e+01 -1.752734e+01 -1.384585e-01 -9.079865e+01
2410000000 -2.443744e-01 -9.047653e+01 -4.527204e+01 -1.748451e+01 -4.573529e+01 -1.630734e+01 -1.464506e-01 -9.070589e+01
2420000000 -2.630145e-01 -9.161922e+01 -4.445243e+01 -1.709231e+01 -4.476006e+01 -1.564528e+01 -1.417546e-01 -9.169807e+01
2430000000 -2.719236e-01 -9.230619e+01 -4.387488e+01 -1.722067e+01 -4.392317e+01 -1.646726e+01 -1.614128e-01 -9.282817e+01
2440000000 -2.696631e-01 -9.219999e+01 -4.332889e+01 -1.790568e+01 -4.357547e+01 -1.506198e+01 -1.584893e-01 -9.262401e+01
2450000000 -2.819831e-01 -9.316442e+01 -4.263584e+01 -1.873907e+01 -4.266587e+01 -1.816004e+01 -1.616130e-01 -9.352560e+01
2460000000 -2.876048e-01 -9.369922e+01 -4.185433e+01 -1.872008e+01 -4.197688e+01 -1.844891e+01 -1.747361e-01 -9.431716e+01
2470000000 -2.871185e-01 -9.351093e+01 -4.165631e+01 -1.869963e+01 -4.151099e+01 -1.863435e+01 -1.689836e-01 -9.413208e+01
2480000000 -3.073543e-01 -9.461684e+01 -4.055759e+01 -2.047678e+01 -4.085055e+01 -1.884314e+01 -1.838042e-01 -9.518565e+01
2490000000 -3.104464e-01 -9.529781e+01 -3.989747e+01 -2.109962e+01 -3.998103e+01 -2.076125e+01 -1.961274e-01 -9.597028e+01
2500000000 -3.165057e-01 -9.563119e+01 -3.943890e+01 -2.223966e+01 -3.968584e+01 -2.071160e+01 -1.838722e-01 -9.562397e+01
2510000000 -3.400273e-01 -9.691824e+01 -3.873144e+01 -2.370728e+01 -3.911598e+01 -2.325417e+01 -2.014893e-01 -9.708817e+01
2520000000 -3.436720e-01 -9.700308e+01 -3.830151e+01 -2.408421e+01 -3.849595e+01 -2.343563e+01 -2.083708e-01 -9.777084e+01
2530000000 -3.412108e-01 -9.739355e+01 -3.782347e+01 -2.440417e+01 -3.782586e+01 -2.346825e+01 -2.077950e-01 -9.772869e+01
2540000000 -3.638255e-01 -9.852979e+01 -3.709626e+01 -2.600621e+01 -3.723422e+01 -2.515950e+01 -2.194532e-01 -9.895611e+01
2550000000 -3.656641e-01 -9.880615e+01 -3.661718e+01 -2.749650e+01 -3.663262e+01 -2.608266e+01 -2.323044e-01 -9.966369e+01
2560000000 -3.713585e-01 -9.932681e+01 -3.622821e+01 -2.729009e+01 -3.640958e+01 -2.614288e+01 -2.308464e-01 -9.977303e+01
2570000000 -3.858325e-01 -1.005989e+02 -3.555951e+01 -2.859494e+01 -3.557473e+01 -2.797347e+01 -2.575192e-01 -1.014108e+02
2580000000 -3.843493e-01 -1.003378e+02 -3.516879e+01 -2.729304e+01 -3.533566e+01 -2.728389e+01 -2.573262e-01 -1.015350e+02
2590000000 -3.921763e-01 -1.010874e+02 -3.460064e+01 -2.812167e+01 -3.478503e+01 -2.753054e+01 -2.588409e-01 -1.019598e+02
2600000000 -4.086349e-01 -1.020521e+02 -3.407344e+01 -2.937343e+01 -3.391552e+01 -2.951538e+01 -2.872444e-01 -1.036205e+02
