!Agilent Technologies,N5227A,US51270477,A.10.00.00

!File generated by LCAF-GAM-UPV software
!josevmart@iteam.upv.es
!S2P File: Measurements: S11, S21, S12, S22:
# Hz S  dB   R 50
1000000000 -1.241573e-04 -3.034943e+01 -7.781707e+01 2.012235e+01 -7.414625e+01 -1.050526e+01 1.840524e-02 -3.037345e+01
1010000000 7.917008e-03 -3.052025e+01 -8.039291e+01 -7.122330e+01 -7.912869e+01 -1.316909e+02 1.568155e-02 -3.067850e+01
1020000000 5.511100e-03 -3.082182e+01 -7.265187e+01 -1.338399e+02 -8.334458e+01 6.580506e+00 1.803964e-02 -3.097115e+01
1030000000 8.164590e-03 -3.113425e+01 -7.285883e+01 -6.416158e+01 -8.001710e+01 4.016949e+01 1.616710e-02 -3.153501e+01
1040000000 3.032300e-03 -3.147695e+01 -8.116108e+01 -1.168988e+02 -8.090210e+01 -8.827158e+01 1.968897e-02 -3.181591e+01
1050000000 -2.056887e-03 -3.178917e+01 -7.789073e+01 3.779442e+01 -7.939706e+01 4.592502e+01 1.446642e-02 -3.207782e+01
1060000000 2.780737e-03 -3.247651e+01 -7.776730e+01 1.784612e+02 -8.215262e+01 1.490340e+02 1.723126e-02 -3.251390e+01
1070000000 1.467495e-03 -3.276471e+01 -7.767809e+01 -1.267357e+02 -8.884096e+01 -4.939350e+01 1.892787e-02 -3.277446e+01
1080000000 2.831522e-03 -3.291466e+01 -8.213383e+01 -6.345546e+01 -8.412424e+01 -1.476045e+02 1.890245e-02 -3.302491e+01
1090000000 4.464088e-03 -3.328216e+01 -7.579209e+01 -8.538699e+01 -8.165951e+01 -6.428040e+01 1.790587e-02 -3.328059e+01
1100000000 -4.049132e-03 -3.357182e+01 -8.088938e+01 -1.521566e+02 -9.047322e+01 -5.247928e+01 2.179090e-02 -3.353809e+01
1110000000 2.859899e-03 -3.387958e+01 -7.389433e+01 -1.363453e+02 -7.211035e+01 -7.409038e+01 2.443145e-02 -3.387645e+01
1120000000 1.117310e-03 -3.437592e+01 -8.871914e+01 1.367626e+02 -7.700665e+01 -1.440044e+02 1.425563e-02 -3.431815e+01
1130000000 -2.068602e-04 -3.441292e+01 -8.983831e+01 -1.483679e+02 -8.046410e+01 -1.394216e+02 2.039494e-02 -3.444841e+01
1140000000 -2.977591e-03 -3.485886e+01 -7.553633e+01 -6.892480e+01 -7.832520e+01 -4.518824e+01 2.054640e-02 -3.478023e+01
1150000000 2.565161e-03 -3.514720e+01 -7.754961e+01 -2.768342e+00 -7.740250e+01 -1.072957e+02 2.491278e-02 -3.513768e+01
1160000000 -7.942383e-05 -3.549480e+01 -7.359008e+01 -8.754951e+01 -7.515131e+01 -9.582603e+01 2.629383e-02 -3.532533e+01
1170000000 6.981583e-04 -3.570737e+01 -7.931900e+01 -1.242193e+02 -7.509892e+01 -1.100606e+02 2.481011e-02 -3.563724e+01
1180000000 -3.202630e-03 -3.607413e+01 -7.536188e+01 -1.145913e+02 -7.897949e+01 -8.661241e+01 2.005693e-02 -3.601787e+01
1190000000 -7.278994e-04 -3.606093e+01 -7.669709e+01 -1.183535e+02 -7.094698e+01 -1.324273e+02 1.999614e-02 -3.627553e+01
1200000000 2.635440e-03 -3.668241e+01 -7.429980e+01 -1.244292e+02 -7.528323e+01 -1.482825e+02 2.472754e-02 -3.660114e+01
1210000000 1.601787e-03 -3.705631e+01 -6.994725e+01 -1.290707e+02 -7.264898e+01 -9.073849e+01 2.732856e-02 -3.688472e+01
1220000000 -9.655868e-04 -3.717099e+01 -7.581716e+01 -8.693600e+01 -7.585387e+01 -1.672605e+02 2.910104e-02 -3.652718e+01
1230000000 2.665478e-03 -3.760714e+01 -7.764592e+01 -1.574481e+02 -7.701699e+01 -1.449780e+02 2.422786e-02 -3.749091e+01
1240000000 -2.266757e-03 -3.796258e+01 -7.303719e+01 -1.302881e+02 -7.082593e+01 -1.449453e+02 2.530937e-02 -3.792494e+01
1250000000 1.752537e-03 -3.795290e+01 -7.181921e+01 -8.952688e+01 -7.269633e+01 -1.274934e+02 2.788704e-02 -3.809190e+01
1260000000 -9.742483e-04 -3.839117e+01 -7.034498e+01 -1.302262e+02 -7.503642e+01 -1.112312e+02 2.107393e-02 -3.842897e+01
1270000000 1.404618e-04 -3.854852e+01 -7.603829e+01 -1.129989e+02 -7.881930e+01 -1.385888e+02 2.540157e-02 -3.872716e+01
1280000000 -3.356181e-03 -3.893049e+01 -7.896204e+01 -1.708358e+02 -7.304859e+01 -1.393211e+02 2.268214e-02 -3.906221e+01
1290000000 4.552255e-03 -3.929367e+01 -9.164632e+01 1.907667e+01 -7.731430e+01 -1.674022e+02 2.337927e-02 -3.948986e+01
1300000000 5.496367e-03 -3.952522e+01 -7.285530e+01 -1.283621e+02 -7.879312e+01 -3.892366e+01 2.970138e-02 -3.963031e+01
1310000000 -3.417343e-04 -3.991513e+01 -7.108086e+01 -1.258007e+02 -7.113996e+01 -1.151784e+02 2.627118e-02 -4.012663e+01
1320000000 4.162865e-03 -4.007265e+01 -7.274101e+01 -1.589130e+02 -7.213255e+01 -1.214945e+02 3.025820e-02 -4.031283e+01
1330000000 -4.015185e-04 -4.037208e+01 -7.213136e+01 -1.289196e+02 -7.569955e+01 -1.273833e+02 2.607336e-02 -4.061526e+01
1340000000 1.026535e-03 -4.075919e+01 -7.459067e+01 -1.228432e+02 -7.259319e+01 -1.306671e+02 2.842503e-02 -4.099356e+01
1350000000 -2.055863e-03 -4.107451e+01 -7.270792e+01 -1.461911e+02 -7.533929e+01 -9.053879e+01 2.737471e-02 -4.127960e+01
1360000000 5.211834e-03 -4.128926e+01 -7.077045e+01 -1.599069e+02 -7.400118e+01 -1.548776e+02 3.128717e-02 -4.162056e+01
1370000000 2.594374e-03 -4.160151e+01 -7.335053e+01 -1.362624e+02 -7.494997e+01 -1.314637e+02 2.781830e-02 -4.196199e+01
1380000000 2.287910e-03 -4.186860e+01 -7.016864e+01 -1.206870e+02 -7.531866e+01 -1.166135e+02 3.302096e-02 -4.225351e+01
1390000000 1.711151e-03 -4.217700e+01 -6.970498e+01 -1.468505e+02 -6.990955e+01 -1.583529e+02 2.920193e-02 -4.262612e+01
1400000000 4.985128e-03 -4.236518e+01 -7.154435e+01 -1.530115e+02 -6.764209e+01 -1.161978e+02 3.026354e-02 -4.296209e+01
1410000000 7.292818e-03 -4.265318e+01 -7.304859e+01 -1.308205e+02 -7.082817e+01 -1.167738e+02 2.582523e-02 -4.331107e+01
1420000000 5.672510e-03 -4.305720e+01 -7.050609e+01 -1.458176e+02 -6.959563e+01 -1.571730e+02 3.347076e-02 -4.366364e+01
1430000000 3.694660e-03 -4.338757e+01 -6.867290e+01 -1.195058e+02 -7.302972e+01 -1.134143e+02 3.185793e-02 -4.399353e+01
1440000000 7.494956e-03 -4.288086e+01 -7.365302e+01 1.587776e+02 -7.448198e+01 -1.721235e+02 3.113774e-02 -4.424313e+01
1450000000 3.216478e-03 -4.387144e+01 -7.205001e+01 -1.175868e+02 -7.023849e+01 -1.328176e+02 3.190109e-02 -4.463157e+01
1460000000 4.954397e-03 -4.409769e+01 -6.964666e+01 -1.391483e+02 -7.187187e+01 -1.518837e+02 3.152602e-02 -4.498306e+01
1470000000 7.333381e-03 -4.453297e+01 -7.054585e+01 -1.484666e+02 -8.048098e+01 -1.351130e+02 3.362890e-02 -4.508284e+01
1480000000 5.257773e-03 -4.480535e+01 -7.378419e+01 -1.279344e+02 -6.749110e+01 -1.147864e+02 3.552609e-02 -4.566154e+01
1490000000 3.188551e-03 -4.520567e+01 -7.085973e+01 -1.532230e+02 -7.389957e+01 -1.603484e+02 3.357813e-02 -4.581974e+01
1500000000 6.256763e-03 -4.551191e+01 -7.094929e+01 -1.525500e+02 -7.161202e+01 -1.448252e+02 3.269193e-02 -4.611687e+01
1510000000 1.540437e-03 -4.583262e+01 -7.339897e+01 -1.454978e+02 -8.081293e+01 -1.356112e+02 2.815270e-02 -4.650457e+01
1520000000 3.967808e-03 -4.619532e+01 -6.798103e+01 -1.341642e+02 -7.103057e+01 -1.325498e+02 3.081824e-02 -4.674409e+01
1530000000 1.478036e-03 -4.647623e+01 -7.406794e+01 -1.011086e+02 -6.846379e+01 -1.117148e+02 3.050825e-02 -4.715580e+01
1540000000 5.232114e-03 -4.680554e+01 -7.063557e+01 -1.089161e+02 -7.028661e+01 -1.343661e+02 3.452542e-02 -4.739634e+01
1550000000 3.637015e-03 -4.711391e+01 -7.203365e+01 -1.401742e+02 -7.405747e+01 -1.368186e+02 3.319809e-02 -4.782417e+01
1560000000 6.530227e-03 -4.743122e+01 -6.827670e+01 -1.246837e+02 -6.991821e+01 -1.244943e+02 3.488542e-02 -4.801931e+01
1570000000 4.846881e-03 -4.769676e+01 -7.556579e+01 -1.313905e+02 -7.175750e+01 -1.366355e+02 3.137667e-02 -4.829804e+01
1580000000 2.542664e-03 -4.799428e+01 -7.249403e+01 -1.244309e+02 -7.051506e+01 -1.494330e+02 3.213507e-02 -4.916210e+01
1590000000 -2.062070e-03 -4.832598e+01 -7.249615e+01 -1.370124e+02 -6.762620e+01 -1.292007e+02 3.139422e-02 -4.933381e+01
1600000000 3.962324e-05 -4.859760e+01 -6.750127e+01 -1.138923e+02 -6.932592e+01 -1.187371e+02 3.648875e-02 -4.943938e+01
1610000000 1.133676e-03 -4.887950e+01 -6.940658e+01 -1.412799e+02 -6.820603e+01 -1.248615e+02 3.112654e-02 -4.988055e+01
1620000000 -5.146256e-04 -4.920113e+01 -6.502109e+01 -1.138210e+02 -6.549106e+01 -1.362339e+02 3.283973e-02 -5.026804e+01
1630000000 3.116304e-03 -4.948534e+01 -6.317614e+01 -1.383736e+02 -6.501583e+01 -1.327396e+02 3.261152e-02 -5.064405e+01
1640000000 1.849005e-04 -4.979449e+01 -6.436050e+01 -1.464846e+02 -6.589764e+01 -1.405466e+02 3.650675e-02 -5.086348e+01
1650000000 -9.647885e-04 -5.008364e+01 -6.466909e+01 -1.549774e+02 -6.861455e+01 -1.469447e+02 3.755241e-02 -5.111357e+01
1660000000 -1.686513e-03 -5.037363e+01 -6.631109e+01 -1.572806e+02 -6.610332e+01 -1.410695e+02 3.028138e-02 -5.141106e+01
1670000000 4.572493e-04 -5.068371e+01 -6.597698e+01 -1.413022e+02 -6.966809e+01 -1.448006e+02 3.253107e-02 -5.193247e+01
1680000000 5.428398e-03 -5.098994e+01 -6.622691e+01 -1.721332e+02 -6.991302e+01 -1.596379e+02 3.473378e-02 -5.214895e+01
1690000000 -1.321398e-03 -5.128133e+01 -6.561189e+01 -1.569676e+02 -6.538999e+01 -1.300956e+02 3.923935e-02 -5.229154e+01
1700000000 4.668250e-03 -5.159592e+01 -6.684546e+01 -1.525771e+02 -6.944274e+01 -1.512671e+02 3.818772e-02 -5.267842e+01
1710000000 1.244393e-03 -5.189572e+01 -6.989342e+01 -1.579061e+02 -6.787308e+01 -1.408821e+02 3.420867e-02 -5.385542e+01
1720000000 -1.400284e-03 -5.221346e+01 -7.478901e+01 -1.403449e+02 -7.140813e+01 -1.347773e+02 3.662851e-02 -5.327400e+01
1730000000 -1.066272e-03 -5.251453e+01 -6.715262e+01 -1.451479e+02 -6.760088e+01 -1.397506e+02 3.236690e-02 -5.352809e+01
1740000000 1.679071e-03 -5.281765e+01 -6.786492e+01 -1.289086e+02 -6.744347e+01 -1.371151e+02 3.279845e-02 -5.376218e+01
1750000000 8.144621e-04 -5.313993e+01 -6.443262e+01 -1.508676e+02 -6.858562e+01 -1.409448e+02 3.232992e-02 -5.429044e+01
1760000000 2.336934e-03 -5.341872e+01 -6.646851e+01 -1.209668e+02 -6.312514e+01 -1.296293e+02 3.587804e-02 -5.460927e+01
1770000000 1.520966e-03 -5.370158e+01 -6.581793e+01 -1.382017e+02 -6.997589e+01 -1.326936e+02 3.273837e-02 -5.477916e+01
1780000000 1.798410e-03 -5.403143e+01 -6.557864e+01 -1.517577e+02 -6.500842e+01 -1.421805e+02 3.896983e-02 -5.507154e+01
1790000000 1.088890e-03 -5.436742e+01 -6.469332e+01 -1.389805e+02 -6.481920e+01 -1.417674e+02 3.764080e-02 -5.551101e+01
1800000000 -2.352180e-04 -5.463883e+01 -6.377465e+01 -1.480347e+02 -6.941739e+01 -1.359058e+02 3.455363e-02 -5.591121e+01
1810000000 -2.334415e-03 -5.493018e+01 -6.639182e+01 -1.493083e+02 -6.516080e+01 -1.364276e+02 3.889125e-02 -5.616551e+01
1820000000 -4.043037e-04 -5.526553e+01 -6.529411e+01 -1.546308e+02 -6.710417e+01 -1.544775e+02 3.502646e-02 -5.655983e+01
1830000000 6.212467e-03 -5.559356e+01 -6.624065e+01 -1.383278e+02 -6.590720e+01 -1.372238e+02 3.739017e-02 -5.672107e+01
1840000000 5.015710e-03 -5.588731e+01 -6.637682e+01 -1.484678e+02 -6.347453e+01 -1.587647e+02 3.995770e-02 -5.714775e+01
1850000000 3.215002e-03 -5.622221e+01 -6.452011e+01 -1.439379e+02 -6.535678e+01 -1.351488e+02 3.353744e-02 -5.733682e+01
1860000000 1.772964e-03 -5.652726e+01 -6.735078e+01 -1.570631e+02 -6.500606e+01 -1.368325e+02 4.016963e-02 -5.763437e+01
1870000000 -2.581657e-03 -5.687853e+01 -6.750263e+01 -1.548256e+02 -6.651577e+01 -1.552481e+02 4.110605e-02 -5.809835e+01
1880000000 2.755847e-03 -5.718779e+01 -6.476215e+01 -1.456568e+02 -6.603465e+01 -1.401588e+02 3.775558e-02 -5.828218e+01
1890000000 5.784024e-04 -5.750314e+01 -6.460050e+01 -1.480582e+02 -6.501904e+01 -1.513339e+02 3.856854e-02 -5.869895e+01
1900000000 9.437753e-04 -5.782425e+01 -6.526116e+01 -1.448849e+02 -6.432711e+01 -1.384189e+02 4.108318e-02 -5.896286e+01
1910000000 -3.890225e-05 -5.811956e+01 -6.455993e+01 -1.344498e+02 -6.386957e+01 -1.260998e+02 4.178014e-02 -5.926094e+01
1920000000 2.055280e-04 -5.848399e+01 -6.529107e+01 -1.401643e+02 -6.418501e+01 -1.534057e+02 4.292600e-02 -5.967876e+01
1930000000 -3.849007e-03 -5.878241e+01 -6.467924e+01 -1.461507e+02 -6.459269e+01 -1.451085e+02 3.836430e-02 -6.015792e+01
1940000000 -1.288610e-03 -5.910340e+01 -6.505802e+01 -1.483753e+02 -6.381825e+01 -1.477617e+02 3.466078e-02 -6.043946e+01
1950000000 -1.389290e-03 -5.944239e+01 -6.543977e+01 -1.460799e+02 -6.543210e+01 -1.536495e+02 3.701183e-02 -6.082776e+01
1960000000 -5.624033e-04 -5.975610e+01 -6.372836e+01 -1.473038e+02 -6.457678e+01 -1.680140e+02 4.848873e-02 -5.974614e+01
1970000000 -5.783476e-03 -6.010058e+01 -6.371053e+01 -1.488685e+02 -6.213274e+01 -1.477357e+02 4.574272e-02 -6.102917e+01
1980000000 -6.850592e-03 -6.040031e+01 -6.437061e+01 -1.481080e+02 -6.488325e+01 -1.506575e+02 4.483986e-02 -6.183911e+01
1990000000 -6.932181e-03 -6.089276e+01 -6.403455e+01 -1.437239e+02 -6.274643e+01 -1.463923e+02 3.599992e-02 -6.216124e+01
2000000000 -8.266183e-03 -6.175443e+01 -6.338663e+01 -1.520593e+02 -6.492666e+01 -1.402125e+02 3.101069e-02 -6.221476e+01
2010000000 -1.179894e-02 -6.214638e+01 -6.259086e+01 -1.382154e+02 -6.298188e+01 -1.518452e+02 3.908981e-02 -6.254149e+01
2020000000 -1.308725e-02 -6.173894e+01 -6.521613e+01 -1.439638e+02 -6.469188e+01 -1.464151e+02 4.520513e-02 -6.285818e+01
2030000000 -1.548070e-02 -6.227362e+01 -6.515493e+01 -1.495066e+02 -6.505491e+01 -1.454846e+02 3.515075e-02 -6.316869e+01
2040000000 -1.386251e-02 -6.312828e+01 -6.458531e+01 -1.314638e+02 -6.611368e+01 -1.487973e+02 4.164501e-02 -6.351098e+01
2050000000 -1.525843e-02 -6.283962e+01 -6.667059e+01 -1.433502e+02 -6.348299e+01 -1.459825e+02 3.787360e-02 -6.383282e+01
2060000000 -1.629832e-02 -6.353474e+01 -6.561605e+01 -1.454779e+02 -6.657990e+01 -1.366448e+02 3.754414e-02 -6.415385e+01
2070000000 -1.711592e-02 -6.402134e+01 -6.631429e+01 -1.326334e+02 -6.662318e+01 -1.498310e+02 3.530557e-02 -6.449759e+01
2080000000 -1.365473e-02 -6.374132e+01 -6.750254e+01 -1.148040e+02 -6.899150e+01 -1.226053e+02 3.466830e-02 -6.484387e+01
2090000000 -1.603337e-02 -6.441013e+01 -6.354275e+01 -1.157487e+02 -6.428874e+01 -1.245267e+02 3.253757e-02 -6.514267e+01
2100000000 -1.703508e-02 -6.495114e+01 -6.230313e+01 -1.194494e+02 -6.252189e+01 -1.152373e+02 3.701141e-02 -6.547478e+01
2110000000 -1.543069e-02 -6.487737e+01 -6.240319e+01 -9.954127e+01 -6.203958e+01 -1.153957e+02 3.195028e-02 -6.582060e+01
2120000000 -2.284794e-02 -6.552682e+01 -6.146464e+01 -1.208334e+02 -6.000811e+01 -1.136360e+02 3.834452e-02 -6.608897e+01
2130000000 -1.604047e-02 -6.575650e+01 -5.956429e+01 -1.266125e+02 -6.134504e+01 -1.271066e+02 3.369697e-02 -6.644653e+01
2140000000 -2.465039e-02 -6.652483e+01 -5.920955e+01 -1.430717e+02 -6.054820e+01 -1.211575e+02 3.247108e-02 -6.680136e+01
2150000000 -2.056912e-02 -6.653333e+01 -5.914042e+01 -1.341035e+02 -5.904878e+01 -1.383361e+02 3.186386e-02 -6.709869e+01
2160000000 -2.239034e-02 -6.681574e+01 -5.879053e+01 -1.396805e+02 -5.884588e+01 -1.465253e+02 3.778392e-02 -6.747765e+01
2170000000 -2.055917e-02 -6.683132e+01 -5.997510e+01 -1.432419e+02 -5.904298e+01 -1.453163e+02 2.893436e-02 -6.779817e+01
2180000000 -2.073236e-02 -6.767702e+01 -5.974558e+01 -1.460623e+02 -5.898394e+01 -1.478579e+02 3.945883e-02 -6.814973e+01
2190000000 -2.022306e-02 -6.746996e+01 -5.956682e+01 -1.485678e+02 -6.146370e+01 -1.473328e+02 3.385829e-02 -6.850694e+01
2200000000 -2.336984e-02 -6.804479e+01 -6.209191e+01 -1.481638e+02 -5.951529e+01 -1.529580e+02 3.129048e-02 -6.885052e+01
2210000000 -2.569656e-02 -6.885342e+01 -6.004563e+01 -1.512174e+02 -5.988391e+01 -1.610451e+02 3.136933e-02 -6.917693e+01
2220000000 -2.302743e-02 -6.845564e+01 -6.067697e+01 -1.546614e+02 -5.999696e+01 -1.558517e+02 3.375266e-02 -6.950565e+01
2230000000 -1.979825e-02 -6.905336e+01 -6.193868e+01 -1.524647e+02 -6.205123e+01 -1.616297e+02 3.220169e-02 -6.985357e+01
2240000000 -2.527601e-02 -6.977790e+01 -6.084866e+01 -1.586413e+02 -6.119894e+01 -1.481019e+02 3.139265e-02 -7.018860e+01
2250000000 -2.796377e-02 -6.963859e+01 -6.125896e+01 -1.510304e+02 -6.101239e+01 -1.558992e+02 3.031519e-02 -7.047409e+01
2260000000 -3.309248e-02 -7.029969e+01 -6.087704e+01 -1.494694e+02 -6.137193e+01 -1.492559e+02 2.523331e-02 -7.084217e+01
2270000000 -3.204775e-02 -7.077094e+01 -6.016849e+01 -1.562531e+02 -6.180512e+01 -1.602163e+02 2.775163e-02 -7.115675e+01
2280000000 -2.883738e-02 -7.054219e+01 -6.192839e+01 -1.606606e+02 -5.933022e+01 -1.402375e+02 2.614260e-02 -7.155234e+01
2290000000 -2.762120e-02 -7.160359e+01 -6.057298e+01 -1.561749e+02 -6.101669e+01 -1.608237e+02 2.433304e-02 -7.190341e+01
2300000000 -3.470675e-02 -7.192622e+01 -6.222015e+01 -1.486386e+02 -6.116060e+01 -1.596382e+02 2.409571e-02 -7.227569e+01
2310000000 -3.177923e-02 -7.143721e+01 -6.026928e+01 -1.498799e+02 -6.119532e+01 -1.504642e+02 2.699926e-02 -7.260579e+01
2320000000 -3.723001e-02 -7.252289e+01 -6.098503e+01 -1.405647e+02 -6.069967e+01 -1.480679e+02 1.251405e-02 -7.301464e+01
2330000000 -3.192400e-02 -7.270034e+01 -6.219056e+01 -1.518790e+02 -6.229683e+01 -1.611859e+02 2.402636e-02 -7.330984e+01
2340000000 -2.973708e-02 -7.271483e+01 -6.090672e+01 -1.507455e+02 -6.069186e+01 -1.440463e+02 1.865465e-02 -7.368538e+01
2350000000 -3.707181e-02 -7.376213e+01 -6.244236e+01 -1.653220e+02 -6.213411e+01 -1.504709e+02 1.633302e-02 -7.403640e+01
2360000000 -3.813113e-02 -7.353105e+01 -6.180734e+01 -1.518471e+02 -6.175941e+01 -1.639042e+02 1.519608e-02 -7.436571e+01
2370000000 -3.565846e-02 -7.373759e+01 -6.226282e+01 -1.544627e+02 -6.236925e+01 -1.561000e+02 1.337015e-02 -7.476707e+01
2380000000 -4.396072e-02 -7.495551e+01 -6.202358e+01 -1.515440e+02 -6.283082e+01 -1.580821e+02 1.132826e-02 -7.516158e+01
2390000000 -4.502083e-02 -7.494036e+01 -6.271893e+01 -1.497350e+02 -6.339574e+01 -1.636401e+02 1.421101e-02 -7.549272e+01
2400000000 -4.896468e-02 -7.516219e+01 -6.269077e+01 -1.637874e+02 -6.387458e+01 -1.440461e+02 1.166834e-02 -7.583449e+01
2410000000 -5.231136e-02 -7.601698e+01 -6.600648e+01 -1.501858e+02 -6.626510e+01 -1.410489e+02 9.308265e-03 -7.624584e+01
2420000000 -4.646613e-02 -7.586683e+01 -6.277523e+01 -1.428355e+02 -6.428550e+01 -1.565022e+02 1.682983e-02 -7.662170e+01
2430000000 -4.928537e-02 -7.617944e+01 -6.530195e+01 -1.533468e+02 -6.479283e+01 -1.324919e+02 1.023794e-02 -7.698861e+01
2440000000 -5.437551e-02 -7.717299e+01 -6.620852e+01 -1.527892e+02 -6.933782e+01 -1.355704e+02 9.751042e-03 -7.741449e+01
2450000000 -4.918836e-02 -7.674503e+01 -7.005584e+01 -1.576068e+02 -7.084118e+01 -1.692603e+02 1.235113e-02 -7.775243e+01
2460000000 -5.769922e-02 -7.775937e+01 -6.446059e+01 -1.550724e+02 -6.545256e+01 -1.528845e+02 6.612594e-03 -7.814487e+01
2470000000 -6.456014e-02 -7.818787e+01 -6.924586e+01 -1.399200e+02 -7.294244e+01 -1.474514e+02 8.122097e-03 -7.850314e+01
2480000000 -6.131287e-02 -7.793647e+01 -7.613663e+01 -9.947622e+01 -7.444424e+01 -1.418638e+02 6.938183e-03 -7.889423e+01
2490000000 -6.696811e-02 -7.887497e+01 -6.995872e+01 -7.836842e+01 -7.329373e+01 -1.199446e+02 3.539649e-03 -7.926753e+01
2500000000 -6.633314e-02 -7.907436e+01 -6.609334e+01 -5.676376e+01 -7.314765e+01 -7.976806e+01 5.443098e-03 -7.966052e+01
2510000000 -7.348931e-02 -7.921238e+01 -6.600094e+01 -7.304337e+01 -7.001199e+01 -1.017533e+02 1.020707e-05 -8.006466e+01
2520000000 -7.143692e-02 -7.966088e+01 -6.679556e+01 -6.772838e+01 -6.575574e+01 -5.453101e+01 4.858401e-03 -8.043707e+01
2530000000 -7.333399e-02 -8.010883e+01 -6.598549e+01 -4.720026e+01 -6.568345e+01 -4.927983e+01 5.609838e-03 -8.087344e+01
2540000000 -7.814011e-02 -8.049262e+01 -6.555019e+01 -7.602135e+01 -6.434969e+01 -7.302429e+01 6.591102e-03 -8.137268e+01
2550000000 -7.750195e-02 -8.111318e+01 -6.482607e+01 -5.133090e+01 -6.722926e+01 -6.422751e+01 -2.409940e-04 -8.246741e+01
2560000000 -7.374177e-02 -8.134446e+01 -6.584650e+01 -6.172086e+01 -6.658431e+01 -6.855991e+01 3.555862e-03 -8.236381e+01
2570000000 -7.217529e-02 -8.174773e+01 -6.216658e+01 -5.320791e+01 -6.273792e+01 -5.862241e+01 -7.020616e-03 -8.314314e+01
2580000000 -8.668204e-02 -8.292738e+01 -6.096173e+01 -6.746349e+01 -6.376283e+01 -7.441946e+01 -9.823603e-04 -8.332390e+01
2590000000 -8.670679e-02 -8.355891e+01 -6.275348e+01 -5.615531e+01 -6.348341e+01 -6.219937e+01 3.810662e-03 -8.370883e+01
2600000000 -7.911327e-02 -8.327605e+01 -6.278886e+01 -4.022300e+01 -6.254504e+01 -4.361931e+01 -8.170299e-03 -8.484261e+01
2610000000 -9.156251e-02 -8.453238e+01 -6.196893e+01 -3.795363e+01 -6.232563e+01 -5.115701e+01 -6.227634e-03 -8.466813e+01
2620000000 -9.382816e-02 -8.476643e+01 -6.146144e+01 -2.843259e+01 -6.098243e+01 -2.656923e+01 -6.027980e-03 -8.471190e+01
