!Agilent Technologies,N5227A,US51270477,A.10.00.00

!File generated by LCAF-GAM-UPV software
!josevmart@iteam.upv.es
!S2P File: Measurements: S11, S21, S12, S22:
# Hz S  dB   R 50
1000000000 2.006655e-03 -3.031062e+01 -7.861411e+01 -1.718080e+02 -7.744601e+01 -1.788081e+02 1.474045e-02 -3.093591e+01
1010000000 6.280094e-03 -3.057287e+01 -7.956516e+01 -8.275522e+01 -7.421082e+01 -1.660421e+02 1.549522e-02 -3.127761e+01
1020000000 1.569267e-03 -3.087772e+01 -7.444393e+01 -3.512736e+01 -7.447856e+01 -1.091066e+02 1.801653e-02 -3.130385e+01
1030000000 6.080748e-03 -3.117941e+01 -9.739296e+01 8.332821e+01 -9.124188e+01 -8.064638e+01 1.340285e-02 -3.171166e+01
1040000000 3.157572e-03 -3.150049e+01 -7.545845e+01 -1.115397e+01 -1.015887e+02 -4.481909e+01 2.033333e-02 -3.221194e+01
1050000000 1.626670e-03 -3.178619e+01 -7.974461e+01 -1.313636e+02 -7.878652e+01 1.581295e+02 1.775481e-02 -3.256981e+01
1060000000 5.781472e-03 -3.207332e+01 -7.480100e+01 -8.138716e+01 -7.579348e+01 1.733341e+02 1.620197e-02 -3.291150e+01
1070000000 3.172906e-03 -3.239454e+01 -8.062733e+01 1.163489e+02 -7.733233e+01 -1.421896e+02 1.846878e-02 -3.317795e+01
1080000000 1.168984e-03 -3.266055e+01 -8.248220e+01 -3.915375e+01 -7.602340e+01 -1.464762e+02 1.583874e-02 -3.340983e+01
1090000000 7.777508e-05 -3.298584e+01 -7.844951e+01 -9.092216e+01 -8.079249e+01 1.231524e+02 2.160279e-02 -3.380548e+01
1100000000 1.366883e-04 -3.327589e+01 -8.914292e+01 -7.344449e+01 -7.620445e+01 -7.281310e+01 2.164948e-02 -3.407182e+01
1110000000 5.414720e-03 -3.359690e+01 -8.637247e+01 -6.657793e+01 -8.629725e+01 -1.345786e+02 2.160994e-02 -3.432067e+01
1120000000 3.959323e-03 -3.387661e+01 -7.660495e+01 -9.852512e+01 -7.039266e+01 -3.038129e+01 1.780076e-02 -3.463559e+01
1130000000 -4.152299e-04 -3.419403e+01 -8.729779e+01 -1.568763e+02 -8.575101e+01 -5.456203e+01 1.510771e-02 -3.506535e+01
1140000000 8.227719e-04 -3.450764e+01 -7.573893e+01 -6.096040e+01 -7.997565e+01 -1.106999e+02 2.416213e-02 -3.534964e+01
1150000000 2.919853e-03 -3.480939e+01 -7.458356e+01 -6.635163e+01 -7.334894e+01 -5.282999e+01 2.379743e-02 -3.567683e+01
1160000000 1.596411e-03 -3.512732e+01 -8.094449e+01 -1.176195e+02 -7.965450e+01 -1.230039e+02 2.593214e-02 -3.593414e+01
1170000000 -3.452391e-04 -3.540231e+01 -7.634168e+01 -8.291257e+01 -7.565693e+01 -1.083155e+02 2.141296e-02 -3.614496e+01
1180000000 7.974247e-05 -3.573247e+01 -7.627760e+01 -8.735871e+01 -7.275757e+01 -8.612451e+01 1.986101e-02 -3.651412e+01
1190000000 -7.145992e-04 -3.603403e+01 -7.233764e+01 -8.997461e+01 -7.196982e+01 -9.550527e+01 1.851093e-02 -3.678266e+01
1200000000 3.272788e-03 -3.634357e+01 -7.257374e+01 -1.213688e+02 -7.658549e+01 -1.623632e+01 2.617221e-02 -3.699534e+01
1210000000 2.041199e-03 -3.661387e+01 -6.960489e+01 -1.232523e+02 -7.398969e+01 -9.106136e+01 2.465886e-02 -3.727937e+01
1220000000 3.548779e-03 -3.694400e+01 -7.291190e+01 -1.640641e+02 -7.339317e+01 -1.288594e+02 2.387774e-02 -3.762699e+01
1230000000 3.429648e-03 -3.725658e+01 -6.885107e+01 -1.370787e+02 -7.400555e+01 -1.668304e+02 2.468581e-02 -3.797125e+01
1240000000 -2.615688e-04 -3.755729e+01 -7.236229e+01 -1.630632e+02 -7.638650e+01 1.792301e+02 2.658463e-02 -3.805717e+01
1250000000 2.214961e-03 -3.788376e+01 -7.194383e+01 -1.340857e+02 -7.764104e+01 -1.745300e+02 2.700037e-02 -3.855685e+01
1260000000 1.316846e-03 -3.818596e+01 -7.374723e+01 -1.404279e+02 -7.007746e+01 -1.615581e+02 2.274790e-02 -3.882671e+01
1270000000 -1.089557e-03 -3.848911e+01 -8.196124e+01 -1.114787e+02 -8.546866e+01 1.020538e+02 2.130385e-02 -3.863552e+01
1280000000 -4.683652e-03 -3.878317e+01 -7.162128e+01 -1.539457e+02 -8.131236e+01 -1.015661e+02 2.047529e-02 -3.959278e+01
1290000000 -1.331732e-03 -3.922894e+01 -7.129756e+01 -1.456947e+02 -7.938089e+01 -1.501830e+02 2.344494e-02 -3.971814e+01
1300000000 3.021393e-03 -3.954408e+01 -7.671268e+01 -1.078480e+02 -7.740435e+01 -1.595280e+02 2.839436e-02 -4.001705e+01
1310000000 -4.315631e-03 -3.989051e+01 -7.468681e+01 -1.016336e+02 -7.302090e+01 -1.246496e+02 2.529844e-02 -4.034212e+01
1320000000 6.053156e-03 -4.014661e+01 -7.261069e+01 -1.284945e+02 -6.966528e+01 -1.256019e+02 2.827431e-02 -4.064995e+01
1330000000 -4.493169e-04 -4.052742e+01 -7.397162e+01 -1.300502e+02 -7.083628e+01 -1.141009e+02 2.657281e-02 -4.096962e+01
1340000000 -5.928941e-04 -4.085630e+01 -7.266001e+01 -1.157790e+02 -7.237325e+01 -1.401088e+02 2.371646e-02 -4.129821e+01
1350000000 1.778472e-03 -4.099428e+01 -7.318468e+01 -1.576289e+02 -7.702826e+01 -8.933578e+01 2.436448e-02 -4.161122e+01
1360000000 3.038919e-03 -4.136561e+01 -7.384657e+01 -1.039531e+02 -7.130639e+01 -1.393762e+02 2.856551e-02 -4.190566e+01
1370000000 5.089846e-03 -4.174525e+01 -7.254118e+01 -1.371218e+02 -6.836218e+01 -1.454088e+02 2.850325e-02 -4.219906e+01
1380000000 1.657532e-03 -4.190545e+01 -7.152758e+01 -1.209304e+02 -7.528183e+01 -1.370735e+02 3.365352e-02 -4.252721e+01
1390000000 2.614001e-03 -4.221576e+01 -7.539140e+01 -1.421060e+02 -7.189571e+01 -1.026298e+02 3.212578e-02 -4.281597e+01
1400000000 6.564430e-03 -4.260226e+01 -7.087019e+01 -1.444964e+02 -7.188876e+01 -1.553871e+02 3.071350e-02 -4.309805e+01
1410000000 5.143453e-03 -4.280153e+01 -6.936768e+01 -1.643535e+02 -7.408817e+01 -1.737299e+02 3.014228e-02 -4.340986e+01
1420000000 3.881763e-03 -4.334071e+01 -6.954338e+01 -1.214649e+02 -7.295978e+01 -1.302064e+02 3.225897e-02 -4.372735e+01
1430000000 1.041055e-03 -4.348487e+01 -6.990033e+01 -1.346760e+02 -7.265866e+01 -1.353182e+02 3.274365e-02 -4.403577e+01
1440000000 3.099181e-04 -4.382963e+01 -7.131241e+01 -1.313781e+02 -6.854231e+01 -1.291024e+02 3.284135e-02 -4.433974e+01
1450000000 1.812595e-03 -4.417347e+01 -6.950223e+01 -1.414052e+02 -7.139239e+01 -1.464130e+02 2.648110e-02 -4.465995e+01
1460000000 5.498502e-04 -4.459821e+01 -7.248656e+01 -1.654309e+02 -7.250798e+01 -1.185396e+02 2.767807e-02 -4.495605e+01
1470000000 1.924913e-03 -4.470287e+01 -7.098685e+01 -1.289553e+02 -7.810872e+01 -1.326178e+02 3.593865e-02 -4.525425e+01
1480000000 6.666173e-03 -4.449184e+01 -7.452984e+01 -1.273563e+02 -6.840193e+01 -1.328333e+02 3.656524e-02 -4.557942e+01
1490000000 4.952541e-03 -4.529922e+01 -7.263924e+01 -1.271557e+02 -7.445267e+01 -1.254809e+02 3.415370e-02 -4.584998e+01
1500000000 5.863443e-03 -4.574286e+01 -7.353288e+01 -1.236436e+02 -7.197135e+01 -1.569139e+02 3.275574e-02 -4.617132e+01
1510000000 5.225560e-03 -4.609279e+01 -7.323383e+01 -1.422333e+02 -7.556451e+01 -1.334610e+02 2.984552e-02 -4.647673e+01
1520000000 3.223216e-03 -4.640733e+01 -7.106023e+01 -1.440577e+02 -6.931928e+01 -1.548457e+02 3.061011e-02 -4.680346e+01
1530000000 -1.357717e-03 -4.666359e+01 -7.094652e+01 -1.563966e+02 -6.935771e+01 -1.572330e+02 3.139948e-02 -4.712542e+01
1540000000 2.428950e-03 -4.707921e+01 -6.835160e+01 -1.237990e+02 -6.974530e+01 -1.531904e+02 3.626098e-02 -4.744565e+01
1550000000 5.604692e-03 -4.733306e+01 -6.983287e+01 -1.272530e+02 -7.347137e+01 -9.598512e+01 3.078881e-02 -4.773946e+01
1560000000 5.594965e-03 -4.781213e+01 -7.003282e+01 -9.849261e+01 -7.299025e+01 -1.524472e+02 3.196032e-02 -4.799505e+01
1570000000 1.307597e-03 -4.793599e+01 -7.519717e+01 -1.400800e+02 -7.200981e+01 -1.194347e+02 3.286181e-02 -4.828884e+01
1580000000 1.242219e-03 -4.830274e+01 -6.971862e+01 -1.306250e+02 -6.922517e+01 -1.347678e+02 3.161629e-02 -4.861136e+01
1590000000 -5.304703e-03 -4.868346e+01 -7.026926e+01 -9.781001e+01 -6.955678e+01 -1.575564e+02 3.386550e-02 -4.892000e+01
1600000000 -4.325732e-03 -4.902552e+01 -6.746424e+01 -1.421575e+02 -6.651007e+01 -1.350784e+02 3.519097e-02 -4.923974e+01
1610000000 -1.609664e-03 -4.932989e+01 -6.998116e+01 -1.395688e+02 -6.661735e+01 -1.149315e+02 3.293759e-02 -4.955811e+01
1620000000 -2.813837e-03 -4.957717e+01 -6.674287e+01 -1.209921e+02 -6.526592e+01 -1.323324e+02 3.430092e-02 -4.986525e+01
1630000000 -2.799014e-03 -4.985283e+01 -6.418739e+01 -1.339978e+02 -6.507147e+01 -1.267600e+02 3.437318e-02 -5.018862e+01
1640000000 -2.566760e-03 -5.034557e+01 -6.670097e+01 -1.319076e+02 -6.458488e+01 -1.486897e+02 3.661682e-02 -5.048254e+01
1650000000 -1.275536e-03 -5.054437e+01 -6.494415e+01 -1.454682e+02 -6.592561e+01 -1.558797e+02 3.750602e-02 -5.079710e+01
1660000000 -3.606995e-03 -5.086043e+01 -6.581982e+01 -1.520402e+02 -6.585028e+01 -1.448596e+02 3.166234e-02 -5.116395e+01
1670000000 -6.094108e-03 -5.135430e+01 -6.770468e+01 -1.520116e+02 -6.730751e+01 -1.301279e+02 3.164366e-02 -5.144436e+01
1680000000 1.168149e-03 -5.160655e+01 -6.821645e+01 -1.617649e+02 -6.775594e+01 -1.545444e+02 3.846046e-02 -5.178611e+01
1690000000 -3.215474e-03 -5.193574e+01 -6.598967e+01 -1.500269e+02 -6.466382e+01 -1.313390e+02 3.927372e-02 -5.206575e+01
1700000000 5.439631e-03 -5.221773e+01 -6.852798e+01 -1.319712e+02 -6.808678e+01 -1.450351e+02 4.162542e-02 -5.236042e+01
1710000000 -1.351501e-04 -5.252346e+01 -6.928268e+01 -1.532725e+02 -6.685894e+01 -1.559523e+02 4.058627e-02 -5.265817e+01
1720000000 -3.447762e-03 -5.291996e+01 -6.803038e+01 -1.327988e+02 -6.808989e+01 -1.477039e+02 3.687957e-02 -5.300887e+01
1730000000 -6.563992e-03 -5.319900e+01 -6.904926e+01 -1.480227e+02 -6.679457e+01 -1.466706e+02 3.263315e-02 -5.333230e+01
1740000000 -3.151647e-03 -5.342593e+01 -6.865350e+01 -1.497447e+02 -7.056042e+01 -1.474850e+02 3.454459e-02 -5.367895e+01
1750000000 -4.188979e-03 -5.379788e+01 -6.988603e+01 -1.503367e+02 -6.857445e+01 -1.321964e+02 3.396056e-02 -5.401494e+01
1760000000 -2.796144e-03 -5.417159e+01 -6.617236e+01 -1.338462e+02 -6.706131e+01 -1.519028e+02 3.787656e-02 -5.430250e+01
1770000000 -2.290905e-03 -5.435982e+01 -6.663799e+01 -1.239770e+02 -6.722245e+01 -1.513516e+02 3.634260e-02 -5.463742e+01
1780000000 -1.262360e-03 -5.466145e+01 -6.740062e+01 -1.405059e+02 -6.622648e+01 -1.266857e+02 4.142268e-02 -5.496379e+01
1790000000 4.098816e-05 -5.490364e+01 -6.704041e+01 -1.380245e+02 -6.418457e+01 -1.215145e+02 3.940627e-02 -5.528939e+01
1800000000 1.013927e-04 -5.522350e+01 -6.571022e+01 -1.538262e+02 -6.693438e+01 -1.429839e+02 4.083069e-02 -5.563330e+01
1810000000 -7.497744e-03 -5.563217e+01 -6.674379e+01 -1.504822e+02 -6.894655e+01 -1.514339e+02 3.718682e-02 -5.595285e+01
1820000000 -2.780138e-03 -5.588771e+01 -6.478844e+01 -1.427346e+02 -6.472339e+01 -1.392536e+02 3.259022e-02 -5.697503e+01
1830000000 -5.721941e-03 -5.624129e+01 -6.837090e+01 -1.556192e+02 -6.485532e+01 -1.390410e+02 3.526054e-02 -5.673831e+01
1840000000 -2.674831e-03 -5.695328e+01 -6.535036e+01 -1.491720e+02 -6.396308e+01 -1.698002e+02 3.735267e-02 -5.721973e+01
1850000000 -3.484167e-04 -5.711473e+01 -6.590520e+01 -1.396494e+02 -6.671087e+01 -1.431931e+02 3.360491e-02 -5.748458e+01
1860000000 -4.070555e-03 -5.758352e+01 -6.555372e+01 -1.360541e+02 -6.682763e+01 -1.453577e+02 3.721800e-02 -5.787968e+01
1870000000 -8.518271e-03 -5.784871e+01 -6.672571e+01 -1.366581e+02 -6.605241e+01 -1.381989e+02 3.936422e-02 -5.818830e+01
1880000000 -6.432074e-03 -5.816227e+01 -6.663801e+01 -1.482489e+02 -6.439381e+01 -1.293704e+02 3.911491e-02 -5.842233e+01
1890000000 -3.298476e-03 -5.846492e+01 -6.650098e+01 -1.450342e+02 -6.398696e+01 -1.505375e+02 3.812550e-02 -5.900180e+01
1900000000 -5.049104e-03 -5.892938e+01 -6.472961e+01 -1.538304e+02 -6.651243e+01 -1.576890e+02 3.877249e-02 -5.907374e+01
1910000000 -1.184289e-02 -5.912516e+01 -6.533499e+01 -1.352093e+02 -6.755830e+01 -1.546175e+02 4.086963e-02 -5.938368e+01
1920000000 -5.004372e-03 -5.922571e+01 -6.591891e+01 -1.452927e+02 -6.665302e+01 -1.520242e+02 4.446274e-02 -5.973354e+01
1930000000 -9.238875e-03 -5.971492e+01 -6.364639e+01 -1.403905e+02 -6.459615e+01 -1.619384e+02 3.695987e-02 -6.014460e+01
1940000000 -6.995524e-03 -6.017421e+01 -6.476838e+01 -1.442537e+02 -6.575298e+01 -1.540276e+02 3.717267e-02 -6.037223e+01
1950000000 -1.290389e-02 -6.045187e+01 -6.515392e+01 -1.591527e+02 -6.362285e+01 -1.572464e+02 3.959327e-02 -6.067131e+01
1960000000 -6.626060e-03 -6.074334e+01 -6.333400e+01 -1.457764e+02 -6.475279e+01 -1.445110e+02 4.254399e-02 -6.109035e+01
1970000000 -1.143419e-02 -6.074762e+01 -6.423620e+01 -1.412797e+02 -6.369962e+01 -1.423627e+02 3.905143e-02 -6.124733e+01
1980000000 -1.355474e-02 -6.130080e+01 -6.210067e+01 -1.568015e+02 -6.360902e+01 -1.723966e+02 4.483785e-02 -6.179041e+01
1990000000 -1.532823e-02 -6.192695e+01 -6.389854e+01 -1.471054e+02 -6.526992e+01 -1.506401e+02 3.582295e-02 -6.190123e+01
2000000000 -1.480669e-02 -6.253495e+01 -6.375514e+01 -1.577487e+02 -6.417764e+01 -1.431538e+02 3.366972e-02 -6.244408e+01
2010000000 -1.735967e-02 -6.264044e+01 -6.575060e+01 -1.577805e+02 -6.358696e+01 -1.328839e+02 3.513486e-02 -6.326265e+01
2020000000 -1.784241e-02 -6.249289e+01 -6.516879e+01 -1.571069e+02 -6.567300e+01 -1.421029e+02 3.937021e-02 -6.334817e+01
2030000000 -1.772758e-02 -6.311144e+01 -6.446954e+01 -1.453927e+02 -6.587691e+01 -1.587030e+02 3.647715e-02 -6.348474e+01
2040000000 -1.881933e-02 -6.350611e+01 -6.402998e+01 -1.688195e+02 -6.516406e+01 -1.564587e+02 3.904736e-02 -6.415035e+01
2050000000 -1.912256e-02 -6.354658e+01 -6.594831e+01 -1.419869e+02 -6.601911e+01 -1.449396e+02 3.925055e-02 -6.414473e+01
2060000000 -2.303833e-02 -6.425423e+01 -6.653670e+01 -1.339235e+02 -6.712185e+01 -1.367404e+02 3.397671e-02 -6.466376e+01
2070000000 -2.207967e-02 -6.452584e+01 -6.652317e+01 -1.211806e+02 -6.407697e+01 -1.259053e+02 3.372180e-02 -6.512953e+01
2080000000 -1.704790e-02 -6.441022e+01 -6.684426e+01 -1.128039e+02 -6.464879e+01 -1.247702e+02 3.319429e-02 -6.524563e+01
2090000000 -2.081412e-02 -6.492269e+01 -6.479184e+01 -1.159395e+02 -6.705006e+01 -1.236117e+02 3.233996e-02 -6.564032e+01
2100000000 -2.005809e-02 -6.508434e+01 -6.357817e+01 -1.106926e+02 -6.226107e+01 -1.178275e+02 3.649331e-02 -6.622520e+01
2110000000 -1.590116e-02 -6.540623e+01 -6.168027e+01 -1.155905e+02 -6.056372e+01 -1.165807e+02 3.304701e-02 -6.606378e+01
2120000000 -2.594103e-02 -6.577641e+01 -6.095209e+01 -1.216969e+02 -5.984592e+01 -1.260956e+02 3.736987e-02 -6.654946e+01
2130000000 -2.030643e-02 -6.609053e+01 -6.145139e+01 -1.225473e+02 -5.895245e+01 -1.249543e+02 2.630334e-02 -6.714032e+01
2140000000 -1.979971e-02 -6.610720e+01 -6.003754e+01 -1.277396e+02 -5.969939e+01 -1.359762e+02 3.278358e-02 -6.706915e+01
2150000000 -2.194434e-02 -6.672860e+01 -5.961350e+01 -1.384875e+02 -5.980704e+01 -1.355555e+02 3.008582e-02 -6.777939e+01
2160000000 -2.657274e-02 -6.729355e+01 -5.863548e+01 -1.363008e+02 -5.928704e+01 -1.465892e+02 2.990674e-02 -6.840988e+01
2170000000 -2.180393e-02 -6.725715e+01 -5.933234e+01 -1.481689e+02 -5.914533e+01 -1.425485e+02 2.538194e-02 -6.824877e+01
2180000000 -2.231459e-02 -6.797256e+01 -5.912608e+01 -1.503525e+02 -5.924480e+01 -1.532463e+02 3.410379e-02 -6.893492e+01
2190000000 -2.542767e-02 -6.816258e+01 -5.967355e+01 -1.558389e+02 -6.014264e+01 -1.432198e+02 3.021454e-02 -6.950283e+01
2200000000 -1.460430e-02 -6.721149e+01 -6.181604e+01 -1.537866e+02 -6.142506e+01 -1.466502e+02 3.000203e-02 -6.928405e+01
2210000000 -2.817477e-02 -6.892654e+01 -6.024604e+01 -1.505630e+02 -5.984378e+01 -1.472245e+02 2.646818e-02 -7.002280e+01
2220000000 -2.482048e-02 -6.873290e+01 -5.931701e+01 -1.490239e+02 -6.172638e+01 -1.494706e+02 2.606665e-02 -7.018158e+01
2230000000 -2.423686e-02 -6.954089e+01 -5.961786e+01 -1.435443e+02 -5.960960e+01 -1.600011e+02 3.056288e-02 -7.039598e+01
2240000000 -2.678599e-02 -6.994678e+01 -6.129515e+01 -1.514998e+02 -6.115173e+01 -1.598754e+02 2.842508e-02 -7.111298e+01
2250000000 -2.698954e-02 -6.968230e+01 -6.215091e+01 -1.414039e+02 -6.297973e+01 -1.523027e+02 3.053162e-02 -7.112337e+01
2260000000 -3.258663e-02 -7.067561e+01 -6.068758e+01 -1.520472e+02 -6.215122e+01 -1.580900e+02 2.656524e-02 -7.129831e+01
2270000000 -3.146307e-02 -7.085235e+01 -6.202413e+01 -1.500114e+02 -6.140457e+01 -1.578548e+02 2.448853e-02 -7.223164e+01
2280000000 -3.528003e-02 -7.116528e+01 -6.230596e+01 -1.483264e+02 -6.281596e+01 -1.554332e+02 2.525167e-02 -7.208058e+01
2290000000 -3.022984e-02 -7.155604e+01 -5.967499e+01 -1.482026e+02 -6.159361e+01 -1.507263e+02 2.127359e-02 -7.242575e+01
2300000000 -3.651647e-02 -7.180598e+01 -6.222079e+01 -1.534182e+02 -6.191981e+01 -1.548030e+02 1.828121e-02 -7.330382e+01
2310000000 -3.968918e-02 -7.219101e+01 -6.305619e+01 -1.514603e+02 -6.234190e+01 -1.627090e+02 2.514094e-02 -7.325860e+01
2320000000 -4.179932e-02 -7.259832e+01 -6.123171e+01 -1.459340e+02 -6.206915e+01 -1.506286e+02 1.546336e-02 -7.375806e+01
2330000000 -3.021417e-02 -7.289587e+01 -6.224555e+01 -1.513684e+02 -6.023209e+01 -1.543824e+02 2.039886e-02 -7.422169e+01
2340000000 -3.421896e-02 -7.322319e+01 -6.260560e+01 -1.474910e+02 -6.190369e+01 -1.497632e+02 2.103671e-02 -7.446321e+01
2350000000 -3.525982e-02 -7.359389e+01 -6.267468e+01 -1.712527e+02 -6.148640e+01 -1.588717e+02 1.382501e-02 -7.485671e+01
2360000000 -4.024355e-02 -7.394813e+01 -6.233215e+01 -1.542527e+02 -6.273149e+01 -1.553374e+02 1.408705e-02 -7.523759e+01
2370000000 -4.299381e-02 -7.431310e+01 -6.190225e+01 -1.473924e+02 -6.288538e+01 -1.661701e+02 1.194881e-02 -7.617932e+01
2380000000 -4.079398e-02 -7.463791e+01 -6.453358e+01 -1.395682e+02 -6.402071e+01 -1.565223e+02 4.499086e-03 -7.638549e+01
2390000000 -4.466036e-02 -7.502467e+01 -6.160584e+01 -1.524290e+02 -6.362663e+01 -1.569701e+02 -1.482158e-03 -7.738026e+01
2400000000 -4.959754e-02 -7.536933e+01 -6.342965e+01 -1.503465e+02 -6.357377e+01 -1.583210e+02 4.383849e-03 -7.703938e+01
2410000000 -4.683830e-02 -7.571927e+01 -6.529607e+01 -1.560903e+02 -6.500269e+01 -1.647630e+02 -3.680389e-03 -7.780070e+01
2420000000 -5.014907e-02 -7.607037e+01 -6.540779e+01 -1.449210e+02 -6.395647e+01 -1.527914e+02 6.401740e-03 -7.844474e+01
2430000000 -5.307477e-02 -7.641071e+01 -6.402638e+01 -1.715834e+02 -6.493759e+01 -1.504510e+02 7.121928e-03 -7.795415e+01
2440000000 -5.219389e-02 -7.676857e+01 -6.576270e+01 -1.559690e+02 -6.820688e+01 -1.517115e+02 2.002609e-03 -7.872997e+01
2450000000 -5.125791e-02 -7.711936e+01 -6.822579e+01 -1.486702e+02 -6.947961e+01 -1.753228e+02 -3.998904e-03 -7.983372e+01
2460000000 -5.283627e-02 -7.749104e+01 -7.461716e+01 -1.345917e+02 -6.542934e+01 -1.410459e+02 3.971073e-04 -7.942108e+01
2470000000 -5.996623e-02 -7.783190e+01 -7.117935e+01 -1.223102e+02 -7.137962e+01 -1.616524e+02 1.396198e-03 -8.007455e+01
2480000000 -6.402764e-02 -7.818523e+01 -7.774032e+01 -8.345360e+01 -7.479379e+01 -1.372248e+02 -4.538376e-03 -8.075806e+01
2490000000 -5.793879e-02 -7.860834e+01 -7.925832e+01 -1.060028e+02 -7.297392e+01 -6.772971e+01 -6.757774e-03 -8.029145e+01
2500000000 -6.516410e-02 -7.894518e+01 -7.122658e+01 -7.053079e+01 -7.250452e+01 -1.111339e+02 -1.722256e-03 -8.136954e+01
2510000000 -7.235467e-02 -7.932148e+01 -6.680083e+01 -7.986605e+01 -6.583986e+01 -5.989820e+01 -1.085228e-02 -8.197183e+01
2520000000 -7.479516e-02 -7.970691e+01 -7.255123e+01 -6.044106e+01 -6.709117e+01 -7.129774e+01 3.931813e-04 -8.166873e+01
2530000000 -6.789260e-02 -8.005073e+01 -7.169809e+01 -4.617987e+01 -6.530224e+01 -6.567606e+01 9.084640e-04 -8.170054e+01
2540000000 -7.131980e-02 -8.042207e+01 -6.598528e+01 -7.968511e+01 -6.408126e+01 -4.470481e+01 -4.683337e-03 -8.284226e+01
2550000000 -7.321380e-02 -8.080317e+01 -6.374730e+01 -5.454060e+01 -6.130394e+01 -5.620741e+01 1.092216e-03 -8.263419e+01
2560000000 -7.222685e-02 -8.112341e+01 -6.273477e+01 -6.381927e+01 -6.337832e+01 -6.649145e+01 -7.785472e-03 -8.381153e+01
2570000000 -6.656247e-02 -8.148882e+01 -6.157195e+01 -6.956456e+01 -6.222297e+01 -6.041677e+01 -1.133432e-02 -8.410149e+01
2580000000 -7.251728e-02 -8.189603e+01 -6.269824e+01 -5.396984e+01 -6.212511e+01 -4.086312e+01 -3.387546e-03 -8.400629e+01
2590000000 -6.958864e-02 -8.227956e+01 -6.289983e+01 -4.852884e+01 -6.317240e+01 -5.149223e+01 -7.092417e-03 -8.516787e+01
2600000000 -6.975538e-02 -8.264330e+01 -6.397244e+01 -4.479701e+01 -6.361256e+01 -4.349598e+01 -4.230063e-03 -8.488006e+01
2610000000 -7.115030e-02 -8.307243e+01 -6.386215e+01 -2.379078e+01 -6.203220e+01 -3.725025e+01 -1.615898e-02 -8.573399e+01
