!Agilent Technologies,N5227A,US51270477,A.10.00.00

!File generated by LCAF-GAM-UPV software
!josevmart@iteam.upv.es
!S2P File: Measurements: S11, S21, S12, S22:
# Hz S  dB   R 50
1000000000 -7.360647e-03 -3.292846e+01 -7.840569e+01 -1.452692e+02 -7.939312e+01 -1.504013e+02 1.019903e-02 -3.338806e+01
1010000000 6.744547e-04 -3.331563e+01 -8.047784e+01 1.504859e+02 -8.235245e+01 -4.126070e+01 1.214828e-02 -3.373999e+01
1020000000 -8.113480e-03 -3.372343e+01 -8.094833e+01 -1.435397e+02 -8.006306e+01 -1.734118e+02 1.169254e-02 -3.406526e+01
1030000000 -2.125540e-03 -3.416953e+01 -7.354316e+01 -1.542590e+02 -7.401514e+01 -1.425784e+02 1.192557e-02 -3.438969e+01
1040000000 -3.834169e-03 -3.435585e+01 -7.787302e+01 -1.440676e+02 -7.170245e+01 -1.474318e+02 1.300468e-02 -3.474830e+01
1050000000 -9.731602e-03 -3.493818e+01 -8.545979e+01 -1.560795e+02 -7.678957e+01 -1.530912e+02 1.061961e-02 -3.509226e+01
1060000000 -8.958397e-03 -3.510977e+01 -7.765510e+01 -1.516855e+02 -7.438098e+01 -1.010064e+02 1.118547e-02 -3.544368e+01
1070000000 -5.862169e-03 -3.541376e+01 -8.194070e+01 -1.654938e+02 -7.905969e+01 -1.688101e+02 1.350899e-02 -3.574071e+01
1080000000 -7.014546e-03 -3.596196e+01 -7.488622e+01 -1.390188e+02 -6.965610e+01 -1.320821e+02 8.914194e-03 -3.605706e+01
1090000000 -7.677578e-03 -3.617367e+01 -9.025731e+01 -1.744171e+02 -7.669667e+01 -1.320042e+02 1.216419e-02 -3.637113e+01
1100000000 -1.009746e-02 -3.651021e+01 -7.591550e+01 -1.125724e+02 -7.813428e+01 -5.113795e+01 1.598453e-02 -3.667918e+01
1110000000 -3.328843e-03 -3.687196e+01 -7.791614e+01 -1.123857e+02 -7.179904e+01 -1.292477e+02 1.521349e-02 -3.703329e+01
1120000000 -6.583342e-03 -3.730210e+01 -7.153326e+01 -1.309171e+02 -7.002737e+01 -1.335295e+02 1.224634e-02 -3.736964e+01
1130000000 -1.320182e-02 -3.759358e+01 -7.547153e+01 -1.211323e+02 -7.602094e+01 -9.255810e+01 1.277965e-02 -3.770154e+01
1140000000 -1.585030e-02 -3.835609e+01 -7.481011e+01 -1.028038e+02 -7.853342e+01 -5.642990e+01 1.282387e-02 -3.805371e+01
1150000000 -7.680163e-03 -3.820830e+01 -7.072867e+01 -7.630901e+01 -8.273315e+01 -1.311485e+02 1.639402e-02 -3.838123e+01
1160000000 -1.124664e-02 -3.867477e+01 -7.521399e+01 -7.932039e+01 -7.607565e+01 -1.232571e+02 1.763449e-02 -3.872758e+01
1170000000 -9.732516e-03 -3.896852e+01 -7.030145e+01 -6.732488e+01 -6.756621e+01 -9.471201e+01 2.035185e-02 -3.903438e+01
1180000000 -1.245880e-02 -3.937804e+01 -7.300797e+01 -1.301497e+02 -7.066450e+01 -1.154128e+02 1.328023e-02 -3.938837e+01
1190000000 -1.441464e-02 -3.975367e+01 -7.009601e+01 -1.140260e+02 -6.844260e+01 -1.258110e+02 1.510824e-02 -3.971468e+01
1200000000 -1.151758e-02 -4.005542e+01 -7.161794e+01 -1.094420e+02 -7.273632e+01 -9.539767e+01 1.727329e-02 -4.004327e+01
1210000000 -9.921920e-03 -4.037556e+01 -7.070457e+01 -1.290331e+02 -6.851620e+01 -1.497892e+02 1.462802e-02 -4.037170e+01
1220000000 -9.414880e-03 -4.081517e+01 -7.372345e+01 -1.091597e+02 -7.177081e+01 -1.278739e+02 1.762496e-02 -4.070556e+01
1230000000 -9.864696e-03 -4.100028e+01 -6.793852e+01 -1.405105e+02 -7.076132e+01 -1.457424e+02 1.753420e-02 -4.101811e+01
1240000000 -1.806109e-02 -4.134797e+01 -7.036713e+01 -1.546496e+02 -6.827427e+01 -1.443176e+02 1.688051e-02 -4.133102e+01
1250000000 -1.335659e-02 -4.170438e+01 -6.535960e+01 -1.284055e+02 -6.843761e+01 -1.720753e+02 2.087566e-02 -4.169629e+01
1260000000 -1.797820e-02 -4.214613e+01 -7.295677e+01 -1.459164e+02 -7.319505e+01 -1.478128e+02 1.156896e-02 -4.202324e+01
1270000000 -1.633019e-02 -4.241968e+01 -7.002747e+01 -1.391198e+02 -7.985291e+01 -9.968295e+01 1.685417e-02 -4.235852e+01
1280000000 -1.635634e-02 -4.265068e+01 -7.078882e+01 -1.591970e+02 -7.103228e+01 -1.314447e+02 1.299238e-02 -4.271112e+01
1290000000 -1.067538e-02 -4.291936e+01 -7.039314e+01 -1.380595e+02 -7.462596e+01 -1.453639e+02 1.262618e-02 -4.305935e+01
1300000000 -9.887373e-03 -4.342056e+01 -7.225989e+01 -1.342489e+02 -6.834656e+01 -1.600056e+02 2.086239e-02 -4.341489e+01
1310000000 -2.274599e-02 -4.374792e+01 -6.852160e+01 -1.194172e+02 -7.137031e+01 -1.387940e+02 1.249104e-02 -4.375395e+01
1320000000 -1.197051e-02 -4.405056e+01 -6.661275e+01 -1.359170e+02 -6.893721e+01 -1.395235e+02 2.163009e-02 -4.406408e+01
1330000000 -2.053644e-02 -4.438516e+01 -6.959533e+01 -1.396898e+02 -6.813920e+01 -1.430637e+02 1.591763e-02 -4.441613e+01
1340000000 -1.733805e-02 -4.481187e+01 -7.378001e+01 -1.298188e+02 -7.329029e+01 -1.354501e+02 1.631545e-02 -4.475748e+01
1350000000 -1.705686e-02 -4.507850e+01 -6.788213e+01 -1.135790e+02 -6.985272e+01 -1.177165e+02 1.687624e-02 -4.510607e+01
1360000000 -1.252874e-02 -4.541860e+01 -7.104848e+01 -1.341259e+02 -6.636218e+01 -1.187566e+02 2.090963e-02 -4.544781e+01
1370000000 -1.682050e-02 -4.571747e+01 -6.636105e+01 -1.432784e+02 -6.786439e+01 -1.334637e+02 1.798196e-02 -4.577806e+01
1380000000 -1.172792e-02 -4.594793e+01 -6.911658e+01 -1.272834e+02 -6.863304e+01 -1.256667e+02 2.055176e-02 -4.614303e+01
1390000000 -1.460941e-02 -4.635091e+01 -6.663506e+01 -1.392063e+02 -6.806046e+01 -1.375207e+02 1.765723e-02 -4.648215e+01
1400000000 -1.373220e-02 -4.670402e+01 -7.198112e+01 -1.607747e+02 -7.110416e+01 -1.543173e+02 2.083889e-02 -4.681360e+01
1410000000 -1.147215e-02 -4.692789e+01 -7.040635e+01 -1.189393e+02 -7.075100e+01 -1.402345e+02 1.713362e-02 -4.716463e+01
1420000000 -1.467754e-02 -4.729269e+01 -6.813696e+01 -1.342680e+02 -6.822365e+01 -1.249108e+02 2.281428e-02 -4.753114e+01
1430000000 -1.729683e-02 -4.768816e+01 -6.767148e+01 -1.546777e+02 -7.169151e+01 -1.379235e+02 2.048806e-02 -4.788046e+01
1440000000 -1.744744e-02 -4.799348e+01 -6.672901e+01 -1.597922e+02 -6.966167e+01 -1.528617e+02 1.609341e-02 -4.824815e+01
1450000000 -1.776374e-02 -4.836529e+01 -6.681274e+01 -1.535907e+02 -6.811289e+01 -1.264472e+02 1.573551e-02 -4.894742e+01
1460000000 -1.692583e-02 -4.871827e+01 -6.904296e+01 -1.405260e+02 -6.699704e+01 -1.357970e+02 1.483300e-02 -4.932695e+01
1470000000 -1.787108e-02 -4.913444e+01 -6.759703e+01 -1.422787e+02 -6.720184e+01 -1.378210e+02 1.913359e-02 -4.969151e+01
1480000000 -1.506103e-02 -4.950711e+01 -6.752731e+01 -1.615909e+02 -6.603667e+01 -1.578515e+02 2.140620e-02 -5.003008e+01
1490000000 -1.498612e-02 -4.984968e+01 -6.680334e+01 -1.423586e+02 -6.845185e+01 -1.326742e+02 1.597509e-02 -5.032129e+01
1500000000 -1.903664e-02 -5.033383e+01 -6.637217e+01 -1.627350e+02 -6.687354e+01 -1.374904e+02 1.762941e-02 -5.083458e+01
1510000000 -2.192620e-02 -5.074667e+01 -6.729997e+01 -1.460736e+02 -6.665337e+01 -1.392712e+02 1.289666e-02 -5.094439e+01
1520000000 -1.982426e-02 -5.133396e+01 -6.943222e+01 -1.384437e+02 -6.845126e+01 -1.464259e+02 1.367890e-02 -5.148134e+01
1530000000 -2.127687e-02 -5.165007e+01 -6.595684e+01 -1.403665e+02 -6.641176e+01 -1.513397e+02 9.716874e-03 -5.206568e+01
1540000000 -2.097205e-02 -5.166473e+01 -6.767564e+01 -1.342412e+02 -6.436334e+01 -1.296475e+02 1.727928e-02 -5.231349e+01
1550000000 -2.300964e-02 -5.234208e+01 -6.822810e+01 -1.397420e+02 -6.506129e+01 -1.339480e+02 1.613311e-02 -5.261214e+01
1560000000 -2.283958e-02 -5.279523e+01 -6.781192e+01 -1.374544e+02 -6.855140e+01 -1.655867e+02 1.416318e-02 -5.288900e+01
1570000000 -2.398234e-02 -5.297711e+01 -6.882921e+01 -1.278291e+02 -6.364120e+01 -1.459341e+02 1.425744e-02 -5.332553e+01
1580000000 -2.383200e-02 -5.333234e+01 -6.594190e+01 -1.376451e+02 -6.502240e+01 -1.465490e+02 1.491405e-02 -5.351972e+01
1590000000 -3.424833e-02 -5.397659e+01 -6.559944e+01 -1.334350e+02 -6.661936e+01 -1.404172e+02 1.258433e-02 -5.404160e+01
1600000000 -3.236442e-02 -5.409750e+01 -6.447723e+01 -1.280184e+02 -6.237721e+01 -1.378131e+02 1.582287e-02 -5.433619e+01
1610000000 -2.815550e-02 -5.461432e+01 -6.243723e+01 -1.292828e+02 -6.256656e+01 -1.362165e+02 1.155177e-02 -5.471234e+01
1620000000 -3.416473e-02 -5.488945e+01 -6.114534e+01 -1.340818e+02 -6.432865e+01 -1.286718e+02 1.391117e-02 -5.503019e+01
1630000000 -3.128211e-02 -5.492063e+01 -6.137693e+01 -1.346374e+02 -6.206802e+01 -1.338917e+02 1.617100e-02 -5.528221e+01
1640000000 -3.268294e-02 -5.534260e+01 -6.269082e+01 -1.491637e+02 -6.120938e+01 -1.443463e+02 1.527750e-02 -5.617293e+01
1650000000 -3.326495e-02 -5.575439e+01 -6.240787e+01 -1.506833e+02 -6.341895e+01 -1.648851e+02 1.546526e-02 -5.620268e+01
1660000000 -3.600357e-02 -5.615475e+01 -6.316072e+01 -1.487697e+02 -6.349990e+01 -1.411047e+02 9.967204e-03 -5.657559e+01
1670000000 -3.432820e-02 -5.658721e+01 -6.284338e+01 -1.476971e+02 -6.120971e+01 -1.511649e+02 9.956942e-03 -5.683690e+01
1680000000 -3.053529e-02 -5.703564e+01 -6.237514e+01 -1.525483e+02 -6.380386e+01 -1.440623e+02 1.348454e-02 -5.722850e+01
1690000000 -3.862637e-02 -5.743104e+01 -6.309754e+01 -1.518583e+02 -6.252125e+01 -1.418622e+02 1.334502e-02 -5.749455e+01
1700000000 -3.061797e-02 -5.770579e+01 -6.295274e+01 -1.548074e+02 -6.474157e+01 -1.405848e+02 1.851236e-02 -5.795021e+01
1710000000 -3.643229e-02 -5.792035e+01 -6.335222e+01 -1.443022e+02 -6.346719e+01 -1.406492e+02 1.683543e-02 -5.826180e+01
1720000000 -3.981996e-02 -5.845458e+01 -6.522621e+01 -1.488598e+02 -6.379794e+01 -1.527520e+02 1.479003e-02 -5.851398e+01
1730000000 -4.017001e-02 -5.879931e+01 -6.427590e+01 -1.470990e+02 -6.372111e+01 -1.455643e+02 8.417650e-03 -5.887717e+01
1740000000 -3.883299e-02 -5.912229e+01 -6.246662e+01 -1.428394e+02 -6.289952e+01 -1.481682e+02 6.250733e-03 -5.927349e+01
1750000000 -4.187873e-02 -5.961759e+01 -6.208984e+01 -1.438472e+02 -6.266780e+01 -1.540495e+02 8.176761e-03 -5.967870e+01
1760000000 -4.092228e-02 -5.996806e+01 -6.280658e+01 -1.487342e+02 -6.354852e+01 -1.336926e+02 1.339035e-02 -5.992876e+01
1770000000 -3.749078e-02 -6.013390e+01 -6.188702e+01 -1.520974e+02 -6.450469e+01 -1.447647e+02 9.405753e-03 -6.011457e+01
1780000000 -3.907649e-02 -6.059155e+01 -6.326509e+01 -1.431281e+02 -6.263655e+01 -1.503923e+02 1.265168e-02 -6.044403e+01
1790000000 -3.948122e-02 -6.066717e+01 -6.204910e+01 -1.515504e+02 -6.382072e+01 -1.562886e+02 1.466344e-02 -6.094040e+01
1800000000 -3.726945e-02 -6.096962e+01 -6.404543e+01 -1.471451e+02 -6.187868e+01 -1.565403e+02 1.005679e-02 -6.141098e+01
1810000000 -4.459231e-02 -6.145119e+01 -6.278925e+01 -1.498291e+02 -6.218151e+01 -1.518836e+02 1.159493e-02 -6.171378e+01
1820000000 -4.018622e-02 -6.168875e+01 -6.319105e+01 -1.540627e+02 -6.263014e+01 -1.541760e+02 9.178637e-03 -6.202013e+01
1830000000 -4.736889e-02 -6.243034e+01 -6.286368e+01 -1.503180e+02 -6.358867e+01 -1.424176e+02 8.990670e-03 -6.230758e+01
1840000000 -4.207372e-02 -6.231215e+01 -6.325834e+01 -1.513767e+02 -6.305849e+01 -1.585801e+02 9.261832e-03 -6.296518e+01
1850000000 -4.304228e-02 -6.260481e+01 -6.207626e+01 -1.543717e+02 -6.231310e+01 -1.456040e+02 6.608723e-03 -6.310030e+01
1860000000 -4.542968e-02 -6.325501e+01 -6.238503e+01 -1.408261e+02 -6.343904e+01 -1.538628e+02 8.031245e-03 -6.347468e+01
1870000000 -4.723944e-02 -6.332664e+01 -6.330450e+01 -1.514714e+02 -6.355576e+01 -1.425765e+02 8.177591e-03 -6.397600e+01
1880000000 -4.640757e-02 -6.389526e+01 -6.197206e+01 -1.415806e+02 -6.526260e+01 -1.400058e+02 7.447336e-03 -6.436817e+01
1890000000 -4.800464e-02 -6.426381e+01 -6.299134e+01 -1.574207e+02 -6.246671e+01 -1.516805e+02 6.674695e-03 -6.457029e+01
1900000000 -4.959910e-02 -6.463348e+01 -6.047863e+01 -1.530978e+02 -6.340246e+01 -1.476670e+02 7.165658e-03 -6.503754e+01
1910000000 -5.296979e-02 -6.488561e+01 -6.139762e+01 -1.620215e+02 -6.231462e+01 -1.588254e+02 8.384892e-03 -6.551014e+01
1920000000 -4.831973e-02 -6.517934e+01 -6.123294e+01 -1.500477e+02 -6.226131e+01 -1.396359e+02 1.001288e-02 -6.591438e+01
1930000000 -5.351876e-02 -6.541290e+01 -6.362663e+01 -1.512815e+02 -6.326713e+01 -1.492716e+02 9.356912e-03 -6.629760e+01
1940000000 -5.401504e-02 -6.605241e+01 -6.208366e+01 -1.503531e+02 -6.339923e+01 -1.570843e+02 1.750735e-04 -6.666061e+01
1950000000 -5.767538e-02 -6.636984e+01 -6.154951e+01 -1.505199e+02 -6.381960e+01 -1.523185e+02 3.392249e-03 -6.708361e+01
1960000000 -5.307783e-02 -6.681723e+01 -6.245845e+01 -1.524449e+02 -6.261284e+01 -1.418408e+02 6.058775e-03 -6.749522e+01
1970000000 -6.075184e-02 -6.718397e+01 -6.231130e+01 -1.450596e+02 -6.306684e+01 -1.470924e+02 7.295496e-04 -6.792329e+01
1980000000 -6.535266e-02 -6.757091e+01 -6.323488e+01 -1.526674e+02 -6.210200e+01 -1.615253e+02 5.235782e-03 -6.833405e+01
1990000000 -5.980384e-02 -6.792236e+01 -6.475069e+01 -1.544754e+02 -6.461274e+01 -1.552935e+02 -3.597193e-03 -6.877291e+01
2000000000 -6.394804e-02 -6.827122e+01 -6.329575e+01 -1.433553e+02 -6.398701e+01 -1.552398e+02 -1.021401e-02 -6.974937e+01
2010000000 -6.485317e-02 -6.852840e+01 -6.601249e+01 -1.542117e+02 -6.376879e+01 -1.462575e+02 -7.144265e-03 -6.992877e+01
2020000000 -6.797825e-02 -6.889318e+01 -6.482608e+01 -1.616275e+02 -6.341639e+01 -1.504485e+02 -6.533805e-03 -7.081094e+01
2030000000 -7.165108e-02 -6.930759e+01 -6.516714e+01 -1.314509e+02 -6.391548e+01 -1.490231e+02 -9.969685e-03 -7.089032e+01
2040000000 -6.814469e-02 -6.964185e+01 -6.681019e+01 -1.524456e+02 -6.587772e+01 -1.538045e+02 -4.370700e-03 -7.102296e+01
2050000000 -7.541398e-02 -7.001614e+01 -6.532013e+01 -1.425686e+02 -6.745743e+01 -1.546491e+02 -1.753747e-02 -7.178367e+01
2060000000 -7.617732e-02 -7.042278e+01 -6.740252e+01 -1.303832e+02 -7.018901e+01 -1.406343e+02 -1.296482e-02 -7.198042e+01
2070000000 -7.602231e-02 -7.080958e+01 -6.683521e+01 -1.317012e+02 -7.034911e+01 -1.161021e+02 -2.389390e-02 -7.292313e+01
2080000000 -7.732294e-02 -7.116705e+01 -6.545911e+01 -1.046259e+02 -6.498534e+01 -9.355530e+01 -1.715401e-02 -7.229099e+01
2090000000 -7.859081e-02 -7.156091e+01 -6.398216e+01 -9.278508e+01 -6.247383e+01 -1.019165e+02 -1.892011e-02 -7.284682e+01
2100000000 -8.073239e-02 -7.191875e+01 -6.127146e+01 -1.055052e+02 -6.228626e+01 -9.738243e+01 -1.865545e-02 -7.366258e+01
2110000000 -8.269082e-02 -7.227152e+01 -6.184773e+01 -1.064616e+02 -5.996509e+01 -1.074099e+02 -2.891826e-02 -7.446980e+01
2120000000 -8.908996e-02 -7.267238e+01 -6.314522e+01 -1.126937e+02 -6.039926e+01 -1.194937e+02 -2.022777e-02 -7.427707e+01
2130000000 -8.646938e-02 -7.306817e+01 -5.923041e+01 -1.175958e+02 -6.031730e+01 -1.228295e+02 -2.774102e-02 -7.482149e+01
2140000000 -8.858609e-02 -7.343351e+01 -6.117322e+01 -1.236789e+02 -6.095467e+01 -1.214714e+02 -3.159957e-02 -7.546383e+01
2150000000 -8.999199e-02 -7.382002e+01 -5.999495e+01 -1.335037e+02 -6.121547e+01 -1.260827e+02 -2.932574e-02 -7.564996e+01
2160000000 -9.123228e-02 -7.422270e+01 -6.126141e+01 -1.210354e+02 -6.100061e+01 -1.383856e+02 -2.911353e-02 -7.633910e+01
2170000000 -9.383947e-02 -7.461435e+01 -6.297515e+01 -1.322673e+02 -6.215601e+01 -1.290512e+02 -3.531304e-02 -7.641024e+01
2180000000 -9.184444e-02 -7.500312e+01 -6.403043e+01 -1.458919e+02 -6.438708e+01 -1.460522e+02 -2.448506e-02 -7.654520e+01
2190000000 -9.448966e-02 -7.541511e+01 -6.321696e+01 -1.399496e+02 -6.285612e+01 -1.473713e+02 -3.357283e-02 -7.764177e+01
2200000000 -9.915881e-02 -7.577072e+01 -6.596918e+01 -1.224209e+02 -6.737772e+01 -1.198590e+02 -3.574554e-02 -7.754162e+01
2210000000 -9.987655e-02 -7.617436e+01 -6.452122e+01 -1.334827e+02 -6.390279e+01 -1.275923e+02 -3.386651e-02 -7.789957e+01
2220000000 -1.029783e-01 -7.660409e+01 -6.552828e+01 -1.378702e+02 -6.893746e+01 -1.455911e+02 -4.132400e-02 -7.905261e+01
2230000000 -1.024968e-01 -7.705051e+01 -6.861291e+01 -1.274331e+02 -6.821964e+01 -9.995724e+01 -4.349790e-02 -7.911407e+01
2240000000 -1.039428e-01 -7.739169e+01 -6.872440e+01 -1.133836e+02 -6.727043e+01 -1.108943e+02 -4.177731e-02 -7.948046e+01
2250000000 -1.094440e-01 -7.780900e+01 -7.040112e+01 -8.319154e+01 -7.096593e+01 -9.885974e+01 -4.317453e-02 -8.028101e+01
2260000000 -1.133213e-01 -7.828629e+01 -6.836904e+01 -9.020077e+01 -6.990459e+01 -7.157095e+01 -4.686399e-02 -8.022595e+01
2270000000 -1.158204e-01 -7.866908e+01 -6.998985e+01 -5.480819e+01 -7.072644e+01 -4.967982e+01 -4.457136e-02 -8.043787e+01
2280000000 -1.227016e-01 -7.911673e+01 -7.430776e+01 -3.040327e+01 -6.250589e+01 -5.026153e+01 -5.299889e-02 -8.140205e+01
2290000000 -1.157529e-01 -7.957243e+01 -6.766620e+01 -4.576212e+01 -6.535559e+01 -3.318856e+01 -5.535810e-02 -8.127805e+01
2300000000 -1.193401e-01 -7.999357e+01 -6.430603e+01 -3.286513e+01 -6.477075e+01 -4.008202e+01 -5.335706e-02 -8.180421e+01
2310000000 -1.271656e-01 -8.039460e+01 -6.360443e+01 -2.842495e+01 -6.283125e+01 -4.017144e+01 -5.460484e-02 -8.243538e+01
2320000000 -1.293463e-01 -8.088447e+01 -6.082287e+01 -3.456418e+01 -6.324803e+01 -3.952083e+01 -6.397711e-02 -8.267683e+01
2330000000 -1.254036e-01 -8.130342e+01 -6.080787e+01 -2.498289e+01 -6.029440e+01 -2.878926e+01 -6.362597e-02 -8.327945e+01
2340000000 -1.286496e-01 -8.169746e+01 -6.047867e+01 -2.042689e+01 -5.870700e+01 -2.282939e+01 -6.988854e-02 -8.396386e+01
2350000000 -1.361961e-01 -8.220591e+01 -5.958573e+01 -1.903934e+01 -5.807574e+01 -2.134741e+01 -6.699993e-02 -8.362274e+01
2360000000 -1.378402e-01 -8.264508e+01 -5.817368e+01 -2.404895e+01 -5.806429e+01 -2.024564e+01 -7.184412e-02 -8.455325e+01
2370000000 -1.443996e-01 -8.314147e+01 -5.608027e+01 -1.560609e+01 -5.585108e+01 -2.303732e+01 -8.293927e-02 -8.545988e+01
2380000000 -1.496652e-01 -8.362583e+01 -5.659568e+01 -1.615511e+01 -5.630517e+01 -9.831526e+00 -7.333515e-02 -8.392471e+01
2390000000 -1.519161e-01 -8.406576e+01 -5.525966e+01 -1.692760e+01 -5.436277e+01 -1.368060e+01 -9.008759e-02 -8.659078e+01
2400000000 -1.617220e-01 -8.458159e+01 -5.356920e+01 -1.261172e+01 -5.323312e+01 -1.903380e+01 -9.134261e-02 -8.685847e+01
2410000000 -1.621180e-01 -8.506006e+01 -5.301592e+01 -1.672150e+01 -5.311712e+01 -1.213824e+01 -9.122532e-02 -8.655389e+01
2420000000 -1.669963e-01 -8.553532e+01 -5.210865e+01 -1.284642e+01 -5.193307e+01 -1.070107e+01 -9.280138e-02 -8.778834e+01
2430000000 -1.722967e-01 -8.599008e+01 -5.173724e+01 -1.256809e+01 -5.169059e+01 -1.525817e+01 -9.696421e-02 -8.793460e+01
2440000000 -1.768907e-01 -8.649187e+01 -5.038736e+01 -1.208784e+01 -5.094352e+01 -1.130101e+01 -9.213873e-02 -8.774158e+01
2450000000 -1.754122e-01 -8.697063e+01 -4.988850e+01 -1.147733e+01 -5.007189e+01 -1.212555e+01 -1.062811e-01 -8.902333e+01
2460000000 -1.968925e-01 -8.833297e+01 -4.911823e+01 -1.526463e+01 -4.881509e+01 -1.164312e+01 -1.022675e-01 -8.896471e+01
2470000000 -2.027413e-01 -8.854284e+01 -4.841296e+01 -1.253396e+01 -4.836703e+01 -1.589583e+01 -1.082715e-01 -8.989197e+01
2480000000 -2.053698e-01 -8.876082e+01 -4.785197e+01 -1.572501e+01 -4.701225e+01 -1.663370e+01 -1.149645e-01 -9.045218e+01
2490000000 -2.156346e-01 -9.001862e+01 -4.625299e+01 -1.558291e+01 -4.660900e+01 -1.503699e+01 -1.184777e-01 -9.072099e+01
2500000000 -2.124565e-01 -8.999357e+01 -4.606866e+01 -1.604393e+01 -4.599135e+01 -1.700803e+01 -1.206991e-01 -9.140413e+01
2510000000 -2.221779e-01 -9.054829e+01 -4.520232e+01 -1.792466e+01 -4.517526e+01 -1.802719e+01 -1.249371e-01 -9.196010e+01
2520000000 -2.420416e-01 -9.182990e+01 -4.439240e+01 -1.904594e+01 -4.471483e+01 -2.008657e+01 -1.266968e-01 -9.246739e+01
2530000000 -2.276236e-01 -9.139344e+01 -4.413066e+01 -2.136631e+01 -4.392948e+01 -1.894407e+01 -1.280554e-01 -9.302013e+01
2540000000 -2.413389e-01 -9.216398e+01 -4.357940e+01 -2.024220e+01 -4.343771e+01 -2.201434e+01 -1.328298e-01 -9.353592e+01
2550000000 -2.604189e-01 -9.355534e+01 -4.259163e+01 -2.304312e+01 -4.273963e+01 -2.319330e+01 -1.384838e-01 -9.408374e+01
2560000000 -2.478460e-01 -9.338379e+01 -4.245294e+01 -2.392679e+01 -4.233473e+01 -2.274615e+01 -1.413317e-01 -9.466856e+01
2570000000 -2.486193e-01 -9.396413e+01 -4.189216e+01 -2.212540e+01 -4.216344e+01 -2.359979e+01 -1.588647e-01 -9.525024e+01
2580000000 -2.714894e-01 -9.508403e+01 -4.129905e+01 -2.359209e+01 -4.147353e+01 -2.292682e+01 -1.546846e-01 -9.577561e+01
2590000000 -2.645240e-01 -9.501314e+01 -4.082244e+01 -2.312465e+01 -4.076537e+01 -2.120864e+01 -1.565512e-01 -9.635876e+01
2600000000 -2.626773e-01 -9.530241e+01 -4.051145e+01 -2.313190e+01 -4.034828e+01 -2.193802e+01 -1.656052e-01 -9.692850e+01
