!Agilent Technologies,N5227A,US51270477,A.10.00.00

!File generated by LCAF-GAM-UPV software
!josevmart@iteam.upv.es
!S2P File: Measurements: S11, S21, S12, S22:
# Hz S  dB   R 50
1000000000 -3.857771e-03 -3.180895e+01 -8.096134e+01 -1.428666e+02 -7.734108e+01 -8.492213e+01 1.404578e-02 -3.221112e+01
1010000000 5.621150e-03 -3.215775e+01 -7.564039e+01 -9.511317e+01 -8.300923e+01 -3.435348e+01 1.410602e-02 -3.246391e+01
1020000000 -2.928377e-03 -3.246550e+01 -8.038457e+01 -1.337295e+02 -7.274918e+01 -1.411401e+02 1.489337e-02 -3.280906e+01
1030000000 3.299185e-03 -3.281880e+01 -7.124966e+01 -1.179027e+02 -8.179581e+01 -1.695284e+02 1.361993e-02 -3.311997e+01
1040000000 -3.441519e-03 -3.313617e+01 -7.494019e+01 -1.322357e+02 -8.867327e+01 5.868242e+01 1.340113e-02 -3.347219e+01
1050000000 -2.842429e-03 -3.345654e+01 -8.332057e+01 -9.667133e+01 -8.070545e+01 -1.478393e+02 1.484664e-02 -3.397559e+01
1060000000 -4.630059e-03 -3.374426e+01 -7.224754e+01 -1.317067e+02 -7.826112e+01 -6.844331e+01 1.259629e-02 -3.444228e+01
1070000000 -4.103897e-03 -3.408255e+01 -7.695187e+01 -1.617294e+02 -8.279646e+01 -9.909348e+01 1.698275e-02 -3.461253e+01
1080000000 -7.972969e-05 -3.436213e+01 -7.800324e+01 -1.085410e+02 -8.259049e+01 -1.621939e+02 1.312608e-02 -3.486538e+01
1090000000 -4.369698e-03 -3.469952e+01 -7.505058e+01 -1.363903e+02 -7.544707e+01 -8.971407e+01 1.813178e-02 -3.531544e+01
1100000000 -1.006982e-02 -3.499279e+01 -7.319873e+01 -1.697173e+02 -9.735714e+01 1.650280e+02 1.685815e-02 -3.546238e+01
1110000000 -3.302069e-03 -3.533041e+01 -7.138445e+01 -1.009832e+02 -7.635159e+01 1.659397e+02 2.045541e-02 -3.590145e+01
1120000000 -1.260927e-03 -3.563219e+01 -7.711413e+01 -8.557762e+01 -8.319097e+01 -5.081842e+01 1.413929e-02 -3.614359e+01
1130000000 -5.888791e-03 -3.596426e+01 -7.474683e+01 -1.201032e+02 -7.646930e+01 -7.906149e+01 1.388494e-02 -3.659996e+01
1140000000 -5.822442e-03 -3.627063e+01 -7.450329e+01 -1.395032e+02 -8.543676e+01 -1.747025e+02 1.823827e-02 -3.681649e+01
1150000000 -1.291393e-03 -3.658402e+01 -7.029870e+01 -9.835903e+01 -7.289793e+01 -1.209461e+02 2.066628e-02 -3.725438e+01
1160000000 -3.016418e-03 -3.692392e+01 -7.394910e+01 -1.050975e+02 -7.510063e+01 -9.855708e+01 1.488356e-02 -3.769561e+01
1170000000 -2.669435e-03 -3.721749e+01 -7.635043e+01 -1.173418e+02 -7.662479e+01 -3.684972e+01 2.132432e-02 -3.779076e+01
1180000000 -8.130281e-03 -3.754099e+01 -6.983866e+01 -9.267244e+01 -6.948773e+01 -9.765303e+01 1.853129e-02 -3.830424e+01
1190000000 -7.356143e-03 -3.786518e+01 -7.066352e+01 -1.028350e+02 -7.697626e+01 -1.048596e+02 1.496746e-02 -3.862513e+01
1200000000 -3.655632e-03 -3.817041e+01 -6.950072e+01 -1.338828e+02 -7.180128e+01 -1.545990e+02 2.199223e-02 -3.888498e+01
1210000000 -2.778682e-03 -3.848526e+01 -7.245779e+01 -1.325779e+02 -6.850508e+01 -1.062369e+02 1.436444e-02 -3.924529e+01
1220000000 -4.040041e-03 -3.879615e+01 -7.036337e+01 -1.235235e+02 -6.940831e+01 -1.344904e+02 2.119698e-02 -3.955005e+01
1230000000 -1.575343e-03 -3.912469e+01 -7.054854e+01 -1.505172e+02 -7.950443e+01 -1.483436e+02 1.874117e-02 -3.987837e+01
1240000000 -8.637373e-03 -3.942900e+01 -6.777668e+01 -1.378150e+02 -7.543493e+01 1.719989e+02 1.803333e-02 -4.020913e+01
1250000000 -3.246393e-03 -3.974373e+01 -7.294228e+01 -1.265560e+02 -7.216129e+01 -9.330910e+01 2.164027e-02 -4.053654e+01
1260000000 -8.713543e-03 -4.006271e+01 -7.155145e+01 -1.544623e+02 -7.254447e+01 -1.409543e+02 1.570749e-02 -4.072162e+01
1270000000 -7.825816e-03 -4.036980e+01 -7.223717e+01 -1.430129e+02 -7.194483e+01 -1.506368e+02 1.988169e-02 -4.123893e+01
1280000000 -7.299901e-03 -4.068497e+01 -7.418680e+01 1.766467e+02 -7.118767e+01 -1.217459e+02 1.813855e-02 -4.147387e+01
1290000000 -2.859714e-03 -4.096225e+01 -7.223717e+01 -1.082206e+02 -7.568340e+01 -1.510540e+02 1.864366e-02 -4.179725e+01
1300000000 -8.809122e-04 -4.131462e+01 -7.044778e+01 -1.545345e+02 -7.023640e+01 -1.462641e+02 2.181661e-02 -4.225219e+01
1310000000 -8.568777e-03 -4.163340e+01 -7.667924e+01 -1.348143e+02 -6.951524e+01 -1.460595e+02 1.837487e-02 -4.248406e+01
1320000000 -9.924362e-04 -4.197899e+01 -7.286533e+01 -1.518567e+02 -7.219795e+01 -1.076176e+02 2.322233e-02 -4.284228e+01
1330000000 -8.848010e-03 -4.227067e+01 -6.716714e+01 -1.276761e+02 -7.051559e+01 -1.595836e+02 1.828111e-02 -4.311744e+01
1340000000 -7.318044e-03 -4.260960e+01 -6.999898e+01 -1.460525e+02 -6.946032e+01 -1.351597e+02 2.302063e-02 -4.336440e+01
1350000000 -5.135071e-03 -4.293833e+01 -7.114331e+01 -1.467340e+02 -6.894011e+01 -1.397724e+02 1.961404e-02 -4.394397e+01
1360000000 -1.699309e-03 -4.325373e+01 -6.931065e+01 -1.575302e+02 -7.205386e+01 -1.259414e+02 2.503214e-02 -4.396405e+01
1370000000 -5.363783e-03 -4.355284e+01 -7.056738e+01 -1.201676e+02 -7.072218e+01 -1.252336e+02 2.446883e-02 -4.440773e+01
1380000000 -9.664244e-04 -4.386793e+01 -7.045736e+01 -1.293069e+02 -7.343847e+01 -1.571933e+02 2.543011e-02 -4.469299e+01
1390000000 -2.928687e-03 -4.418158e+01 -6.826942e+01 -1.345759e+02 -6.778620e+01 -1.315590e+02 2.442356e-02 -4.494433e+01
1400000000 -3.862127e-03 -4.450087e+01 -7.331590e+01 1.724768e+02 -7.215830e+01 -1.617342e+02 2.523014e-02 -4.539721e+01
1410000000 -5.801958e-03 -4.487778e+01 -6.853870e+01 -1.364507e+02 -7.412654e+01 1.642347e+02 2.254948e-02 -4.586327e+01
1420000000 -7.845122e-03 -4.519205e+01 -6.867753e+01 -1.224486e+02 -7.078914e+01 -1.389225e+02 2.399594e-02 -4.612103e+01
1430000000 -6.781832e-03 -4.548894e+01 -7.280331e+01 -1.399346e+02 -7.389627e+01 -1.390206e+02 3.093743e-02 -4.534451e+01
1440000000 -4.502010e-03 -4.583077e+01 -6.880495e+01 -1.570189e+02 -6.557587e+01 -1.392150e+02 2.366498e-02 -4.669478e+01
1450000000 -4.587993e-03 -4.618388e+01 -7.448486e+01 -1.465100e+02 -6.570356e+01 -1.463882e+02 2.215773e-02 -4.712727e+01
1460000000 -6.434779e-03 -4.649130e+01 -7.251444e+01 -1.529138e+02 -6.587812e+01 -1.477580e+02 2.121171e-02 -4.740399e+01
1470000000 -3.400193e-03 -4.681342e+01 -6.973837e+01 -1.295622e+02 -6.900229e+01 -1.409336e+02 2.540770e-02 -4.777644e+01
1480000000 -1.596304e-03 -4.716589e+01 -7.215144e+01 -1.168892e+02 -6.663835e+01 -1.176264e+02 2.781661e-02 -4.798875e+01
1490000000 -3.281508e-03 -4.745842e+01 -6.672253e+01 -1.527763e+02 -6.841823e+01 -1.323769e+02 2.505700e-02 -4.829945e+01
1500000000 -6.588753e-03 -4.813898e+01 -6.818132e+01 -1.538146e+02 -6.925958e+01 -1.612537e+02 2.714244e-02 -4.862794e+01
1510000000 -8.179581e-03 -4.856210e+01 -6.885605e+01 -1.578770e+02 -6.989473e+01 -1.215701e+02 2.251084e-02 -4.895075e+01
1520000000 -6.156993e-03 -4.886967e+01 -6.802788e+01 -1.472766e+02 -6.792539e+01 -1.407746e+02 2.344926e-02 -4.932529e+01
1530000000 -9.037067e-03 -4.911290e+01 -6.722990e+01 -1.559488e+02 -6.969379e+01 -1.253054e+02 1.853946e-02 -4.965715e+01
1540000000 -1.153066e-02 -4.958300e+01 -6.797692e+01 -1.376462e+02 -6.736590e+01 -1.354814e+02 2.717096e-02 -4.996713e+01
1550000000 -8.823019e-03 -4.987148e+01 -6.888319e+01 -1.316384e+02 -6.654840e+01 -1.373137e+02 2.516249e-02 -5.027816e+01
1560000000 -8.884849e-03 -5.016925e+01 -6.679366e+01 -1.331545e+02 -6.625889e+01 -1.389339e+02 2.632954e-02 -5.056947e+01
1570000000 -9.816527e-03 -5.046961e+01 -6.682048e+01 -1.316001e+02 -7.015420e+01 -1.535259e+02 2.190630e-02 -5.087516e+01
1580000000 -1.183850e-02 -5.067067e+01 -6.726321e+01 -1.321647e+02 -6.846198e+01 -1.318789e+02 2.251292e-02 -5.121820e+01
1590000000 -1.355006e-02 -5.108300e+01 -6.788127e+01 -1.439402e+02 -6.847108e+01 -1.159151e+02 2.183730e-02 -5.152720e+01
1600000000 -1.672920e-02 -5.135883e+01 -6.636012e+01 -1.433894e+02 -6.636116e+01 -1.174233e+02 2.547939e-02 -5.186279e+01
1610000000 -1.296290e-02 -5.179211e+01 -6.630491e+01 -1.368137e+02 -6.437032e+01 -1.157838e+02 2.286954e-02 -5.220335e+01
1620000000 -1.377829e-02 -5.174669e+01 -6.385979e+01 -1.398147e+02 -6.554065e+01 -1.426595e+02 2.572840e-02 -5.253458e+01
1630000000 -1.438558e-02 -5.234882e+01 -6.467274e+01 -1.345782e+02 -6.375401e+01 -1.345500e+02 2.668661e-02 -5.286810e+01
1640000000 -1.914759e-02 -5.259773e+01 -6.402531e+01 -1.475701e+02 -6.380625e+01 -1.499095e+02 2.875335e-02 -5.315882e+01
1650000000 -1.748625e-02 -5.294835e+01 -6.361517e+01 -1.360826e+02 -6.481901e+01 -1.514417e+02 2.747889e-02 -5.353664e+01
1660000000 -1.378304e-02 -5.317651e+01 -6.559313e+01 -1.644995e+02 -6.468515e+01 -1.550392e+02 2.101405e-02 -5.388930e+01
1670000000 -1.418095e-02 -5.351977e+01 -6.484826e+01 -1.513750e+02 -6.339023e+01 -1.498682e+02 1.860591e-02 -5.417897e+01
1680000000 -1.243630e-02 -5.399213e+01 -6.554378e+01 -1.488568e+02 -6.577093e+01 -1.647115e+02 2.526444e-02 -5.455857e+01
1690000000 -1.325353e-02 -5.371989e+01 -6.552377e+01 -1.548593e+02 -6.611372e+01 -1.519256e+02 2.582731e-02 -5.484517e+01
1700000000 -1.004557e-02 -5.456520e+01 -6.576811e+01 -1.434336e+02 -6.583685e+01 -1.524064e+02 2.893375e-02 -5.515118e+01
1710000000 -1.759593e-02 -5.507507e+01 -6.737457e+01 -1.342039e+02 -6.722600e+01 -1.421889e+02 3.031175e-02 -5.548561e+01
1720000000 -2.028142e-02 -5.515815e+01 -6.520307e+01 -1.545076e+02 -6.638746e+01 -1.562846e+02 2.604409e-02 -5.581720e+01
1730000000 -1.944457e-02 -5.554939e+01 -6.469985e+01 -1.415977e+02 -6.518538e+01 -1.435131e+02 2.367929e-02 -5.615733e+01
1740000000 -1.830173e-02 -5.610688e+01 -6.635165e+01 -1.436731e+02 -6.531293e+01 -1.365546e+02 2.438300e-02 -5.650276e+01
1750000000 -1.849033e-02 -5.613070e+01 -6.598750e+01 -1.354652e+02 -6.900610e+01 -1.666420e+02 2.389414e-02 -5.684616e+01
1760000000 -1.815680e-02 -5.659003e+01 -6.537264e+01 -1.492275e+02 -6.652466e+01 -1.421558e+02 2.797868e-02 -5.713622e+01
1770000000 -1.701989e-02 -5.700817e+01 -6.632073e+01 -1.428911e+02 -6.408083e+01 -1.378215e+02 2.301194e-02 -5.747900e+01
1780000000 -1.871560e-02 -5.735819e+01 -6.285546e+01 -1.379539e+02 -6.343277e+01 -1.502020e+02 2.696773e-02 -5.782816e+01
1790000000 -2.199929e-02 -5.759902e+01 -6.351810e+01 -1.380611e+02 -6.456764e+01 -1.576251e+02 2.773898e-02 -5.814490e+01
1800000000 -1.681316e-02 -5.804150e+01 -6.242192e+01 -1.530004e+02 -6.421955e+01 -1.401887e+02 2.144874e-02 -5.852395e+01
1810000000 -2.248997e-02 -5.832495e+01 -6.383868e+01 -1.501275e+02 -6.501551e+01 -1.494009e+02 2.365964e-02 -5.888547e+01
1820000000 -2.142907e-02 -5.874620e+01 -6.502186e+01 -1.464354e+02 -6.399168e+01 -1.383578e+02 2.182108e-02 -5.920295e+01
1830000000 -2.371607e-02 -5.913877e+01 -6.633485e+01 -1.355506e+02 -6.699762e+01 -1.553671e+02 2.344702e-02 -5.953062e+01
1840000000 -1.742187e-02 -5.944304e+01 -6.433823e+01 -1.416977e+02 -6.333122e+01 -1.450431e+02 2.573123e-02 -5.987714e+01
1850000000 -2.089414e-02 -5.986959e+01 -6.327364e+01 -1.372812e+02 -6.200301e+01 -1.490168e+02 2.139362e-02 -6.023060e+01
1860000000 -2.464272e-02 -6.032359e+01 -6.376501e+01 -1.540526e+02 -6.357113e+01 -1.344940e+02 2.561699e-02 -6.057016e+01
1870000000 -2.623693e-02 -6.056887e+01 -6.563638e+01 -1.412504e+02 -6.418796e+01 -1.606063e+02 2.468012e-02 -6.095184e+01
1880000000 -2.320406e-02 -6.088888e+01 -6.430532e+01 -1.414731e+02 -6.405679e+01 -1.497635e+02 2.330625e-02 -6.128654e+01
1890000000 -2.234934e-02 -6.138077e+01 -6.292465e+01 -1.407883e+02 -6.484994e+01 -1.491385e+02 2.488179e-02 -6.164903e+01
1900000000 -3.009832e-02 -6.192986e+01 -6.379045e+01 -1.415762e+02 -6.239710e+01 -1.369284e+02 2.519189e-02 -6.198655e+01
1910000000 -2.909183e-02 -6.212007e+01 -6.217999e+01 -1.591447e+02 -6.428642e+01 -1.557802e+02 2.609710e-02 -6.234172e+01
1920000000 -2.982358e-02 -6.263146e+01 -6.351408e+01 -1.406022e+02 -6.416186e+01 -1.513001e+02 2.719339e-02 -6.270354e+01
1930000000 -3.165393e-02 -6.295496e+01 -6.400419e+01 -1.554001e+02 -6.246056e+01 -1.488125e+02 2.581301e-02 -6.304631e+01
1940000000 -3.123009e-02 -6.315962e+01 -6.430685e+01 -1.405443e+02 -6.225888e+01 -1.408306e+02 1.936025e-02 -6.341598e+01
1950000000 -3.505525e-02 -6.367480e+01 -6.389016e+01 -1.509821e+02 -6.345084e+01 -1.491554e+02 2.204688e-02 -6.380086e+01
1960000000 -2.997629e-02 -6.391975e+01 -6.446255e+01 -1.507275e+02 -6.312844e+01 -1.480872e+02 2.533141e-02 -6.414539e+01
1970000000 -3.717609e-02 -6.418524e+01 -6.509363e+01 -1.480568e+02 -6.503498e+01 -1.521362e+02 2.559371e-02 -6.450308e+01
1980000000 -3.958027e-02 -6.471893e+01 -6.317166e+01 -1.525871e+02 -6.312389e+01 -1.507858e+02 2.557350e-02 -6.503960e+01
1990000000 -3.604594e-02 -6.509374e+01 -6.301437e+01 -1.433832e+02 -6.289359e+01 -1.568590e+02 1.264752e-02 -6.592848e+01
2000000000 -3.337539e-02 -6.524967e+01 -6.445650e+01 -1.533529e+02 -6.451584e+01 -1.638250e+02 1.312352e-02 -6.556396e+01
2010000000 -4.159852e-02 -6.594695e+01 -6.278923e+01 -1.466349e+02 -6.471415e+01 -1.571002e+02 1.814919e-02 -6.619145e+01
2020000000 -4.976533e-02 -6.667774e+01 -6.285048e+01 -1.467824e+02 -6.632940e+01 -1.609846e+02 2.207402e-02 -6.673316e+01
2030000000 -5.061158e-02 -6.672949e+01 -6.644381e+01 -1.463519e+02 -6.429726e+01 -1.547356e+02 1.631738e-02 -6.702302e+01
2040000000 -4.853497e-02 -6.726450e+01 -6.526145e+01 -1.464982e+02 -6.592693e+01 -1.317265e+02 2.279981e-02 -6.703062e+01
2050000000 -5.163438e-02 -6.789272e+01 -6.553084e+01 -1.556672e+02 -6.583874e+01 -1.502050e+02 1.163426e-02 -6.787137e+01
2060000000 -5.461615e-02 -6.801752e+01 -6.570950e+01 -1.366051e+02 -6.978599e+01 -1.416129e+02 1.190037e-02 -6.857565e+01
2070000000 -5.110896e-02 -6.828440e+01 -6.627892e+01 -1.328120e+02 -6.926718e+01 -1.078462e+02 8.676854e-03 -6.838416e+01
2080000000 -5.536944e-02 -6.877178e+01 -6.462403e+01 -1.189959e+02 -6.690943e+01 -1.185548e+02 5.915521e-03 -6.891547e+01
2090000000 -5.221437e-02 -6.893862e+01 -6.239351e+01 -1.063799e+02 -6.436584e+01 -1.117190e+02 7.059614e-03 -6.948077e+01
2100000000 -5.792182e-02 -6.966691e+01 -6.081268e+01 -1.142616e+02 -6.314875e+01 -1.151959e+02 1.006553e-02 -6.939849e+01
2110000000 -5.672826e-02 -6.994724e+01 -6.121824e+01 -1.124354e+02 -6.155112e+01 -1.233887e+02 3.338560e-03 -7.025158e+01
2120000000 -6.337263e-02 -6.993925e+01 -6.087796e+01 -1.193830e+02 -6.026312e+01 -1.144522e+02 8.106946e-03 -7.074516e+01
2130000000 -6.080889e-02 -7.077645e+01 -5.936834e+01 -1.292576e+02 -6.074657e+01 -1.158676e+02 1.716080e-02 -6.853819e+01
2140000000 -6.825373e-02 -7.135942e+01 -5.853407e+01 -1.332822e+02 -6.024836e+01 -1.338284e+02 2.217730e-03 -7.172707e+01
2150000000 -5.907412e-02 -7.059389e+01 -6.040056e+01 -1.322526e+02 -6.070030e+01 -1.454908e+02 3.224059e-03 -7.163658e+01
2160000000 -6.188996e-02 -7.151528e+01 -5.883474e+01 -1.368940e+02 -6.288880e+01 -1.460696e+02 5.848816e-03 -7.191416e+01
2170000000 -6.954941e-02 -7.212701e+01 -5.977901e+01 -1.471240e+02 -6.004833e+01 -1.340900e+02 -3.400372e-03 -7.254822e+01
2180000000 -6.514463e-02 -7.243491e+01 -6.093927e+01 -1.431206e+02 -6.042744e+01 -1.414048e+02 5.752319e-03 -7.257106e+01
2190000000 -6.581853e-02 -7.278265e+01 -6.146976e+01 -1.544096e+02 -6.164537e+01 -1.522158e+02 7.488990e-03 -7.313624e+01
2200000000 -6.605843e-02 -7.285851e+01 -6.073355e+01 -1.578771e+02 -6.123299e+01 -1.492281e+02 -3.573398e-03 -7.394492e+01
2210000000 -6.536198e-02 -7.304057e+01 -6.161197e+01 -1.538277e+02 -6.322127e+01 -1.535521e+02 -2.475828e-03 -7.404633e+01
2220000000 -7.365696e-02 -7.403860e+01 -6.246405e+01 -1.482522e+02 -6.474023e+01 -1.382160e+02 -4.750021e-03 -7.426398e+01
2230000000 -7.087182e-02 -7.422466e+01 -6.290518e+01 -1.494002e+02 -6.288564e+01 -1.373194e+02 -4.234159e-03 -7.511231e+01
2240000000 -6.671092e-02 -7.433244e+01 -6.504316e+01 -1.520813e+02 -6.511816e+01 -1.374170e+02 -6.608217e-04 -7.499657e+01
2250000000 -7.659105e-02 -7.500909e+01 -6.635879e+01 -1.579141e+02 -6.520131e+01 -1.629423e+02 1.388987e-03 -7.541463e+01
2260000000 -7.907030e-02 -7.510256e+01 -6.615627e+01 -1.301498e+02 -6.530278e+01 -1.384096e+02 -1.113082e-02 -7.639709e+01
2270000000 -8.202713e-02 -7.598414e+01 -6.743873e+01 -1.408094e+02 -6.536940e+01 -1.381708e+02 -5.692187e-03 -7.609444e+01
2280000000 -8.662877e-02 -7.635236e+01 -6.970850e+01 -1.316021e+02 -6.761229e+01 -1.205058e+02 -8.405337e-03 -7.667561e+01
2290000000 -7.849474e-02 -7.627113e+01 -6.803947e+01 -1.179896e+02 -6.805609e+01 -1.294191e+02 -1.845125e-02 -7.749484e+01
2300000000 -8.849339e-02 -7.722807e+01 -7.058665e+01 -1.196448e+02 -6.456454e+01 -1.229207e+02 -1.071761e-02 -7.732456e+01
2310000000 -9.398630e-02 -7.744508e+01 -7.006558e+01 -1.270413e+02 -6.785695e+01 -1.433461e+02 -1.045072e-02 -7.781142e+01
2320000000 -9.161703e-02 -7.746227e+01 -6.958179e+01 -1.025997e+02 -7.151749e+01 -9.276844e+01 -2.501761e-02 -7.853129e+01
2330000000 -8.860300e-02 -7.829904e+01 -7.136749e+01 -9.342096e+01 -7.078285e+01 -1.117948e+02 -1.657829e-02 -7.853507e+01
2340000000 -9.009825e-02 -7.828577e+01 -6.819721e+01 -6.831860e+01 -6.703779e+01 -7.026283e+01 -1.919481e-02 -7.922678e+01
2350000000 -8.522205e-02 -7.845264e+01 -7.680093e+01 -6.051689e+01 -6.762519e+01 -6.119491e+01 -2.288431e-02 -7.986518e+01
2360000000 -9.611624e-02 -7.914137e+01 -6.945545e+01 -5.747210e+01 -6.734677e+01 -6.657884e+01 -2.622758e-02 -7.974117e+01
2370000000 -9.820139e-02 -7.947596e+01 -6.725469e+01 -4.697218e+01 -6.741392e+01 -6.557937e+01 -3.026515e-02 -8.058065e+01
2380000000 -1.018584e-01 -7.974197e+01 -6.661813e+01 -3.237375e+01 -6.540342e+01 -3.569794e+01 -4.147753e-02 -8.117288e+01
2390000000 -1.012821e-01 -8.031222e+01 -6.268901e+01 -3.264559e+01 -6.789419e+01 -2.928805e+01 -3.598304e-02 -8.115925e+01
2400000000 -1.097612e-01 -8.078725e+01 -6.271853e+01 -3.764744e+01 -6.703210e+01 -2.361901e+01 -3.372097e-02 -8.193256e+01
2410000000 -1.083751e-01 -8.083369e+01 -6.351504e+01 -2.497497e+01 -6.144943e+01 -3.613395e+01 -4.516621e-02 -8.225883e+01
2420000000 -1.126032e-01 -8.148147e+01 -6.271972e+01 -2.283670e+01 -6.123347e+01 -1.124493e+01 -3.358436e-02 -8.248286e+01
2430000000 -1.149191e-01 -8.222147e+01 -6.075848e+01 -2.656776e+01 -6.130006e+01 -2.446854e+01 -4.258545e-02 -8.341643e+01
2440000000 -1.137861e-01 -8.211060e+01 -5.887085e+01 -1.279449e+01 -5.904007e+01 -2.371189e+01 -4.640273e-02 -8.368505e+01
2450000000 -8.599950e-02 -7.996164e+01 -5.958923e+01 -7.220332e+00 -5.888907e+01 -9.014693e+00 -4.456147e-02 -8.377249e+01
2460000000 -1.296163e-01 -8.356483e+01 -5.701250e+01 -1.585119e+01 -5.681429e+01 -9.579834e+00 -5.123885e-02 -8.464906e+01
2470000000 -1.317486e-01 -8.358009e+01 -5.657930e+01 -7.142714e+00 -5.611750e+01 -1.212827e+01 -4.561716e-02 -8.461965e+01
2480000000 -1.384577e-01 -8.446790e+01 -5.470188e+01 -1.198751e+01 -5.601537e+01 -1.237626e+01 -5.404638e-02 -8.518283e+01
2490000000 -1.309865e-01 -8.424680e+01 -5.407526e+01 -9.729083e+00 -5.373240e+01 -1.231634e+01 -6.176140e-02 -8.592071e+01
2500000000 -1.330576e-01 -8.434442e+01 -5.322890e+01 -1.520768e+01 -5.313514e+01 -1.746482e+01 -5.067071e-02 -8.596376e+01
2510000000 -1.490985e-01 -8.555232e+01 -5.210738e+01 -1.864850e+01 -5.198502e+01 -1.628886e+01 -5.926284e-02 -8.650719e+01
2520000000 -1.532896e-01 -8.567220e+01 -5.156317e+01 -1.482383e+01 -5.147015e+01 -1.731872e+01 -6.163122e-02 -8.733420e+01
2530000000 -1.484263e-01 -8.631341e+01 -5.036353e+01 -2.080469e+01 -5.080624e+01 -1.931165e+01 -5.994551e-02 -8.752451e+01
2540000000 -1.568663e-01 -8.678581e+01 -5.039892e+01 -1.958609e+01 -4.986749e+01 -1.852141e+01 -6.205983e-02 -8.809074e+01
2550000000 -1.521490e-01 -8.696938e+01 -4.975925e+01 -2.031942e+01 -4.957097e+01 -2.095559e+01 -6.505069e-02 -8.865943e+01
2560000000 -1.589550e-01 -8.767361e+01 -4.960400e+01 -2.251474e+01 -4.921642e+01 -1.861674e+01 -6.921434e-02 -8.918003e+01
2570000000 -1.560055e-01 -8.810946e+01 -4.882730e+01 -2.235324e+01 -4.797206e+01 -2.461039e+01 -9.043621e-02 -9.100916e+01
2580000000 -1.625738e-01 -8.861102e+01 -4.831199e+01 -1.746383e+01 -4.821333e+01 -2.292928e+01 -9.598456e-02 -9.222367e+01
2590000000 -1.639059e-01 -8.908741e+01 -4.763693e+01 -1.883934e+01 -4.743989e+01 -2.004198e+01 -7.841180e-02 -9.118392e+01
2600000000 -1.638920e-01 -8.954351e+01 -4.696157e+01 -1.849748e+01 -4.691789e+01 -1.898845e+01 -8.570696e-02 -9.176829e+01
2610000000 -1.716084e-01 -9.004501e+01 -4.658337e+01 -1.781303e+01 -4.603016e+01 -1.900718e+01 -1.024369e-01 -9.323806e+01
