!Agilent Technologies,N5227A,US51270477,A.10.00.00

!File generated by LCAF-GAM-UPV software
!josevmart@iteam.upv.es
!S2P File: Measurements: S11, S21, S12, S22:
# Hz S  dB   R 50
1000000000 7.176012e-03 -2.772651e+01 -7.906302e+01 -6.547750e+01 -7.348567e+01 -1.568119e+02 2.076420e-02 -2.799454e+01
1010000000 1.342057e-02 -2.794916e+01 -8.704327e+01 6.140425e+01 -8.197239e+01 -1.575862e+01 2.328847e-02 -2.829966e+01
1020000000 1.251198e-02 -2.825585e+01 -7.839968e+01 9.283464e+01 -8.368056e+01 -8.805186e+01 2.245964e-02 -2.853377e+01
1030000000 1.495996e-02 -2.850595e+01 -8.046387e+01 -1.181571e+02 -7.939750e+01 1.737679e+02 2.040655e-02 -2.882335e+01
1040000000 7.822561e-03 -2.888176e+01 -7.244644e+01 6.129705e+01 -7.595677e+01 -2.720631e+01 2.443182e-02 -2.909508e+01
1050000000 6.258717e-03 -2.915710e+01 -8.805061e+01 9.417198e+01 -7.604912e+01 1.350692e+02 2.325023e-02 -2.940701e+01
1060000000 5.965908e-03 -2.936350e+01 -7.761281e+01 -1.583459e+02 -8.317001e+01 -1.189836e+01 2.176451e-02 -2.969786e+01
1070000000 9.736517e-03 -2.966368e+01 -8.230408e+01 1.148677e+02 -8.952162e+01 -7.619270e+01 2.060612e-02 -2.996846e+01
1080000000 9.250334e-03 -2.997272e+01 -7.771205e+01 3.407177e+01 -8.195926e+01 9.038691e+01 2.121916e-02 -3.021116e+01
1090000000 9.252853e-03 -3.019637e+01 -7.998618e+01 -1.516013e+02 -7.415331e+01 1.490998e+01 2.547695e-02 -3.048567e+01
1100000000 4.885786e-03 -3.045654e+01 -9.401628e+01 4.666431e+01 -8.312248e+01 9.933717e+01 2.739944e-02 -3.073471e+01
1110000000 8.966676e-03 -3.077827e+01 -7.547015e+01 4.085745e+00 -7.560418e+01 -4.089689e+01 2.570031e-02 -3.103102e+01
1120000000 1.175326e-02 -3.102832e+01 -7.432613e+01 -9.981776e+00 -7.356033e+01 -9.631278e+01 2.407522e-02 -3.129889e+01
1130000000 5.560126e-03 -3.133573e+01 -8.008472e+01 4.113665e+01 -8.503499e+01 -9.802003e+01 2.823475e-02 -3.157981e+01
1140000000 3.840471e-03 -3.153875e+01 -8.065408e+01 8.700685e+01 -8.787679e+01 7.279623e+01 2.715054e-02 -3.188936e+01
1150000000 9.831286e-03 -3.188424e+01 -8.702541e+01 6.051060e+01 -8.487746e+01 -5.124294e+01 3.098347e-02 -3.215821e+01
1160000000 8.591983e-03 -3.221162e+01 -8.855584e+01 2.796943e+01 -8.863193e+01 1.374167e+02 2.897396e-02 -3.244421e+01
1170000000 1.051877e-02 -3.242768e+01 -7.603358e+01 2.902611e+01 -7.714200e+01 -5.298979e+01 3.153519e-02 -3.268287e+01
1180000000 1.061971e-02 -3.270447e+01 -7.707954e+01 -1.352934e+02 -7.913979e+01 1.072165e+02 2.972407e-02 -3.299976e+01
1190000000 7.254871e-03 -3.304041e+01 -7.895079e+01 -1.079273e+02 -8.975824e+01 -9.983956e+01 2.445676e-02 -3.327021e+01
1200000000 1.057401e-02 -3.331742e+01 -8.587395e+01 -5.768400e+01 -7.906156e+01 -1.078286e+02 3.447064e-02 -3.351630e+01
1210000000 9.524475e-03 -3.359624e+01 -7.387405e+01 -1.552934e+02 -8.564860e+01 -1.763961e+02 3.225408e-02 -3.383973e+01
1220000000 1.225326e-02 -3.386494e+01 -7.696079e+01 -1.201031e+02 -7.407844e+01 -9.033009e+01 3.382966e-02 -3.411559e+01
1230000000 1.482054e-02 -3.417299e+01 -8.004343e+01 1.621385e+02 -7.501732e+01 -1.562974e+02 2.984156e-02 -3.436661e+01
1240000000 7.636975e-03 -3.451420e+01 -8.664439e+01 -1.739878e+02 -8.944050e+01 -1.794269e+02 3.126415e-02 -3.461433e+01
1250000000 1.345154e-02 -3.477041e+01 -8.729612e+01 7.831098e+01 -7.876125e+01 1.662979e+02 3.159625e-02 -3.492393e+01
1260000000 9.095958e-03 -3.506622e+01 -7.744822e+01 -1.390670e+02 -8.087428e+01 1.296529e+02 2.785228e-02 -3.519622e+01
1270000000 9.992654e-03 -3.532306e+01 -8.401313e+01 -1.576818e+02 -8.241708e+01 -1.411427e+02 2.840167e-02 -3.549189e+01
1280000000 1.044115e-02 -3.564005e+01 -7.261024e+01 -2.025126e+01 -7.522638e+01 -5.442004e+01 3.199917e-02 -3.578003e+01
1290000000 1.731724e-02 -3.577295e+01 -7.622415e+01 -9.205592e+01 -7.593985e+01 -5.964403e+01 3.056683e-02 -3.606781e+01
1300000000 1.696556e-02 -3.612873e+01 -7.760484e+01 1.684993e+02 -7.909337e+01 -1.605173e+02 3.767733e-02 -3.635023e+01
1310000000 6.109804e-03 -3.639507e+01 -8.007021e+01 -4.330537e+01 -8.558286e+01 -1.585261e+02 3.516374e-02 -3.663585e+01
1320000000 1.327210e-02 -3.674916e+01 -7.537482e+01 -1.240492e+02 -7.755919e+01 1.634742e+02 3.610156e-02 -3.687265e+01
1330000000 9.512560e-03 -3.693676e+01 -7.556583e+01 -1.345639e+02 -7.616293e+01 -8.556711e+01 3.121789e-02 -3.718272e+01
1340000000 1.140810e-02 -3.728400e+01 -7.964582e+01 -1.409024e+02 -7.441359e+01 1.652717e+02 3.764715e-02 -3.743932e+01
1350000000 7.104262e-03 -3.754970e+01 -7.594544e+01 1.318721e+02 -8.105537e+01 8.994233e+01 3.703438e-02 -3.791938e+01
1360000000 1.628284e-02 -3.779716e+01 -7.262470e+01 -1.766479e+02 -8.528503e+01 -1.793746e+02 3.798389e-02 -3.811261e+01
1370000000 1.544357e-02 -3.818210e+01 -8.038909e+01 7.993861e+01 -8.325601e+01 -1.030945e+02 3.608342e-02 -3.834011e+01
1380000000 1.972512e-02 -3.835002e+01 -8.137265e+01 -1.280638e+02 -8.724216e+01 -1.352219e+02 3.942672e-02 -3.867777e+01
1390000000 1.614400e-02 -3.862648e+01 -8.654751e+01 -1.367829e+01 -8.383806e+01 1.643399e+02 3.911652e-02 -3.886725e+01
1400000000 1.666987e-02 -3.921552e+01 -8.699487e+01 -6.664954e+01 -8.320903e+01 3.423327e+01 4.097318e-02 -3.925089e+01
1410000000 1.573314e-02 -3.939850e+01 -8.099162e+01 -1.446802e+02 -8.014233e+01 -5.501664e+00 3.863635e-02 -3.952401e+01
1420000000 1.933422e-02 -3.971804e+01 -8.058826e+01 1.589900e+02 -7.352431e+01 -9.716022e+01 3.711941e-02 -3.971544e+01
1430000000 1.144871e-02 -3.997274e+01 -7.979818e+01 -9.807211e+01 -7.903877e+01 1.592842e+02 4.388952e-02 -4.013153e+01
1440000000 1.707832e-02 -4.021264e+01 -8.181875e+01 -1.037637e+02 -7.829190e+01 8.176822e+00 4.064799e-02 -4.038005e+01
1450000000 1.591148e-02 -4.056498e+01 -8.059707e+01 -1.019318e+02 -7.397633e+01 -1.336136e+02 4.175630e-02 -4.070470e+01
1460000000 1.658408e-02 -4.083572e+01 -7.495578e+01 -1.013576e+02 -8.057505e+01 -1.650462e+02 3.662191e-02 -4.091183e+01
1470000000 1.984440e-02 -4.113519e+01 -7.361876e+01 -9.312672e+01 -8.022005e+01 -1.709672e+02 4.369890e-02 -4.126936e+01
1480000000 2.146584e-02 -4.132502e+01 -9.285059e+01 8.359603e+01 -8.500285e+01 1.452128e+02 4.633893e-02 -4.157531e+01
1490000000 1.849133e-02 -4.166756e+01 -7.332573e+01 -1.674196e+02 -7.689957e+01 -1.181287e+02 4.366397e-02 -4.180817e+01
1500000000 2.079348e-02 -4.194183e+01 -7.801133e+01 -1.103054e+02 -7.825171e+01 1.003817e+01 4.546602e-02 -4.210322e+01
1510000000 1.870943e-02 -4.212234e+01 -8.118775e+01 2.589233e+01 -7.769128e+01 -1.083830e+02 4.118806e-02 -4.236099e+01
1520000000 1.892940e-02 -4.243365e+01 -7.635167e+01 -9.623063e+01 -7.510384e+01 1.133635e+02 4.083475e-02 -4.277335e+01
1530000000 1.576309e-02 -4.253362e+01 -7.715611e+01 -1.428716e+02 -7.692793e+01 1.526273e+02 4.069855e-02 -4.303222e+01
1540000000 1.923337e-02 -4.281166e+01 -7.814028e+01 -1.296132e+02 -7.460346e+01 -1.666405e+02 4.547118e-02 -4.330111e+01
1550000000 2.018683e-02 -4.336922e+01 -7.781928e+01 -1.739579e+02 -8.008109e+01 -1.597008e+02 4.587873e-02 -4.356868e+01
1560000000 2.160509e-02 -4.353199e+01 -7.816779e+01 -1.510136e+02 -8.332227e+01 1.776046e+02 4.514229e-02 -4.387223e+01
1570000000 2.345379e-02 -4.369424e+01 -7.657565e+01 1.738871e+02 -7.667935e+01 -1.053551e+02 4.281411e-02 -4.423090e+01
1580000000 2.265227e-02 -4.397715e+01 -7.999585e+01 -9.470697e+01 -7.514352e+01 -1.089799e+02 4.677964e-02 -4.440242e+01
1590000000 1.545640e-02 -4.434124e+01 -7.316118e+01 -1.113381e+02 -7.608945e+01 -1.261346e+02 4.221791e-02 -4.473632e+01
1600000000 1.563901e-02 -4.456509e+01 -7.435912e+01 -7.036205e+01 -7.642611e+01 -1.473990e+02 5.133996e-02 -4.499667e+01
1610000000 2.149281e-02 -4.481625e+01 -7.304716e+01 -1.444388e+02 -6.947291e+01 -1.066148e+02 4.151620e-02 -4.535648e+01
1620000000 1.725128e-02 -4.509861e+01 -7.087135e+01 -1.132963e+02 -7.250260e+01 -9.356628e+01 4.393308e-02 -4.567950e+01
1630000000 1.869187e-02 -4.543602e+01 -6.850673e+01 -1.319910e+02 -6.737255e+01 -1.253134e+02 4.923398e-02 -4.590308e+01
1640000000 1.596986e-02 -4.567921e+01 -7.170106e+01 -1.281380e+02 -6.829532e+01 -1.653791e+02 4.898615e-02 -4.623715e+01
1650000000 1.887487e-02 -4.594095e+01 -6.964136e+01 -1.678917e+02 -7.029191e+01 -1.511025e+02 4.756106e-02 -4.651237e+01
1660000000 1.683284e-02 -4.618544e+01 -7.197861e+01 -1.667490e+02 -7.355477e+01 -9.576617e+01 4.859439e-02 -4.686198e+01
1670000000 2.073723e-02 -4.654769e+01 -6.847175e+01 -1.637617e+02 -6.816786e+01 -1.545029e+02 4.519304e-02 -4.710709e+01
1680000000 2.358646e-02 -4.677419e+01 -7.325634e+01 -1.379249e+02 -7.487954e+01 -1.560801e+02 5.247764e-02 -4.737609e+01
1690000000 1.986317e-02 -4.702460e+01 -7.790128e+01 -1.417783e+02 -7.273086e+01 -1.528539e+02 5.366727e-02 -4.754107e+01
1700000000 2.620788e-02 -4.726150e+01 -8.812351e+01 -1.679574e+02 -7.745501e+01 -4.791388e+00 5.321495e-02 -4.799631e+01
1710000000 2.082961e-02 -4.753350e+01 -7.238334e+01 -1.693582e+02 -7.784010e+01 1.636668e+02 5.158218e-02 -4.814141e+01
1720000000 1.813560e-02 -4.783916e+01 -7.668748e+01 -6.476466e+01 -7.677475e+01 -1.694601e+02 5.273879e-02 -4.841699e+01
1730000000 1.874127e-02 -4.812268e+01 -7.944958e+01 -1.599661e+02 -7.687534e+01 -1.733803e+02 4.646473e-02 -4.879769e+01
1740000000 2.121639e-02 -4.850191e+01 -7.152958e+01 -1.178532e+02 -7.489183e+01 -1.317798e+02 4.989149e-02 -4.904224e+01
1750000000 2.153710e-02 -4.872825e+01 -7.362395e+01 -1.280329e+02 -8.089260e+01 1.414083e+02 4.873932e-02 -4.938270e+01
1760000000 2.332611e-02 -4.888774e+01 -7.579498e+01 -1.345123e+02 -7.667057e+01 -1.493649e+02 5.583166e-02 -4.955432e+01
1770000000 2.313556e-02 -4.940764e+01 -7.464330e+01 -1.210086e+02 -7.742567e+01 -1.218381e+02 5.060035e-02 -4.991430e+01
1780000000 2.098938e-02 -5.033598e+01 -6.937782e+01 -1.292685e+02 -7.179300e+01 -1.178978e+02 5.216670e-02 -5.021459e+01
1790000000 2.493015e-02 -4.971925e+01 -7.107970e+01 -1.105341e+02 -7.559234e+01 -1.365488e+02 5.764382e-02 -5.045682e+01
1800000000 2.629387e-02 -5.004419e+01 -7.434339e+01 1.620663e+02 -7.308231e+01 -1.516456e+02 5.668742e-02 -5.080557e+01
1810000000 2.137864e-02 -5.040882e+01 -6.980412e+01 -1.429991e+02 -7.360381e+01 -1.473163e+02 5.554314e-02 -5.102742e+01
1820000000 2.388841e-02 -5.070232e+01 -6.945915e+01 -1.526914e+02 -7.370058e+01 -1.512599e+02 5.121527e-02 -5.125231e+01
1830000000 2.518455e-02 -5.086956e+01 -7.243559e+01 -1.420524e+02 -6.964060e+01 -1.597713e+02 5.334881e-02 -5.147198e+01
1840000000 2.801372e-02 -5.119378e+01 -7.622331e+01 -1.065331e+02 -7.415858e+01 -1.376469e+02 5.713531e-02 -5.174642e+01
1850000000 2.680794e-02 -5.147237e+01 -7.062244e+01 -1.300635e+02 -7.087668e+01 -1.111728e+02 5.653099e-02 -5.207080e+01
1860000000 2.308072e-02 -5.176776e+01 -7.181958e+01 -1.310037e+02 -7.191230e+01 -1.249825e+02 5.921488e-02 -5.237155e+01
1870000000 2.382062e-02 -5.206060e+01 -7.099520e+01 -1.469588e+02 -7.187585e+01 -1.663732e+02 5.711622e-02 -5.270434e+01
1880000000 2.477472e-02 -5.232223e+01 -7.169325e+01 -1.342359e+02 -7.384774e+01 1.790237e+02 5.704316e-02 -5.299605e+01
1890000000 2.851308e-02 -5.262623e+01 -7.115733e+01 -1.577652e+02 -7.158334e+01 -1.466682e+02 5.780306e-02 -5.353444e+01
1900000000 2.351907e-02 -5.289906e+01 -7.105522e+01 -1.198622e+02 -7.153490e+01 -9.117431e+01 5.872966e-02 -5.368255e+01
1910000000 2.343782e-02 -5.314794e+01 -7.629608e+01 -1.169028e+02 -7.302497e+01 -1.681027e+02 6.073002e-02 -5.416246e+01
1920000000 2.794196e-02 -5.346092e+01 -7.115368e+01 -1.384960e+02 -6.822691e+01 -1.205651e+02 6.279752e-02 -5.441902e+01
1930000000 2.551475e-02 -5.373309e+01 -7.136504e+01 -1.403788e+02 -7.595164e+01 -1.058484e+02 6.101676e-02 -5.453255e+01
1940000000 2.513285e-02 -5.398625e+01 -7.071595e+01 -1.473540e+02 -6.999939e+01 -1.613261e+02 5.570738e-02 -5.495628e+01
1950000000 2.482429e-02 -5.425986e+01 -6.878833e+01 -1.522022e+02 -7.024756e+01 -9.534167e+01 6.254347e-02 -5.516564e+01
1960000000 2.810730e-02 -5.452258e+01 -6.859168e+01 -1.299806e+02 -6.967210e+01 -1.262595e+02 6.365692e-02 -5.561217e+01
1970000000 2.384193e-02 -5.480539e+01 -7.131154e+01 -1.197162e+02 -7.196875e+01 -1.506720e+02 6.264853e-02 -5.572882e+01
1980000000 2.280584e-02 -5.511263e+01 -7.608123e+01 -1.458833e+02 -6.884821e+01 -1.482978e+02 6.672200e-02 -5.608622e+01
1990000000 2.693980e-02 -5.536319e+01 -7.365621e+01 -1.455619e+02 -6.870950e+01 -1.260158e+02 5.945138e-02 -5.643869e+01
2000000000 2.739982e-02 -5.564119e+01 -7.214126e+01 -1.381513e+02 -7.124420e+01 -1.731827e+02 5.647545e-02 -5.641366e+01
2010000000 2.789988e-02 -5.587793e+01 -7.390136e+01 -1.323478e+02 -7.251674e+01 -1.603804e+02 6.267257e-02 -5.706974e+01
2020000000 2.309735e-02 -5.614995e+01 -7.280112e+01 -1.552079e+02 -7.083482e+01 -1.300139e+02 6.489713e-02 -5.730328e+01
2030000000 2.192053e-02 -5.645576e+01 -6.943742e+01 -1.367975e+02 -7.206887e+01 -1.389571e+02 6.239945e-02 -5.731542e+01
2040000000 2.595020e-02 -5.669465e+01 -7.244245e+01 -1.389832e+02 -7.188017e+01 -1.270943e+02 6.781316e-02 -5.791660e+01
2050000000 2.427417e-02 -5.698180e+01 -7.785924e+01 -1.409334e+02 -7.275771e+01 -1.203012e+02 6.359970e-02 -5.821952e+01
2060000000 2.129295e-02 -5.726332e+01 -8.055967e+01 -5.578438e+01 -7.052464e+01 -1.080892e+02 6.308737e-02 -5.831325e+01
2070000000 2.462537e-02 -5.756145e+01 -7.224738e+01 -1.256012e+02 -7.291075e+01 -1.217330e+02 6.098811e-02 -5.873228e+01
2080000000 2.900830e-02 -5.781200e+01 -7.762083e+01 -1.255416e+02 -6.913549e+01 -9.483718e+01 6.088657e-02 -5.905186e+01
2090000000 2.337389e-02 -5.808633e+01 -6.575359e+01 -6.830779e+01 -7.018933e+01 -6.791301e+01 6.195689e-02 -5.927158e+01
2100000000 2.500033e-02 -5.834976e+01 -6.817901e+01 -7.538981e+01 -6.684997e+01 -9.751798e+01 6.720351e-02 -5.964648e+01
2110000000 2.798688e-02 -5.862946e+01 -6.637092e+01 -1.003775e+02 -6.729369e+01 -9.788550e+01 5.998769e-02 -5.988650e+01
2120000000 2.206244e-02 -5.890834e+01 -6.609784e+01 -1.033928e+02 -6.494541e+01 -8.575370e+01 6.700250e-02 -5.998354e+01
2130000000 2.610493e-02 -5.920457e+01 -6.636886e+01 -1.114479e+02 -6.439133e+01 -1.217113e+02 6.606711e-02 -6.030314e+01
2140000000 2.323365e-02 -5.946620e+01 -6.526945e+01 -1.179529e+02 -6.557696e+01 -1.114979e+02 6.614804e-02 -6.053263e+01
2150000000 2.457903e-02 -5.974752e+01 -6.448028e+01 -1.302336e+02 -6.228250e+01 -1.110535e+02 6.789822e-02 -6.082427e+01
2160000000 2.667917e-02 -6.007405e+01 -6.316042e+01 -1.169725e+02 -6.254282e+01 -1.335027e+02 7.056684e-02 -6.118968e+01
2170000000 2.352517e-02 -6.033140e+01 -6.339291e+01 -1.330631e+02 -6.314920e+01 -1.334146e+02 6.192011e-02 -6.142901e+01
2180000000 2.710712e-02 -6.061108e+01 -6.205276e+01 -1.404954e+02 -6.419724e+01 -1.223672e+02 7.016337e-02 -6.173755e+01
2190000000 2.867844e-02 -6.092249e+01 -6.430066e+01 -1.451401e+02 -6.385315e+01 -1.441300e+02 7.077855e-02 -6.210471e+01
2200000000 3.011234e-02 -6.115982e+01 -6.316194e+01 -1.271528e+02 -6.266105e+01 -1.424454e+02 6.970415e-02 -6.215299e+01
2210000000 2.652830e-02 -6.142176e+01 -6.416412e+01 -1.418791e+02 -6.439412e+01 -1.359634e+02 6.722858e-02 -6.257682e+01
2220000000 2.442001e-02 -6.175110e+01 -6.503434e+01 -1.600424e+02 -6.394732e+01 -1.359857e+02 6.790303e-02 -6.311649e+01
2230000000 2.995633e-02 -6.203984e+01 -6.243038e+01 -1.408976e+02 -6.286584e+01 -1.398403e+02 6.913755e-02 -6.315258e+01
2240000000 3.022031e-02 -6.228091e+01 -6.634535e+01 -1.420457e+02 -6.398041e+01 -1.451845e+02 7.037111e-02 -6.339655e+01
2250000000 2.721695e-02 -6.260120e+01 -6.415282e+01 -1.416700e+02 -6.462518e+01 -1.367225e+02 6.524954e-02 -6.464439e+01
2260000000 2.362341e-02 -6.288378e+01 -6.563126e+01 -1.539128e+02 -6.697276e+01 -1.383411e+02 6.707728e-02 -6.386707e+01
2270000000 2.661758e-02 -6.316119e+01 -6.336135e+01 -1.474477e+02 -6.434035e+01 -1.503241e+02 6.699987e-02 -6.447924e+01
2280000000 2.105001e-02 -6.347511e+01 -6.522197e+01 -1.516781e+02 -6.374797e+01 -1.455403e+02 6.566142e-02 -6.480776e+01
2290000000 2.993365e-02 -6.375069e+01 -6.466520e+01 -1.304162e+02 -6.815049e+01 -1.721000e+02 6.792618e-02 -6.480211e+01
2300000000 2.276459e-02 -6.403603e+01 -6.378519e+01 -1.367253e+02 -6.480606e+01 -1.500772e+02 6.385750e-02 -6.538374e+01
2310000000 2.115043e-02 -6.431544e+01 -6.608087e+01 -1.537255e+02 -6.404179e+01 -1.365941e+02 7.094137e-02 -6.570464e+01
2320000000 2.335083e-02 -6.464745e+01 -6.491645e+01 -1.422543e+02 -6.130366e+01 -1.465241e+02 6.265803e-02 -6.588478e+01
2330000000 3.343502e-02 -6.485715e+01 -6.464237e+01 -1.576093e+02 -6.512070e+01 -1.585638e+02 6.772616e-02 -6.617936e+01
2340000000 2.791853e-02 -6.541476e+01 -6.422135e+01 -1.582358e+02 -6.256812e+01 -1.333386e+02 6.919783e-02 -6.640518e+01
2350000000 2.788985e-02 -6.584200e+01 -6.410746e+01 -1.452198e+02 -6.540678e+01 -1.448106e+02 6.385735e-02 -6.675862e+01
2360000000 2.460615e-02 -6.591847e+01 -6.446581e+01 -1.390335e+02 -6.152218e+01 -1.502933e+02 6.614509e-02 -6.702416e+01
2370000000 2.664446e-02 -6.648813e+01 -6.489577e+01 -1.540187e+02 -6.351964e+01 -1.410370e+02 6.442169e-02 -6.732954e+01
2380000000 2.462929e-02 -6.664877e+01 -6.238868e+01 -1.421630e+02 -6.733791e+01 -1.609518e+02 6.277117e-02 -6.765289e+01
2390000000 2.240639e-02 -6.680429e+01 -6.463587e+01 -1.590633e+02 -6.406072e+01 -1.468828e+02 6.535596e-02 -6.791188e+01
2400000000 2.085089e-02 -6.749535e+01 -6.248831e+01 -1.537538e+02 -6.230241e+01 -1.516357e+02 6.368546e-02 -6.817033e+01
2410000000 2.333774e-02 -6.758469e+01 -6.369017e+01 -1.539501e+02 -6.421426e+01 -1.629785e+02 6.178332e-02 -6.849677e+01
2420000000 2.153713e-02 -6.788856e+01 -6.420406e+01 -1.489041e+02 -6.535411e+01 -1.486477e+02 6.852620e-02 -6.882899e+01
2430000000 2.540655e-02 -6.839223e+01 -6.378594e+01 -1.540079e+02 -6.399613e+01 -1.467807e+02 6.522309e-02 -6.910757e+01
2440000000 2.211903e-02 -6.844076e+01 -6.351944e+01 -1.491475e+02 -6.381143e+01 -1.544635e+02 6.802729e-02 -6.940546e+01
2450000000 2.618835e-02 -6.877776e+01 -6.498851e+01 -1.404923e+02 -6.322298e+01 -1.598534e+02 6.717476e-02 -6.969489e+01
2460000000 1.989145e-02 -6.932693e+01 -6.568152e+01 -1.569304e+02 -6.379765e+01 -1.532116e+02 6.724449e-02 -6.998978e+01
2470000000 1.636405e-02 -6.928699e+01 -6.317574e+01 -1.291347e+02 -6.299558e+01 -1.616431e+02 7.073133e-02 -7.023472e+01
2480000000 1.732719e-02 -6.965060e+01 -6.722424e+01 -1.658507e+02 -6.663064e+01 -1.287778e+02 7.156789e-02 -7.052553e+01
2490000000 2.208895e-02 -7.005581e+01 -6.558390e+01 -1.484404e+02 -6.453873e+01 -1.366710e+02 6.435487e-02 -7.079588e+01
2500000000 2.089389e-02 -6.999831e+01 -6.810522e+01 -1.344607e+02 -6.590849e+01 -1.399453e+02 7.086898e-02 -7.110120e+01
2510000000 1.341997e-02 -7.056968e+01 -6.514808e+01 -1.537375e+02 -6.731754e+01 -1.420498e+02 7.034224e-02 -7.140442e+01
2520000000 1.150507e-02 -7.110113e+01 -6.494732e+01 -1.435758e+02 -6.871214e+01 -1.655017e+02 7.399786e-02 -7.168810e+01
2530000000 1.955574e-02 -7.087529e+01 -6.525010e+01 -1.242690e+02 -6.424368e+01 -1.247218e+02 7.462519e-02 -7.202898e+01
2540000000 1.514983e-02 -7.142796e+01 -6.395855e+01 -1.257218e+02 -6.587520e+01 -1.273503e+02 7.730269e-02 -7.229812e+01
2550000000 1.887648e-02 -7.186663e+01 -6.860181e+01 -1.249107e+02 -6.528654e+01 -1.288427e+02 7.967217e-02 -7.264015e+01
2560000000 2.118036e-02 -7.231319e+01 -6.096735e+01 -1.202039e+02 -6.372754e+01 -1.302501e+02 7.792447e-02 -7.293937e+01
2570000000 2.623365e-02 -7.246622e+01 -6.339956e+01 -1.487438e+02 -6.569262e+01 -1.535416e+02 7.701939e-02 -7.324270e+01
2580000000 2.704661e-02 -7.244214e+01 -6.181715e+01 -1.469601e+02 -6.233187e+01 -1.357289e+02 8.035537e-02 -7.352763e+01
2590000000 2.815064e-02 -7.269490e+01 -6.207902e+01 -1.500231e+02 -6.336604e+01 -1.455937e+02 8.505183e-02 -7.382855e+01
2600000000 2.558418e-02 -7.337111e+01 -6.226757e+01 -1.498784e+02 -6.209937e+01 -1.465206e+02 8.612728e-02 -7.415788e+01
2610000000 2.732412e-02 -7.357914e+01 -6.379217e+01 -1.461512e+02 -6.309777e+01 -1.535265e+02 8.342363e-02 -7.444530e+01
2620000000 2.798918e-02 -7.385063e+01 -6.451504e+01 -1.503806e+02 -6.303592e+01 -1.341837e+02 8.508061e-02 -7.479699e+01
2630000000 2.586270e-02 -7.441402e+01 -6.406136e+01 -1.396747e+02 -6.734715e+01 -1.478024e+02 8.650662e-02 -7.509612e+01
