!Agilent Technologies,N5227A,US51270477,A.10.00.00

!File generated by LCAF-GAM-UPV software
!josevmart@iteam.upv.es
!S2P File: Measurements: S11, S21, S12, S22:
# Hz S  dB   R 50
1000000000 -1.214972e-03 -3.146248e+01 -8.844247e+01 1.609670e+01 -7.890380e+01 5.232965e+01 1.417669e-02 -3.165129e+01
1010000000 7.194241e-03 -3.171075e+01 -7.965182e+01 -7.392902e+00 -7.530460e+01 -1.031411e+02 1.863166e-02 -3.205932e+01
1020000000 3.484130e-03 -3.200126e+01 -8.002523e+01 -1.551262e+02 -7.810769e+01 -1.395504e+02 2.325541e-02 -3.225726e+01
1030000000 2.735439e-03 -3.239919e+01 -8.742960e+01 1.707892e+02 -7.513047e+01 -1.504495e+02 1.299442e-02 -3.263109e+01
1040000000 -1.460233e-03 -3.271902e+01 -7.630482e+01 -1.438268e+02 -7.832675e+01 1.102247e+02 1.732674e-02 -3.296618e+01
1050000000 1.552110e-04 -3.302449e+01 -8.664438e+01 -7.554211e+01 -8.394923e+01 -1.692721e+02 1.634417e-02 -3.329628e+01
1060000000 3.670479e-03 -3.331060e+01 -7.711263e+01 -9.562669e+01 -7.371346e+01 -1.518364e+02 1.831336e-02 -3.365926e+01
1070000000 -1.927685e-03 -3.365099e+01 -8.536903e+01 -1.106436e+02 -7.985881e+01 -1.305117e+02 1.704835e-02 -3.398972e+01
1080000000 -2.709072e-03 -3.393437e+01 -7.591517e+01 -1.261223e+02 -7.522513e+01 -1.697655e+02 1.699303e-02 -3.432213e+01
1090000000 -1.186115e-04 -3.425444e+01 -7.829483e+01 -1.067218e+02 -8.095457e+01 -1.840655e+01 2.067779e-02 -3.464636e+01
1100000000 -7.334003e-03 -3.454966e+01 -7.290775e+01 -1.547867e+02 -8.091699e+01 -1.299023e+01 2.101273e-02 -3.503856e+01
1110000000 2.071127e-03 -3.487420e+01 -8.273364e+01 1.515305e+02 -7.427048e+01 -1.127166e+02 1.920340e-02 -3.568713e+01
1120000000 -1.280133e-03 -3.516729e+01 -7.921931e+01 -1.156553e+02 -7.627490e+01 -9.328550e+00 1.860913e-02 -3.586026e+01
1130000000 -6.922062e-03 -3.552218e+01 -8.258987e+01 -1.169902e+02 -9.362205e+01 -6.497523e+00 1.779783e-02 -3.630440e+01
1140000000 -5.290758e-03 -3.582485e+01 -7.729344e+01 -1.182656e+02 -8.403634e+01 -6.052407e+01 1.351748e-02 -3.659148e+01
1150000000 -1.922143e-03 -3.611183e+01 -7.561352e+01 -2.137943e+01 -8.006332e+01 -1.188844e+02 2.003631e-02 -3.699231e+01
1160000000 -2.042284e-05 -3.644814e+01 -7.055368e+01 -1.196033e+02 -7.222302e+01 -1.067598e+02 2.064577e-02 -3.729448e+01
1170000000 -1.386708e-03 -3.675638e+01 -7.268611e+01 -9.601133e+01 -7.719431e+01 -7.876476e+01 2.254845e-02 -3.770039e+01
1180000000 -3.174564e-03 -3.706325e+01 -7.293649e+01 -1.117119e+02 -7.477382e+01 -1.356239e+02 2.092608e-02 -3.796005e+01
1190000000 -1.046148e-03 -3.738588e+01 -7.782525e+01 -6.763435e+01 -7.180667e+01 -1.370172e+02 1.869443e-02 -3.828131e+01
1200000000 -5.342867e-03 -3.768977e+01 -7.252227e+01 -1.386833e+02 -7.268998e+01 -1.606741e+02 2.570857e-02 -3.859015e+01
1210000000 -1.059213e-03 -3.797667e+01 -7.296214e+01 -9.909771e+01 -7.369588e+01 -1.463266e+02 1.745148e-02 -3.898841e+01
1220000000 -2.944183e-04 -3.832028e+01 -7.457846e+01 -1.370517e+02 -7.235323e+01 -1.326972e+02 2.545321e-02 -3.925010e+01
1230000000 -1.423521e-03 -3.862680e+01 -7.408041e+01 -1.569994e+02 -7.383839e+01 1.784073e+02 2.326284e-02 -3.949514e+01
1240000000 -7.003299e-03 -3.891563e+01 -7.003763e+01 -1.534713e+02 -7.908536e+01 -1.537845e+02 2.480877e-02 -3.969497e+01
1250000000 -2.818342e-03 -3.923327e+01 -7.803694e+01 -1.258594e+02 -6.994807e+01 -1.392053e+02 2.282060e-02 -4.036168e+01
1260000000 -3.494990e-03 -3.954996e+01 -7.446603e+01 -1.446537e+02 -7.246398e+01 -1.109606e+02 1.600173e-02 -4.038113e+01
1270000000 -5.514077e-03 -3.985975e+01 -7.203165e+01 -1.643262e+02 -8.063446e+01 -1.444463e+02 2.010452e-02 -4.083060e+01
1280000000 -2.009082e-03 -4.015004e+01 -7.611242e+01 -1.737778e+02 -7.748177e+01 -1.159011e+02 1.679787e-02 -4.108416e+01
1290000000 1.023719e-03 -4.042939e+01 -6.963255e+01 -1.094014e+02 -7.610364e+01 -1.301169e+02 2.247916e-02 -4.146909e+01
1300000000 1.698953e-03 -4.079341e+01 -8.429066e+01 -9.841188e+01 -7.305660e+01 -1.385410e+02 2.535155e-02 -4.179806e+01
1310000000 -6.061406e-03 -4.109546e+01 -7.223292e+01 -1.345977e+02 -7.441427e+01 -1.220218e+02 1.925680e-02 -4.204554e+01
1320000000 1.089148e-04 -4.141846e+01 -7.862595e+01 -1.598085e+02 -7.222856e+01 -1.178970e+02 2.507450e-02 -4.230185e+01
1330000000 -6.186727e-03 -4.172387e+01 -6.904718e+01 -1.445887e+02 -7.435603e+01 -1.230705e+02 2.180103e-02 -4.269250e+01
1340000000 -3.488261e-03 -4.203831e+01 -7.285442e+01 -1.187687e+02 -7.431812e+01 -1.565684e+02 2.110138e-02 -4.304208e+01
1350000000 -2.486400e-03 -4.237934e+01 -7.241020e+01 -1.345763e+02 -6.969267e+01 -1.500394e+02 2.523016e-02 -4.344422e+01
1360000000 4.257650e-04 -4.267491e+01 -7.007303e+01 -1.402288e+02 -7.088995e+01 -1.438486e+02 2.737884e-02 -4.359478e+01
1370000000 -3.649841e-03 -4.297640e+01 -7.187669e+01 1.724405e+02 -7.403744e+01 -1.517635e+02 2.653950e-02 -4.387947e+01
1380000000 -2.265102e-04 -4.328534e+01 -6.977608e+01 -1.316595e+02 -7.437423e+01 -9.872011e+01 2.751883e-02 -4.418133e+01
1390000000 -4.201288e-03 -4.361615e+01 -7.370266e+01 -1.340704e+02 -7.089803e+01 -1.247077e+02 2.669028e-02 -4.448156e+01
1400000000 -3.039011e-03 -4.391873e+01 -7.320872e+01 -1.373431e+02 -7.607433e+01 -1.334528e+02 2.614402e-02 -4.476012e+01
1410000000 -1.471700e-03 -4.426694e+01 -7.095218e+01 -1.291628e+02 -7.095412e+01 -1.473112e+02 2.436274e-02 -4.503573e+01
1420000000 -5.523631e-03 -4.459046e+01 -6.942387e+01 -1.373131e+02 -7.161609e+01 -1.606873e+02 2.561652e-02 -4.536024e+01
1430000000 -3.258328e-03 -4.487824e+01 -6.830202e+01 -1.348347e+02 -7.235379e+01 -1.464090e+02 2.876805e-02 -4.568658e+01
1440000000 -7.088552e-03 -4.523539e+01 -7.327225e+01 -1.415074e+02 -6.797977e+01 -1.456089e+02 2.924970e-02 -4.602443e+01
1450000000 -6.475173e-03 -4.554822e+01 -6.685517e+01 -1.357993e+02 -7.373242e+01 -1.440655e+02 2.819484e-02 -4.616449e+01
1460000000 -3.580715e-03 -4.588094e+01 -6.650486e+01 -1.245229e+02 -6.843421e+01 -1.314116e+02 2.488775e-02 -4.650266e+01
1470000000 1.747454e-04 -4.618363e+01 -7.027114e+01 -1.377833e+02 -7.267763e+01 -1.374359e+02 2.869085e-02 -4.689119e+01
1480000000 -1.891508e-04 -4.650896e+01 -7.224886e+01 -1.242706e+02 -7.190014e+01 -1.375614e+02 3.221246e-02 -4.730155e+01
1490000000 3.441910e-04 -4.681283e+01 -6.723866e+01 -1.315881e+02 -7.046318e+01 -1.321131e+02 3.189506e-02 -4.696256e+01
1500000000 -3.203683e-03 -4.713775e+01 -6.971129e+01 -1.452057e+02 -6.681293e+01 -1.359114e+02 2.999287e-02 -4.773228e+01
1510000000 -3.888758e-03 -4.745585e+01 -6.833366e+01 -1.574096e+02 -6.789625e+01 -1.284228e+02 2.190432e-02 -4.810123e+01
1520000000 -2.112808e-03 -4.779621e+01 -7.255568e+01 -1.416048e+02 -6.675671e+01 -1.510514e+02 2.638938e-02 -4.839077e+01
1530000000 -6.341140e-03 -4.859986e+01 -7.139569e+01 -1.333488e+02 -6.677043e+01 -1.347378e+02 2.154510e-02 -4.889681e+01
1540000000 -4.538649e-03 -4.869402e+01 -7.227233e+01 -1.496214e+02 -6.908134e+01 -1.377155e+02 3.138366e-02 -4.908265e+01
1550000000 -3.264212e-03 -4.910651e+01 -6.794038e+01 -1.308966e+02 -6.959244e+01 -1.156385e+02 2.652464e-02 -4.942499e+01
1560000000 -4.235896e-03 -4.942811e+01 -7.030173e+01 -1.590296e+02 -7.031891e+01 -1.220943e+02 2.969115e-02 -4.978020e+01
1570000000 -1.221742e-03 -4.975064e+01 -6.827383e+01 -1.340140e+02 -6.974213e+01 -1.308035e+02 2.647030e-02 -5.024366e+01
1580000000 -4.525162e-03 -5.010387e+01 -6.822105e+01 -1.319897e+02 -6.755905e+01 -1.274884e+02 2.961972e-02 -5.052895e+01
1590000000 -1.108014e-02 -5.026966e+01 -6.909250e+01 -1.124336e+02 -6.661205e+01 -1.136608e+02 2.573250e-02 -5.091596e+01
1600000000 -1.079515e-02 -5.069481e+01 -6.483202e+01 -1.183909e+02 -6.936950e+01 -9.934463e+01 3.262576e-02 -5.123327e+01
1610000000 -8.586317e-03 -5.104310e+01 -6.584081e+01 -1.267946e+02 -6.529466e+01 -1.252905e+02 2.694689e-02 -5.157312e+01
1620000000 -1.263356e-02 -5.144183e+01 -6.497030e+01 -1.495192e+02 -6.338290e+01 -1.411239e+02 2.892410e-02 -5.188894e+01
1630000000 -1.050674e-02 -5.152351e+01 -6.361460e+01 -1.293443e+02 -6.378117e+01 -1.622881e+02 3.192178e-02 -5.221875e+01
1640000000 -1.082588e-02 -5.183364e+01 -6.795010e+01 -1.414152e+02 -6.469703e+01 -1.408049e+02 3.217267e-02 -5.252667e+01
1650000000 -9.630241e-03 -5.235198e+01 -6.537104e+01 -1.581933e+02 -6.278656e+01 -1.520417e+02 3.277672e-02 -5.285043e+01
1660000000 -8.338194e-03 -5.232262e+01 -6.536028e+01 -1.511970e+02 -6.517116e+01 -1.565292e+02 2.598033e-02 -5.321057e+01
1670000000 -1.091676e-02 -5.278226e+01 -6.535439e+01 -1.418369e+02 -6.563495e+01 -1.604122e+02 2.712004e-02 -5.350503e+01
1680000000 -7.990836e-03 -5.312808e+01 -6.738888e+01 -1.526340e+02 -6.578931e+01 -1.626274e+02 3.218046e-02 -5.383958e+01
1690000000 -1.003381e-02 -5.335159e+01 -6.881980e+01 -1.470473e+02 -6.726154e+01 -1.470493e+02 3.162704e-02 -5.413107e+01
1700000000 -6.511414e-03 -5.384457e+01 -7.052883e+01 -1.394481e+02 -6.654103e+01 -1.572030e+02 3.015091e-02 -5.445477e+01
1710000000 -5.151947e-03 -5.359473e+01 -6.566504e+01 -1.488029e+02 -6.600922e+01 -1.320803e+02 3.183543e-02 -5.475694e+01
1720000000 -1.230724e-02 -5.428576e+01 -6.753910e+01 -1.396015e+02 -6.657944e+01 -1.410909e+02 3.184723e-02 -5.508775e+01
1730000000 -1.538020e-02 -5.462902e+01 -6.661609e+01 -1.309048e+02 -6.383147e+01 -1.629003e+02 2.515339e-02 -5.542706e+01
1740000000 -1.180875e-02 -5.510072e+01 -6.562885e+01 -1.368936e+02 -6.635375e+01 -1.434143e+02 2.607635e-02 -5.577697e+01
1750000000 -1.191142e-02 -5.555441e+01 -6.855476e+01 -1.422915e+02 -6.395739e+01 -1.533714e+02 2.664413e-02 -5.611670e+01
1760000000 -8.358954e-03 -5.575199e+01 -6.423905e+01 -1.373007e+02 -6.716815e+01 -1.504161e+02 3.185112e-02 -5.642545e+01
1770000000 -1.000354e-02 -5.624397e+01 -6.525837e+01 -1.404900e+02 -6.631603e+01 -1.411816e+02 2.733034e-02 -5.674791e+01
1780000000 -1.208529e-02 -5.651543e+01 -6.646233e+01 -1.479934e+02 -6.622588e+01 -1.441369e+02 3.179997e-02 -5.707354e+01
1790000000 -1.219291e-02 -5.687128e+01 -6.525832e+01 -1.459849e+02 -6.538456e+01 -1.544753e+02 3.203136e-02 -5.739301e+01
1800000000 -1.066922e-02 -5.712676e+01 -6.405541e+01 -1.347570e+02 -6.464648e+01 -1.411231e+02 2.765262e-02 -5.775346e+01
1810000000 -1.910540e-02 -5.754644e+01 -6.408218e+01 -1.478054e+02 -6.556698e+01 -1.455919e+02 3.079290e-02 -5.809809e+01
1820000000 -1.689131e-02 -5.797460e+01 -6.371057e+01 -1.369387e+02 -6.235992e+01 -1.439481e+02 2.839067e-02 -5.839530e+01
1830000000 -1.333180e-02 -5.826371e+01 -6.480018e+01 -1.507180e+02 -6.594767e+01 -1.518768e+02 2.713067e-02 -5.870253e+01
1840000000 -1.412867e-02 -5.867411e+01 -6.743079e+01 -1.476762e+02 -6.309679e+01 -1.433853e+02 3.167016e-02 -5.903458e+01
1850000000 -1.450006e-02 -5.885274e+01 -6.573940e+01 -1.423841e+02 -6.436984e+01 -1.481370e+02 2.827980e-02 -5.936107e+01
1860000000 -1.703310e-02 -5.926150e+01 -6.523524e+01 -1.467593e+02 -6.428384e+01 -1.351101e+02 2.669449e-02 -5.972211e+01
1870000000 -2.090377e-02 -5.965892e+01 -6.339529e+01 -1.549064e+02 -6.285678e+01 -1.407168e+02 3.257713e-02 -6.008718e+01
1880000000 -1.764381e-02 -6.020206e+01 -6.630856e+01 -1.471453e+02 -6.641280e+01 -1.488773e+02 2.924617e-02 -6.040009e+01
1890000000 -1.722256e-02 -6.052672e+01 -6.546859e+01 -1.329254e+02 -6.627406e+01 -1.578620e+02 3.076245e-02 -6.075676e+01
1900000000 -1.710488e-02 -6.062714e+01 -6.548158e+01 -1.283310e+02 -6.370257e+01 -1.468320e+02 3.273471e-02 -6.109129e+01
1910000000 -2.123188e-02 -6.129433e+01 -6.268173e+01 -1.491183e+02 -6.196978e+01 -1.392715e+02 3.139527e-02 -6.140135e+01
1920000000 -1.849521e-02 -6.168657e+01 -6.378489e+01 -1.475716e+02 -6.779884e+01 -1.349076e+02 3.268239e-02 -6.176654e+01
1930000000 -2.444883e-02 -6.195829e+01 -6.434316e+01 -1.460136e+02 -6.406068e+01 -1.391558e+02 3.237648e-02 -6.211474e+01
1940000000 -2.220647e-02 -6.223003e+01 -6.334521e+01 -1.551864e+02 -6.469419e+01 -1.433330e+02 2.836253e-02 -6.245565e+01
1950000000 -2.697266e-02 -6.272912e+01 -6.456200e+01 -1.321576e+02 -6.509743e+01 -1.472472e+02 3.023402e-02 -6.279852e+01
1960000000 -2.111631e-02 -6.306047e+01 -6.380943e+01 -1.390877e+02 -6.369961e+01 -1.457727e+02 3.309316e-02 -6.317140e+01
1970000000 -2.685727e-02 -6.340660e+01 -6.337589e+01 -1.432623e+02 -6.460197e+01 -1.545809e+02 3.363747e-02 -6.348751e+01
1980000000 -3.080292e-02 -6.372043e+01 -6.301613e+01 -1.466713e+02 -6.415720e+01 -1.491844e+02 3.279231e-02 -6.382998e+01
1990000000 -2.521954e-02 -6.393302e+01 -6.359573e+01 -1.558512e+02 -6.174877e+01 -1.534821e+02 2.490715e-02 -6.421214e+01
2000000000 -2.222202e-02 -6.407223e+01 -6.529424e+01 -1.565149e+02 -6.365754e+01 -1.590829e+02 2.236375e-02 -6.452900e+01
2010000000 -2.952065e-02 -6.456929e+01 -6.834629e+01 -1.290499e+02 -6.411372e+01 -1.363269e+02 2.253297e-02 -6.537688e+01
2020000000 -4.414862e-02 -6.584716e+01 -6.464192e+01 -1.574187e+02 -6.669823e+01 -1.301577e+02 2.923013e-02 -6.562423e+01
2030000000 -4.066727e-02 -6.610049e+01 -6.216045e+01 -1.481733e+02 -6.707264e+01 -1.427763e+02 2.410883e-02 -6.604435e+01
2040000000 -3.821518e-02 -6.641363e+01 -6.610483e+01 -1.645029e+02 -6.400619e+01 -1.548525e+02 2.419852e-02 -6.659342e+01
2050000000 -4.190402e-02 -6.680100e+01 -6.619852e+01 -1.498435e+02 -6.867636e+01 -1.300891e+02 2.298836e-02 -6.668467e+01
2060000000 -4.006819e-02 -6.657922e+01 -6.629366e+01 -1.649439e+02 -6.708755e+01 -1.302817e+02 2.305187e-02 -6.716151e+01
2070000000 -4.217678e-02 -6.736388e+01 -6.824126e+01 -1.331009e+02 -6.772310e+01 -1.345879e+02 1.607349e-02 -6.758623e+01
2080000000 -4.546552e-02 -6.796130e+01 -6.720030e+01 -1.031730e+02 -6.632661e+01 -1.169248e+02 1.611450e-02 -6.786851e+01
2090000000 -4.147943e-02 -6.786513e+01 -6.482496e+01 -1.056195e+02 -6.523945e+01 -1.061795e+02 1.915636e-02 -6.839385e+01
2100000000 -3.815236e-02 -6.811583e+01 -6.214200e+01 -1.124066e+02 -6.213297e+01 -1.132822e+02 1.838139e-02 -6.886388e+01
2110000000 -4.553554e-02 -6.868308e+01 -6.159546e+01 -1.238624e+02 -6.099136e+01 -1.095487e+02 1.467685e-02 -6.900401e+01
2120000000 -5.073855e-02 -6.878585e+01 -6.024236e+01 -1.157643e+02 -5.956257e+01 -1.218648e+02 2.006618e-02 -6.947633e+01
2130000000 -4.710460e-02 -6.946722e+01 -6.038575e+01 -1.195253e+02 -6.040709e+01 -1.223124e+02 1.352975e-02 -6.984824e+01
2140000000 -5.196081e-02 -6.990621e+01 -6.001994e+01 -1.251494e+02 -5.907534e+01 -1.291372e+02 1.537005e-02 -6.980156e+01
2150000000 -4.648877e-02 -6.977023e+01 -5.971877e+01 -1.418267e+02 -6.067242e+01 -1.305801e+02 1.361894e-02 -7.059070e+01
2160000000 -5.192353e-02 -7.049292e+01 -5.919078e+01 -1.408573e+02 -6.034113e+01 -1.437812e+02 1.263547e-02 -7.095052e+01
2170000000 -5.671814e-02 -7.114362e+01 -6.050946e+01 -1.470138e+02 -6.099890e+01 -1.378678e+02 1.188914e-02 -7.070487e+01
2180000000 -4.331084e-02 -7.046725e+01 -6.124303e+01 -1.422265e+02 -5.974705e+01 -1.416577e+02 1.799393e-02 -7.161460e+01
2190000000 -5.357341e-02 -7.131057e+01 -6.103559e+01 -1.509025e+02 -5.916883e+01 -1.476597e+02 1.142466e-02 -7.191354e+01
2200000000 -5.192834e-02 -7.176713e+01 -5.976488e+01 -1.503443e+02 -6.160890e+01 -1.504114e+02 7.153091e-03 -7.306996e+01
2210000000 -5.513749e-02 -7.202992e+01 -6.171130e+01 -1.464802e+02 -6.113944e+01 -1.454417e+02 9.486929e-03 -7.306751e+01
2220000000 -5.996782e-02 -7.274810e+01 -6.149440e+01 -1.589046e+02 -6.246816e+01 -1.499510e+02 7.989689e-03 -7.302734e+01
2230000000 -5.453496e-02 -7.268997e+01 -6.157146e+01 -1.567432e+02 -6.514474e+01 -1.589364e+02 1.307276e-02 -7.313332e+01
2240000000 -5.211896e-02 -7.275944e+01 -6.390221e+01 -1.495460e+02 -6.206849e+01 -1.511415e+02 9.552890e-03 -7.412701e+01
2250000000 -6.019748e-02 -7.348014e+01 -6.187050e+01 -1.487769e+02 -6.430730e+01 -1.437866e+02 8.356092e-03 -7.398021e+01
2260000000 -6.338862e-02 -7.378925e+01 -6.346856e+01 -1.457677e+02 -6.423818e+01 -1.624856e+02 4.582977e-03 -7.454458e+01
2270000000 -6.037631e-02 -7.410838e+01 -6.411885e+01 -1.484576e+02 -6.397746e+01 -1.549255e+02 3.446478e-03 -7.524610e+01
2280000000 -7.045503e-02 -7.478202e+01 -6.357750e+01 -1.328976e+02 -6.505284e+01 -1.499651e+02 2.283232e-03 -7.523893e+01
2290000000 -6.293815e-02 -7.484373e+01 -6.602149e+01 -1.323505e+02 -6.601812e+01 -1.444355e+02 6.315754e-04 -7.572548e+01
2300000000 -6.990150e-02 -7.528545e+01 -6.658164e+01 -1.328156e+02 -6.410671e+01 -1.395379e+02 -3.167338e-03 -7.642822e+01
2310000000 -7.576222e-02 -7.616826e+01 -7.058990e+01 -1.513526e+02 -6.624649e+01 -1.229729e+02 1.891699e-03 -7.632671e+01
2320000000 -7.107876e-02 -7.602623e+01 -6.974973e+01 -1.496011e+02 -6.341067e+01 -1.364319e+02 -4.908206e-03 -7.684273e+01
2330000000 -6.607322e-02 -7.661477e+01 -6.684246e+01 -1.555918e+02 -6.580779e+01 -1.529613e+02 -7.562450e-03 -7.744977e+01
2340000000 -7.358793e-02 -7.716717e+01 -6.743882e+01 -1.466248e+02 -7.034327e+01 -1.216271e+02 -5.124011e-03 -7.744527e+01
2350000000 -6.970929e-02 -7.720145e+01 -7.041993e+01 -1.085551e+02 -6.989016e+01 -1.112216e+02 -5.060241e-03 -7.806850e+01
2360000000 -7.542273e-02 -7.759951e+01 -7.072290e+01 -1.225229e+02 -6.945127e+01 -1.087705e+02 -9.807160e-03 -7.854066e+01
2370000000 -8.300498e-02 -7.830130e+01 -6.982717e+01 -1.034739e+02 -7.225062e+01 -1.345367e+02 -7.316569e-03 -7.843194e+01
2380000000 -7.539172e-02 -7.812297e+01 -6.966124e+01 -8.223299e+01 -7.067209e+01 -1.050226e+02 -2.099831e-02 -7.950678e+01
2390000000 -8.037847e-02 -7.871528e+01 -6.710320e+01 -9.549275e+01 -7.100240e+01 -7.678553e+01 -1.514787e-02 -7.974067e+01
2400000000 -8.569875e-02 -7.893484e+01 -7.329795e+01 -1.289341e+02 -7.370184e+01 -1.341433e+02 -1.434190e-02 -7.973876e+01
2410000000 -8.299860e-02 -7.932722e+01 -7.437876e+01 -2.265350e+01 -7.016459e+01 -5.331066e+01 -2.381603e-02 -8.057865e+01
2420000000 -8.783452e-02 -7.995174e+01 -7.141812e+01 -4.641334e+01 -7.052912e+01 -2.772736e+01 -1.375912e-02 -8.100127e+01
2430000000 -8.705433e-02 -8.014799e+01 -6.738061e+01 -3.793587e+01 -6.635360e+01 -3.849341e-01 -1.754301e-02 -8.107567e+01
2440000000 -8.992037e-02 -8.025191e+01 -6.670721e+01 -2.255686e+01 -6.344171e+01 -7.756890e+00 -2.022911e-02 -8.214039e+01
2450000000 -9.544727e-02 -8.126978e+01 -6.495826e+01 -1.685366e+01 -6.208072e+01 -1.468515e+01 -2.579406e-02 -8.237400e+01
2460000000 -9.787924e-02 -8.140604e+01 -6.208360e+01 -2.229558e+01 -6.119598e+01 -2.485513e+01 -2.394372e-02 -8.243032e+01
2470000000 -9.962942e-02 -8.129805e+01 -6.152063e+01 -1.512731e+01 -6.157197e+01 -1.559004e+01 -2.728147e-02 -8.341712e+01
2480000000 -8.109803e-02 -8.004388e+01 -5.930239e+01 -1.432391e+01 -6.028912e+01 -1.398682e+01 -2.868561e-02 -8.358568e+01
2490000000 -1.054716e-01 -8.291301e+01 -5.772620e+01 -2.515437e+01 -5.816861e+01 -1.610653e+01 -3.078650e-02 -8.372272e+01
2500000000 -1.055649e-01 -8.279534e+01 -5.778168e+01 -1.715458e+01 -5.727971e+01 -1.421367e+01 -3.442806e-02 -8.476855e+01
2510000000 -1.227161e-01 -8.393076e+01 -5.686930e+01 -1.458147e+01 -5.653040e+01 -2.450329e+01 -3.587385e-02 -8.491156e+01
2520000000 -1.186213e-01 -8.366177e+01 -5.531153e+01 -2.014623e+01 -5.633471e+01 -2.400922e+01 -2.884089e-02 -8.489395e+01
2530000000 -1.089197e-01 -8.375640e+01 -5.571040e+01 -1.796991e+01 -5.579923e+01 -8.691264e+00 -3.508282e-02 -8.582807e+01
2540000000 -1.264970e-01 -8.502068e+01 -5.402907e+01 -1.959489e+01 -5.457747e+01 -2.054851e+01 -2.896172e-02 -8.595366e+01
2550000000 -1.210616e-01 -8.499253e+01 -5.422529e+01 -2.580511e+01 -5.380009e+01 -2.342514e+01 -3.092756e-02 -8.634557e+01
2560000000 -1.220273e-01 -8.549998e+01 -5.399459e+01 -2.006850e+01 -5.308988e+01 -2.634863e+01 -3.221238e-02 -8.685752e+01
2570000000 -1.200382e-01 -8.594388e+01 -5.278794e+01 -2.518170e+01 -5.321278e+01 -2.753364e+01 -4.010626e-02 -8.717052e+01
2580000000 -1.269595e-01 -8.635909e+01 -5.305444e+01 -2.785083e+01 -5.272211e+01 -2.327426e+01 -3.356625e-02 -8.771040e+01
2590000000 -1.237371e-01 -8.677641e+01 -5.287131e+01 -2.080137e+01 -5.263530e+01 -2.368248e+01 -3.986695e-02 -8.823309e+01
2600000000 -1.232822e-01 -8.722844e+01 -5.169946e+01 -2.009047e+01 -5.177128e+01 -1.959634e+01 -4.014636e-02 -8.865234e+01
2610000000 -1.300365e-01 -8.767090e+01 -5.117193e+01 -1.405888e+01 -5.142047e+01 -1.968214e+01 -4.599160e-02 -8.919192e+01
