!Agilent Technologies,N5227A,US51270477,A.10.00.00

!File generated by LCAF-GAM-UPV software
!josevmart@iteam.upv.es
!S2P File: Measurements: S11, S21, S12, S22:
# Hz S  dB   R 50
1000000000 5.725333e-03 -2.908928e+01 -8.005472e+01 -1.592797e+02 -7.817013e+01 -2.696838e+01 2.004792e-02 -2.934893e+01
1010000000 1.102451e-02 -2.941864e+01 -7.651093e+01 3.270904e+00 -8.116250e+01 -8.671780e+01 2.610759e-02 -2.963501e+01
1020000000 5.149937e-03 -2.967468e+01 -8.290578e+01 -1.695111e+02 -8.157153e+01 -1.521279e+02 2.027744e-02 -2.990139e+01
1030000000 1.112051e-02 -3.004219e+01 -8.138416e+01 -1.647481e+02 -7.699429e+01 -1.060435e+02 1.740325e-02 -3.021198e+01
1040000000 7.538087e-03 -3.030783e+01 -7.779580e+01 1.586719e+02 -7.869386e+01 -1.770020e+02 2.230810e-02 -3.053064e+01
1050000000 5.174961e-03 -3.051952e+01 -8.073457e+01 9.165693e+01 -7.532053e+01 1.796286e+02 2.465177e-02 -3.082937e+01
1060000000 6.034476e-03 -3.091332e+01 -8.002983e+01 -1.039274e+02 -8.115013e+01 -1.760584e+02 1.844428e-02 -3.113418e+01
1070000000 6.125233e-03 -3.117476e+01 -7.610619e+01 1.699561e+00 -7.657209e+01 1.773167e+02 1.957910e-02 -3.142803e+01
1080000000 5.383677e-03 -3.141474e+01 -7.536652e+01 -1.554383e+02 -9.380740e+01 -8.581093e+01 1.854735e-02 -3.170288e+01
1090000000 6.824506e-03 -3.175130e+01 -7.418822e+01 3.223844e+01 -8.676343e+01 -9.591426e+01 2.575291e-02 -3.200654e+01
1100000000 2.459370e-03 -3.201364e+01 -7.956226e+01 -1.523332e+02 -8.123347e+01 -1.655748e+02 2.808104e-02 -3.226438e+01
1110000000 7.512040e-03 -3.234380e+01 -7.452824e+01 1.384491e+02 -7.821655e+01 -1.379334e+02 2.537053e-02 -3.256707e+01
1120000000 5.899888e-03 -3.269100e+01 -8.147054e+01 -2.610881e+01 -7.586580e+01 -6.672522e+01 1.967530e-02 -3.313730e+01
1130000000 1.026795e-03 -3.296607e+01 -7.621011e+01 -8.783102e+01 -8.412734e+01 -2.039869e+01 2.306558e-02 -3.334132e+01
1140000000 2.510380e-03 -3.328154e+01 -8.282255e+01 -3.374479e+00 -8.697746e+01 1.045827e+02 2.524747e-02 -3.359348e+01
1150000000 1.015139e-02 -3.357359e+01 -8.111939e+01 -1.506639e+01 -7.207124e+01 -1.034208e+02 2.653898e-02 -3.393590e+01
1160000000 9.008469e-03 -3.388340e+01 -7.222012e+01 -9.709995e+01 -8.149083e+01 -8.367124e+01 2.948313e-02 -3.425013e+01
1170000000 5.329417e-03 -3.418493e+01 -8.240530e+01 -1.786722e+02 -7.903687e+01 -8.974091e+01 2.815804e-02 -3.451596e+01
1180000000 5.232809e-03 -3.465404e+01 -7.998442e+01 -1.591565e+02 -7.744743e+01 -5.853228e+01 2.824006e-02 -3.472983e+01
1190000000 1.582424e-03 -3.504081e+01 -7.303916e+01 -1.199532e+02 -7.602503e+01 -1.770584e+02 2.274129e-02 -3.504277e+01
1200000000 6.698680e-03 -3.539787e+01 -7.481207e+01 -9.901762e+01 -7.808416e+01 -1.740674e+02 2.900123e-02 -3.537687e+01
1210000000 8.461622e-03 -3.555318e+01 -7.431969e+01 -9.156469e+01 -7.251773e+01 -1.181707e+02 3.022405e-02 -3.573887e+01
1220000000 1.118785e-02 -3.582838e+01 -7.861087e+01 -1.712201e+02 -8.140449e+01 -1.714721e+02 3.481616e-02 -3.592400e+01
1230000000 4.628445e-03 -3.630066e+01 -7.333401e+01 -1.277291e+02 -7.265309e+01 -1.499173e+02 2.828627e-02 -3.616946e+01
1240000000 4.882062e-03 -3.655871e+01 -7.294299e+01 1.326016e+02 -7.152075e+01 1.690636e+02 2.948000e-02 -3.650618e+01
1250000000 6.720585e-03 -3.677111e+01 -7.481302e+01 -1.454921e+02 -7.325941e+01 -1.251283e+02 3.286646e-02 -3.681402e+01
1260000000 4.378572e-03 -3.715973e+01 -7.412159e+01 -1.758763e+02 -7.835052e+01 1.338607e+02 2.139229e-02 -3.704944e+01
1270000000 4.737722e-03 -3.748903e+01 -9.035938e+01 -2.568560e+01 -7.646346e+01 -1.430656e+02 2.686020e-02 -3.738506e+01
1280000000 4.449337e-03 -3.778833e+01 -7.770056e+01 -1.194867e+02 -7.329891e+01 -1.608754e+02 2.439110e-02 -3.764281e+01
1290000000 7.114571e-03 -3.803669e+01 -7.661279e+01 -1.013981e+02 -7.629684e+01 -5.792666e+01 3.090031e-02 -3.802753e+01
1300000000 8.581603e-03 -3.828681e+01 -8.371027e+01 -1.711118e+02 -7.684950e+01 -1.606098e+02 3.426833e-02 -3.834064e+01
1310000000 -5.056660e-03 -3.916170e+01 -7.977676e+01 -1.121870e+02 -8.235234e+01 -1.210997e+02 3.073607e-02 -3.781810e+01
1320000000 7.275551e-03 -3.907469e+01 -7.535721e+01 -1.332628e+02 -7.311307e+01 -1.388389e+02 3.203341e-02 -3.885865e+01
1330000000 5.655128e-03 -3.929992e+01 -7.396711e+01 -1.519443e+02 -7.424496e+01 -9.927441e+01 2.816519e-02 -3.917307e+01
1340000000 7.988691e-03 -3.940906e+01 -7.078925e+01 -1.366772e+02 -7.943093e+01 1.194700e+02 3.132593e-02 -3.954043e+01
1350000000 4.770885e-03 -3.988456e+01 -8.376825e+01 -1.698343e+02 -7.783595e+01 -1.663582e+02 2.990878e-02 -3.983074e+01
1360000000 9.974338e-03 -4.020262e+01 -8.238306e+01 -1.195324e+02 -8.418189e+01 -5.016874e+01 3.557269e-02 -4.008843e+01
1370000000 8.385524e-03 -4.031601e+01 -7.790194e+01 -1.594040e+02 -7.946587e+01 -1.607930e+02 3.047765e-02 -4.040825e+01
1380000000 9.134740e-03 -4.067883e+01 -8.327272e+01 -1.359403e+02 -7.645522e+01 -1.555659e+02 3.780205e-02 -4.073555e+01
1390000000 7.460792e-03 -4.095143e+01 -7.786442e+01 -1.775425e+02 -7.628915e+01 -1.063578e+02 3.613399e-02 -4.095118e+01
1400000000 1.090596e-02 -4.109472e+01 -6.954910e+01 -1.298610e+02 -7.719032e+01 1.592370e+02 3.908827e-02 -4.135751e+01
1410000000 9.730479e-03 -4.155408e+01 -8.723911e+01 -9.246140e+01 -7.208944e+01 -1.337326e+02 3.477756e-02 -4.161200e+01
1420000000 1.151668e-02 -4.164251e+01 -7.314874e+01 -1.625173e+02 -7.575850e+01 -9.746589e+01 3.690809e-02 -4.190213e+01
1430000000 8.866332e-03 -4.203022e+01 -7.628035e+01 -1.226447e+02 -7.489406e+01 -1.186859e+02 3.693504e-02 -4.229337e+01
1440000000 1.162808e-02 -4.229343e+01 -8.320573e+01 -1.543046e+02 -7.581181e+01 -1.314753e+02 3.665981e-02 -4.267410e+01
1450000000 8.777188e-03 -4.262774e+01 -7.845727e+01 -1.623056e+02 -9.250918e+01 -5.375243e+01 3.418235e-02 -4.272041e+01
1460000000 6.137707e-03 -4.286836e+01 -7.767928e+01 -1.609547e+02 -6.998352e+01 -1.386028e+02 3.269225e-02 -4.335287e+01
1470000000 9.659814e-03 -4.307162e+01 -7.117025e+01 -1.399635e+02 -7.193381e+01 -1.226654e+02 3.762105e-02 -4.350811e+01
1480000000 1.344882e-02 -4.358270e+01 -7.567236e+01 -1.464829e+02 -7.248553e+01 -1.307588e+02 4.336940e-02 -4.392315e+01
1490000000 1.219278e-02 -4.364675e+01 -7.524783e+01 -1.271603e+02 -7.440514e+01 -1.548223e+02 3.696506e-02 -4.416668e+01
1500000000 1.483841e-02 -4.391174e+01 -7.378788e+01 -1.616533e+02 -7.491708e+01 -1.247661e+02 3.747468e-02 -4.448430e+01
1510000000 1.219661e-02 -4.424728e+01 -7.422543e+01 -1.049098e+02 -7.012263e+01 -1.353501e+02 3.371038e-02 -4.479915e+01
1520000000 1.358679e-02 -4.449929e+01 -7.085364e+01 -1.390244e+02 -6.883488e+01 -1.642896e+02 3.622463e-02 -4.518035e+01
1530000000 1.088135e-02 -4.463435e+01 -7.791855e+01 -1.204472e+02 -7.422659e+01 -1.276330e+02 3.382492e-02 -4.537474e+01
1540000000 1.125996e-02 -4.503831e+01 -7.507982e+01 -9.774107e+01 -7.542403e+01 -1.321554e+02 3.836213e-02 -4.572578e+01
1550000000 1.498898e-02 -4.533406e+01 -7.348051e+01 -1.082830e+02 -7.187939e+01 -1.257186e+02 3.742361e-02 -4.606224e+01
1560000000 1.766729e-02 -4.525791e+01 -7.374458e+01 -8.276417e+01 -7.331001e+01 -1.675288e+02 3.942530e-02 -4.633620e+01
1570000000 1.547317e-02 -4.588696e+01 -7.095330e+01 -1.351977e+02 -7.704891e+01 -1.541954e+02 3.672755e-02 -4.661105e+01
1580000000 6.054297e-03 -4.627628e+01 -7.140376e+01 -1.328015e+02 -7.147488e+01 -1.070528e+02 3.768950e-02 -4.695422e+01
1590000000 6.212723e-03 -4.643054e+01 -6.982361e+01 -1.263190e+02 -8.561717e+01 -1.288586e+02 3.884112e-02 -4.723026e+01
1600000000 7.715044e-03 -4.676434e+01 -7.055110e+01 -1.257508e+02 -6.999902e+01 -1.228237e+02 4.556641e-02 -4.746430e+01
1610000000 1.205548e-02 -4.693772e+01 -7.103743e+01 -1.034124e+02 -7.135325e+01 -1.076186e+02 3.763540e-02 -4.778425e+01
1620000000 6.869746e-03 -4.741090e+01 -7.135765e+01 -1.298145e+02 -6.999066e+01 -1.188343e+02 3.990454e-02 -4.801955e+01
1630000000 5.975883e-03 -4.774991e+01 -6.873165e+01 -1.424557e+02 -6.550687e+01 -1.186232e+02 4.243275e-02 -4.849676e+01
1640000000 4.363776e-03 -4.802305e+01 -6.971540e+01 -1.456345e+02 -6.586800e+01 -1.478034e+02 4.543598e-02 -4.861062e+01
1650000000 1.255875e-02 -4.831380e+01 -6.692333e+01 -1.480758e+02 -6.714111e+01 -1.441247e+02 4.675321e-02 -4.898061e+01
1660000000 1.030795e-02 -4.858448e+01 -7.216233e+01 -1.624316e+02 -7.085434e+01 -1.606871e+02 3.848060e-02 -4.926767e+01
1670000000 1.150437e-02 -4.888557e+01 -7.099432e+01 -1.633197e+02 -6.877343e+01 -1.528419e+02 4.015718e-02 -4.991021e+01
1680000000 1.664710e-02 -4.918150e+01 -7.036067e+01 -1.698890e+02 -7.263181e+01 -1.482560e+02 4.049005e-02 -5.030907e+01
1690000000 9.032653e-03 -4.948104e+01 -7.184382e+01 -1.424024e+02 -7.091382e+01 -1.605670e+02 4.757705e-02 -5.045681e+01
1700000000 1.306664e-02 -4.975294e+01 -7.039574e+01 -1.327951e+02 -6.984843e+01 -1.555226e+02 4.497728e-02 -5.068022e+01
1710000000 1.039825e-02 -5.003696e+01 -6.968636e+01 -1.461811e+02 -6.939206e+01 -1.434864e+02 4.679618e-02 -5.095625e+01
1720000000 7.800859e-03 -5.035831e+01 -7.409087e+01 -1.232289e+02 -7.244244e+01 -1.223928e+02 4.694832e-02 -5.141067e+01
1730000000 1.152897e-02 -5.066429e+01 -7.376762e+01 -1.473993e+02 -6.837428e+01 -1.309370e+02 3.708430e-02 -5.173013e+01
1740000000 5.461330e-03 -5.094107e+01 -7.442957e+01 -1.310562e+02 -7.000826e+01 -1.494534e+02 4.235351e-02 -5.188807e+01
1750000000 1.228018e-02 -5.122852e+01 -7.416577e+01 -1.508745e+02 -7.324937e+01 -1.100532e+02 4.254765e-02 -5.220540e+01
1760000000 1.261806e-02 -5.151440e+01 -6.872563e+01 -1.657732e+02 -6.868690e+01 -1.224423e+02 4.892058e-02 -5.252251e+01
1770000000 1.364869e-02 -5.180004e+01 -6.857433e+01 -1.458874e+02 -6.981519e+01 -1.336581e+02 4.255515e-02 -5.279334e+01
1780000000 1.579264e-02 -5.209689e+01 -7.090554e+01 -1.334591e+02 -6.583791e+01 -1.380346e+02 4.797954e-02 -5.305309e+01
1790000000 1.217135e-02 -5.240633e+01 -6.949525e+01 -1.577611e+02 -6.722752e+01 -1.164893e+02 5.064238e-02 -5.341765e+01
1800000000 1.391306e-02 -5.268825e+01 -6.648847e+01 -1.452452e+02 -7.025737e+01 -1.145406e+02 4.465469e-02 -5.362450e+01
1810000000 1.087362e-02 -5.296250e+01 -6.926238e+01 -1.224935e+02 -6.640094e+01 -1.417580e+02 4.568323e-02 -5.416859e+01
1820000000 1.038487e-02 -5.326574e+01 -7.099776e+01 -1.586600e+02 -6.801553e+01 -1.677642e+02 4.356239e-02 -5.439623e+01
1830000000 1.434972e-02 -5.356733e+01 -6.874441e+01 -1.422071e+02 -6.977321e+01 -1.616757e+02 4.498779e-02 -5.444487e+01
1840000000 1.694285e-02 -5.383281e+01 -6.733438e+01 -1.435492e+02 -6.860365e+01 -1.502088e+02 4.911694e-02 -5.478576e+01
1850000000 1.328410e-02 -5.414756e+01 -6.628639e+01 -1.460210e+02 -7.195082e+01 -1.348716e+02 4.374578e-02 -5.524108e+01
1860000000 1.258651e-02 -5.443932e+01 -7.500657e+01 -1.339223e+02 -6.702617e+01 -1.544006e+02 4.547792e-02 -5.565194e+01
1870000000 8.568763e-03 -5.473981e+01 -6.909035e+01 -1.442506e+02 -6.862907e+01 -1.443005e+02 5.031860e-02 -5.566602e+01
1880000000 1.305266e-02 -5.504345e+01 -6.703156e+01 -1.292562e+02 -6.777307e+01 -1.427059e+02 4.934215e-02 -5.619910e+01
1890000000 1.661001e-02 -5.533948e+01 -7.151343e+01 -1.545335e+02 -6.734160e+01 -1.154693e+02 4.847285e-02 -5.643742e+01
1900000000 1.481328e-02 -5.562611e+01 -6.809956e+01 -1.363243e+02 -6.843454e+01 -1.449949e+02 5.450224e-02 -5.685482e+01
1910000000 1.332410e-02 -5.589473e+01 -6.637198e+01 -1.469301e+02 -6.844150e+01 -1.446080e+02 5.150736e-02 -5.716296e+01
1920000000 1.232067e-02 -5.624070e+01 -6.937070e+01 -1.367295e+02 -6.667062e+01 -1.602515e+02 5.263242e-02 -5.742690e+01
1930000000 1.321924e-02 -5.652134e+01 -6.668970e+01 -1.455642e+02 -6.595107e+01 -1.371746e+02 5.250023e-02 -5.770987e+01
1940000000 1.550271e-02 -5.681392e+01 -6.867810e+01 -1.399987e+02 -6.801680e+01 -1.088269e+02 4.454400e-02 -5.804067e+01
1950000000 1.193259e-02 -5.711008e+01 -6.892561e+01 -1.416753e+02 -6.640579e+01 -1.529834e+02 5.056275e-02 -5.840342e+01
1960000000 1.726962e-02 -5.740978e+01 -6.681445e+01 -1.422153e+02 -6.705082e+01 -1.487821e+02 5.340338e-02 -5.849063e+01
1970000000 1.091318e-02 -5.771249e+01 -7.228461e+01 -1.320015e+02 -6.581220e+01 -1.495939e+02 5.186643e-02 -5.888354e+01
1980000000 6.634836e-03 -5.800988e+01 -6.792611e+01 -1.333110e+02 -6.928213e+01 -1.455295e+02 5.928344e-02 -5.905573e+01
1990000000 1.075875e-02 -5.831842e+01 -6.628598e+01 -1.369783e+02 -6.883571e+01 -1.520082e+02 4.708188e-02 -5.948623e+01
2000000000 1.634595e-02 -5.861880e+01 -6.787819e+01 -1.494370e+02 -6.896601e+01 -1.670045e+02 4.675086e-02 -5.956220e+01
2010000000 1.042915e-02 -5.891045e+01 -6.762038e+01 -1.541745e+02 -6.972237e+01 -1.460838e+02 5.418206e-02 -5.983119e+01
2020000000 7.241344e-03 -5.921935e+01 -6.696220e+01 -1.385781e+02 -6.655550e+01 -1.440118e+02 5.781319e-02 -6.049085e+01
2030000000 2.064610e-03 -5.954255e+01 -6.561942e+01 -1.273648e+02 -6.800513e+01 -1.114624e+02 4.945504e-02 -6.041832e+01
2040000000 1.206737e-02 -5.981771e+01 -6.726283e+01 -1.412529e+02 -6.912447e+01 -1.231588e+02 5.938571e-02 -6.081696e+01
2050000000 8.279488e-03 -6.012123e+01 -6.863908e+01 -1.574014e+02 -6.708897e+01 -1.400774e+02 4.936826e-02 -6.128544e+01
2060000000 6.974017e-03 -6.044839e+01 -6.856054e+01 -1.571031e+02 -7.113203e+01 -1.222272e+02 5.331337e-02 -6.130402e+01
2070000000 5.542835e-03 -6.104498e+01 -7.108381e+01 -1.239047e+02 -7.182936e+01 -1.062817e+02 4.834238e-02 -6.190586e+01
2080000000 3.616527e-03 -6.157293e+01 -7.039419e+01 -1.392007e+02 -6.882773e+01 -9.691556e+01 5.310525e-02 -6.221230e+01
2090000000 2.170227e-03 -6.173058e+01 -6.886224e+01 -9.708697e+01 -6.655151e+01 -1.004863e+02 5.410449e-02 -6.250086e+01
2100000000 4.779903e-03 -6.173164e+01 -6.601244e+01 -9.593837e+01 -6.504086e+01 -9.994893e+01 5.465575e-02 -6.280906e+01
2110000000 5.587521e-03 -6.240575e+01 -6.280247e+01 -1.130331e+02 -6.369269e+01 -1.050655e+02 4.976881e-02 -6.313210e+01
2120000000 -1.669671e-03 -6.267173e+01 -6.365215e+01 -1.156044e+02 -6.381739e+01 -1.024897e+02 5.484496e-02 -6.339816e+01
2130000000 6.106533e-03 -6.282220e+01 -6.215608e+01 -1.105210e+02 -6.070602e+01 -1.175865e+02 4.889925e-02 -6.372141e+01
2140000000 1.515705e-03 -6.338047e+01 -6.204842e+01 -1.306456e+02 -6.013777e+01 -1.268196e+02 5.156991e-02 -6.404622e+01
2150000000 3.801469e-03 -6.354511e+01 -6.191072e+01 -1.288960e+02 -6.136289e+01 -1.283631e+02 5.269843e-02 -6.432523e+01
2160000000 2.096588e-03 -6.377589e+01 -6.190325e+01 -1.330829e+02 -6.266404e+01 -1.398610e+02 5.687180e-02 -6.466113e+01
2170000000 1.076214e-04 -6.433544e+01 -6.181792e+01 -1.320175e+02 -6.302420e+01 -1.356469e+02 4.815668e-02 -6.498013e+01
2180000000 4.939132e-03 -6.454089e+01 -6.080297e+01 -1.383137e+02 -6.232874e+01 -1.426175e+02 5.738956e-02 -6.529302e+01
2190000000 2.056801e-03 -6.487185e+01 -6.315997e+01 -1.567197e+02 -6.154111e+01 -1.405605e+02 5.588757e-02 -6.561158e+01
2200000000 2.916496e-03 -6.523597e+01 -6.183400e+01 -1.465376e+02 -6.121692e+01 -1.546750e+02 5.113189e-02 -6.592280e+01
2210000000 4.877070e-03 -6.518623e+01 -6.196077e+01 -1.524636e+02 -6.184753e+01 -1.526588e+02 5.270376e-02 -6.621965e+01
2220000000 3.679378e-03 -6.565963e+01 -6.206423e+01 -1.529463e+02 -6.179459e+01 -1.470916e+02 5.041290e-02 -6.652474e+01
2230000000 1.834006e-03 -6.624355e+01 -6.147890e+01 -1.583595e+02 -6.241171e+01 -1.321941e+02 5.353893e-02 -6.684901e+01
2240000000 5.174014e-03 -6.625916e+01 -6.463614e+01 -1.415930e+02 -6.357959e+01 -1.447214e+02 5.070284e-02 -6.714780e+01
2250000000 1.712706e-03 -6.653239e+01 -6.441958e+01 -1.450155e+02 -6.309814e+01 -1.616217e+02 5.546157e-02 -6.743846e+01
2260000000 -3.034191e-03 -6.708409e+01 -6.316963e+01 -1.556848e+02 -6.214550e+01 -1.516297e+02 4.776584e-02 -6.777140e+01
2270000000 3.203877e-03 -6.719209e+01 -6.246565e+01 -1.439821e+02 -6.223497e+01 -1.477703e+02 4.855343e-02 -6.805921e+01
2280000000 -4.384121e-03 -6.761394e+01 -6.267696e+01 -1.614036e+02 -6.427814e+01 -1.437505e+02 4.924029e-02 -6.840114e+01
2290000000 8.516324e-05 -6.802306e+01 -6.260555e+01 -1.560804e+02 -6.264706e+01 -1.473568e+02 4.839044e-02 -6.874020e+01
2300000000 -1.012031e-02 -6.909055e+01 -6.409213e+01 -1.489873e+02 -6.487450e+01 -1.542181e+02 4.725759e-02 -6.904035e+01
2310000000 -7.812148e-03 -6.862357e+01 -6.090309e+01 -1.431696e+02 -6.423638e+01 -1.475875e+02 4.714566e-02 -6.935661e+01
2320000000 -3.316958e-03 -6.904763e+01 -6.203366e+01 -1.338514e+02 -6.310425e+01 -1.591150e+02 4.354730e-02 -6.970787e+01
2330000000 3.103093e-03 -6.899392e+01 -6.262720e+01 -1.543994e+02 -6.150467e+01 -1.538607e+02 4.800753e-02 -6.997445e+01
2340000000 4.263666e-04 -6.961562e+01 -6.292931e+01 -1.556900e+02 -6.515103e+01 -1.628398e+02 4.836324e-02 -7.029336e+01
2350000000 1.337227e-03 -6.973761e+01 -6.373112e+01 -1.553710e+02 -6.577036e+01 -1.419822e+02 4.492570e-02 -7.060646e+01
2360000000 -4.926408e-04 -6.994746e+01 -6.270979e+01 -1.493140e+02 -6.179845e+01 -1.604159e+02 4.524561e-02 -7.089276e+01
2370000000 -4.786592e-03 -7.070993e+01 -6.240355e+01 -1.630365e+02 -6.289376e+01 -1.521236e+02 4.463437e-02 -7.124416e+01
2380000000 -3.672173e-03 -7.092872e+01 -6.198301e+01 -1.580996e+02 -6.597588e+01 -1.594561e+02 3.741552e-02 -7.157748e+01
2390000000 -4.809930e-03 -7.106847e+01 -6.235347e+01 -1.520239e+02 -6.363941e+01 -1.626399e+02 4.470645e-02 -7.185914e+01
2400000000 -1.043610e-02 -7.162496e+01 -6.551707e+01 -1.472037e+02 -6.254361e+01 -1.532525e+02 4.471046e-02 -7.216259e+01
2410000000 -7.999384e-03 -7.177765e+01 -6.449744e+01 -1.620648e+02 -6.380521e+01 -1.537646e+02 3.597824e-02 -7.252050e+01
2420000000 -8.818249e-03 -7.194698e+01 -6.460717e+01 -1.436286e+02 -6.274471e+01 -1.488275e+02 4.554503e-02 -7.286810e+01
2430000000 -1.364733e-02 -7.264560e+01 -6.584428e+01 -1.525207e+02 -6.558337e+01 -1.490294e+02 4.336508e-02 -7.319025e+01
2440000000 -1.137583e-02 -7.272655e+01 -6.248534e+01 -1.780165e+02 -7.152838e+01 -1.340441e+02 4.404560e-02 -7.352027e+01
2450000000 -7.694016e-03 -7.295501e+01 -6.489407e+01 -1.415993e+02 -6.478336e+01 -1.438317e+02 4.225839e-02 -7.385842e+01
2460000000 -1.156575e-02 -7.362800e+01 -6.406239e+01 -1.638353e+02 -7.033856e+01 -1.666776e+02 4.559837e-02 -7.416137e+01
2470000000 -1.478459e-02 -7.349136e+01 -6.725134e+01 -1.570618e+02 -6.406987e+01 -1.540963e+02 4.603320e-02 -7.446637e+01
2480000000 -1.747500e-02 -7.400080e+01 -6.648851e+01 -1.385970e+02 -7.145068e+01 -1.715114e+02 4.303467e-02 -7.480586e+01
2490000000 -1.454126e-02 -7.465711e+01 -7.226468e+01 -1.317413e+02 -6.875645e+01 -1.093662e+02 4.182758e-02 -7.512718e+01
2500000000 -1.405844e-02 -7.460741e+01 -6.458488e+01 -1.324336e+02 -6.720953e+01 -1.201295e+02 4.701314e-02 -7.544511e+01
2510000000 -2.295018e-02 -7.521223e+01 -6.944747e+01 -1.224819e+02 -6.850523e+01 -1.186051e+02 4.483340e-02 -7.579152e+01
2520000000 -2.920587e-02 -7.579754e+01 -6.770513e+01 -1.186520e+02 -6.647907e+01 -1.587796e+02 4.566764e-02 -7.614373e+01
2530000000 -1.989529e-02 -7.555786e+01 -6.747158e+01 -1.370128e+02 -7.117424e+01 -9.531367e+01 5.087586e-02 -7.648444e+01
2540000000 -2.407118e-02 -7.625446e+01 -6.813738e+01 -1.012762e+02 -6.474316e+01 -1.292696e+02 5.072811e-02 -7.683490e+01
2550000000 -2.249314e-02 -7.667097e+01 -6.889944e+01 -9.809374e+01 -6.679617e+01 -1.131745e+02 5.516436e-02 -7.719233e+01
2560000000 -1.648833e-02 -7.654152e+01 -6.455135e+01 -1.131959e+02 -6.752648e+01 -8.820853e+01 4.973176e-02 -7.754996e+01
2570000000 -1.541537e-02 -7.726728e+01 -6.287996e+01 -1.006182e+02 -6.457187e+01 -1.383066e+02 4.717822e-02 -7.790730e+01
2580000000 -1.581793e-02 -7.757018e+01 -6.364327e+01 -1.100257e+02 -6.321099e+01 -1.104186e+02 5.198998e-02 -7.820014e+01
2590000000 -1.453228e-02 -7.754290e+01 -6.341162e+01 -1.121635e+02 -6.785036e+01 -1.184026e+02 5.282899e-02 -7.860320e+01
2600000000 -1.369819e-02 -7.844064e+01 -6.608395e+01 -1.291653e+02 -6.411046e+01 -1.122762e+02 5.505726e-02 -7.897986e+01
2610000000 -1.179833e-02 -7.859152e+01 -6.760149e+01 -1.287484e+02 -6.960659e+01 -1.346682e+02 4.932980e-02 -7.929623e+01
2620000000 -1.549427e-02 -7.848885e+01 -7.538079e+01 -1.606330e+02 -6.931969e+01 -1.017891e+02 4.955471e-02 -7.969526e+01
