!Agilent Technologies,N5227A,US51270477,A.10.00.00

!File generated by LCAF-GAM-UPV software
!josevmart@iteam.upv.es
!S2P File: Measurements: S11, S21, S12, S22:
# Hz S  dB   R 50
1000000000 -6.162370e-03 -3.237741e+01 -8.236203e+01 -1.469986e+01 -7.576675e+01 1.751096e+02 1.314701e-02 -3.312382e+01
1010000000 2.856867e-03 -3.265815e+01 -8.294826e+01 1.486424e+02 -7.611297e+01 -1.401579e+02 1.502376e-02 -3.346321e+01
1020000000 4.563673e-04 -3.299378e+01 -8.268011e+01 1.750277e+02 -7.694506e+01 -5.054706e+01 1.789858e-02 -3.366904e+01
1030000000 1.574826e-03 -3.333100e+01 -7.439767e+01 -1.108305e+02 -8.648944e+01 -9.380898e+01 1.248961e-02 -3.412252e+01
1040000000 -2.584355e-03 -3.365396e+01 -7.735846e+01 -1.700388e+02 -8.132985e+01 -1.481096e+02 1.685563e-02 -3.440734e+01
1050000000 -9.375250e-03 -3.400723e+01 -7.540183e+01 -1.188684e+02 -8.323775e+01 -1.440607e+02 1.216289e-02 -3.471183e+01
1060000000 -3.610836e-03 -3.428675e+01 -8.215677e+01 1.760826e+02 -7.694945e+01 -9.140987e+01 1.242325e-02 -3.497204e+01
1070000000 -2.634425e-03 -3.464810e+01 -8.829565e+01 -8.877190e+01 -7.322881e+01 -1.265792e+02 1.280019e-02 -3.522426e+01
1080000000 -4.812043e-03 -3.493415e+01 -7.743600e+01 -1.376842e+02 -7.888581e+01 -1.279159e+02 1.379180e-02 -3.575229e+01
1090000000 -3.808680e-03 -3.528143e+01 -7.810584e+01 -1.161551e+02 -8.132419e+01 -1.205389e+02 1.539085e-02 -3.599904e+01
1100000000 -9.168408e-03 -3.560516e+01 -7.299852e+01 -1.093710e+02 -8.622054e+01 -6.536832e+01 1.881686e-02 -3.606262e+01
1110000000 -3.421246e-03 -3.593281e+01 -8.048405e+01 1.341926e+02 -7.600285e+01 -1.547401e+02 1.555118e-02 -3.655505e+01
1120000000 -5.145968e-03 -3.625345e+01 -8.167250e+01 9.935413e+01 -9.028114e+01 -1.343964e+02 1.365724e-02 -3.694739e+01
1130000000 -8.394090e-03 -3.661905e+01 -7.400540e+01 -2.868599e+01 -7.957615e+01 -1.579738e+02 1.225329e-02 -3.735118e+01
1140000000 -9.468000e-03 -3.694823e+01 -7.899010e+01 -1.113527e+02 -8.461422e+01 -1.414622e+02 1.626842e-02 -3.768000e+01
1150000000 -7.336268e-03 -3.730006e+01 -7.933796e+01 -1.167964e+02 -7.527782e+01 -1.550771e+02 2.022874e-02 -3.793727e+01
1160000000 -6.209720e-03 -3.760965e+01 -7.542489e+01 -9.668729e+01 -7.771095e+01 -1.273715e+02 1.893141e-02 -3.819266e+01
1170000000 -5.684828e-03 -3.790346e+01 -7.269035e+01 -1.460987e+02 -7.298537e+01 -9.858683e+01 2.116265e-02 -3.840369e+01
1180000000 -1.223892e-02 -3.860351e+01 -6.715685e+01 -1.048495e+02 -7.005973e+01 -1.167501e+02 2.230056e-02 -3.885056e+01
1190000000 -1.038027e-02 -3.890946e+01 -6.509855e+01 -1.222382e+02 -7.275423e+01 -1.272365e+02 1.706098e-02 -3.920255e+01
1200000000 -8.460944e-03 -3.921160e+01 -7.038916e+01 -1.535147e+02 -7.277213e+01 -1.444528e+02 2.057543e-02 -3.953119e+01
1210000000 -1.137297e-02 -3.957443e+01 -6.959977e+01 -1.267203e+02 -6.915260e+01 -1.156114e+02 1.984464e-02 -3.986552e+01
1220000000 -5.033906e-03 -4.001810e+01 -6.813996e+01 -1.254606e+02 -6.962392e+01 -1.482635e+02 2.316109e-02 -4.020468e+01
1230000000 -8.909926e-03 -4.018131e+01 -6.841852e+01 -1.479747e+02 -7.351405e+01 -1.425088e+02 1.801879e-02 -4.049892e+01
1240000000 -1.134433e-02 -4.066341e+01 -7.093703e+01 -1.401178e+02 -7.962069e+01 -1.240506e+02 1.890717e-02 -4.082555e+01
1250000000 -8.160803e-03 -4.090300e+01 -6.885778e+01 -1.462756e+02 -7.219022e+01 -1.454579e+02 1.887997e-02 -4.116805e+01
1260000000 -1.063155e-02 -4.131343e+01 -7.995979e+01 -1.358192e+02 -7.268668e+01 -1.613291e+02 1.528121e-02 -4.148224e+01
1270000000 -1.317413e-02 -4.187387e+01 -6.910405e+01 -1.311572e+02 -7.334718e+01 -1.421995e+02 1.620417e-02 -4.182206e+01
1280000000 -1.100194e-02 -4.191329e+01 -7.641999e+01 -1.551347e+02 -7.176979e+01 -1.214884e+02 1.649301e-02 -4.214088e+01
1290000000 -8.415198e-03 -4.223167e+01 -7.567281e+01 -1.105383e+02 -7.011440e+01 -1.482623e+02 1.454246e-02 -4.248156e+01
1300000000 -7.744873e-03 -4.280202e+01 -6.970213e+01 -1.263289e+02 -7.099722e+01 -1.354867e+02 2.023172e-02 -4.282132e+01
1310000000 -1.203440e-02 -4.299937e+01 -6.939555e+01 -1.274101e+02 -6.703474e+01 -1.104263e+02 1.626509e-02 -4.312582e+01
1320000000 -1.093408e-02 -4.345279e+01 -6.714268e+01 -1.335817e+02 -7.109576e+01 -1.300568e+02 2.423978e-02 -4.344520e+01
1330000000 -1.661281e-02 -4.358515e+01 -7.328543e+01 -1.083349e+02 -6.834357e+01 -1.469965e+02 1.586521e-02 -4.378711e+01
1340000000 -1.203273e-02 -4.384257e+01 -6.804596e+01 -1.225221e+02 -6.794856e+01 -1.381704e+02 1.968599e-02 -4.411698e+01
1350000000 -1.181259e-02 -4.424892e+01 -6.559804e+01 -1.329770e+02 -6.793758e+01 -1.546857e+02 2.072529e-02 -4.445003e+01
1360000000 -6.423341e-03 -4.458807e+01 -7.238494e+01 -1.283277e+02 -7.174124e+01 -1.205069e+02 2.261238e-02 -4.478767e+01
1370000000 -1.423426e-02 -4.549574e+01 -7.003578e+01 -1.215852e+02 -6.681290e+01 -1.236552e+02 2.082051e-02 -4.509307e+01
1380000000 -7.689804e-03 -4.521055e+01 -6.922810e+01 -1.438829e+02 -7.335053e+01 -1.167992e+02 2.329887e-02 -4.542534e+01
1390000000 -9.981131e-03 -4.557088e+01 -6.855775e+01 -1.452614e+02 -7.062628e+01 -1.213721e+02 2.023066e-02 -4.576058e+01
1400000000 -1.052059e-02 -4.602871e+01 -6.608215e+01 -1.246318e+02 -6.855007e+01 -1.256775e+02 2.162127e-02 -4.607970e+01
1410000000 -6.499852e-03 -4.624299e+01 -6.673643e+01 -1.515225e+02 -7.186882e+01 -1.241323e+02 2.561200e-02 -4.640457e+01
1420000000 -1.148516e-02 -4.656548e+01 -6.834383e+01 -1.303820e+02 -6.834791e+01 -1.271801e+02 2.369115e-02 -4.674767e+01
1430000000 -1.357800e-02 -4.692791e+01 -6.675527e+01 -1.497720e+02 -7.074357e+01 -1.252405e+02 2.372875e-02 -4.710233e+01
1440000000 -9.797448e-03 -4.733152e+01 -6.867599e+01 -1.301434e+02 -6.900213e+01 -1.544893e+02 2.395924e-02 -4.744347e+01
1450000000 -1.443352e-02 -4.760857e+01 -6.989833e+01 -1.535634e+02 -6.843385e+01 -1.248978e+02 1.982897e-02 -4.775498e+01
1460000000 -1.398683e-02 -4.794394e+01 -6.815594e+01 -1.305361e+02 -7.092045e+01 -1.464939e+02 1.944324e-02 -4.809763e+01
1470000000 -1.066829e-02 -4.812394e+01 -6.804729e+01 -1.418379e+02 -6.805671e+01 -1.390585e+02 2.672910e-02 -4.840625e+01
1480000000 -1.304170e-02 -4.858527e+01 -7.111533e+01 -1.782856e+02 -6.609719e+01 -1.443468e+02 2.831436e-02 -4.878795e+01
1490000000 -1.136212e-02 -4.888155e+01 -6.764590e+01 -1.390923e+02 -6.976999e+01 -1.504329e+02 2.419317e-02 -4.906650e+01
1500000000 -1.053396e-02 -4.914558e+01 -6.682819e+01 -1.438531e+02 -6.606358e+01 -1.515867e+02 2.214132e-02 -4.940219e+01
1510000000 -1.068693e-02 -4.936671e+01 -6.689960e+01 -1.496852e+02 -7.063817e+01 -1.367947e+02 1.838254e-02 -4.976610e+01
1520000000 -1.091958e-02 -4.977259e+01 -6.705399e+01 -1.324595e+02 -7.226344e+01 -1.385273e+02 1.666176e-02 -5.012988e+01
1530000000 -1.457374e-02 -5.007182e+01 -6.672841e+01 -1.341556e+02 -6.638145e+01 -1.453395e+02 1.985996e-02 -5.048011e+01
1540000000 -1.487865e-02 -5.055744e+01 -7.040374e+01 -1.315936e+02 -6.968794e+01 -1.238229e+02 2.321517e-02 -5.081267e+01
1550000000 -1.380201e-02 -5.078543e+01 -6.601688e+01 -1.402612e+02 -6.803963e+01 -1.377946e+02 1.891841e-02 -5.116448e+01
1560000000 -1.185963e-02 -5.118193e+01 -6.790290e+01 -1.188450e+02 -6.586411e+01 -1.338694e+02 2.093825e-02 -5.144947e+01
1570000000 -1.669374e-02 -5.143618e+01 -6.831091e+01 -1.227942e+02 -6.918387e+01 -1.126968e+02 2.206888e-02 -5.179440e+01
1580000000 -1.632515e-02 -5.181279e+01 -6.721742e+01 -1.192312e+02 -6.643823e+01 -1.212888e+02 1.919545e-02 -5.213593e+01
1590000000 -2.036468e-02 -5.216117e+01 -6.702995e+01 -1.363891e+02 -6.632501e+01 -1.318049e+02 2.152326e-02 -5.249226e+01
1600000000 -2.433230e-02 -5.253370e+01 -6.701729e+01 -1.259258e+02 -6.628186e+01 -1.232812e+02 2.730811e-02 -5.284888e+01
1610000000 -1.450455e-02 -5.291673e+01 -6.327750e+01 -1.185731e+02 -6.580460e+01 -1.363408e+02 1.759830e-02 -5.319388e+01
1620000000 -2.482278e-02 -5.321332e+01 -6.260134e+01 -1.307078e+02 -6.365273e+01 -1.232960e+02 2.308014e-02 -5.355442e+01
1630000000 -1.993712e-02 -5.343555e+01 -6.295492e+01 -1.454247e+02 -6.239925e+01 -1.367593e+02 2.167398e-02 -5.391103e+01
1640000000 -2.373258e-02 -5.389356e+01 -6.289000e+01 -1.528601e+02 -6.471294e+01 -1.507974e+02 2.407005e-02 -5.421613e+01
1650000000 -2.556963e-02 -5.427430e+01 -6.406643e+01 -1.459152e+02 -6.352351e+01 -1.528592e+02 2.630503e-02 -5.461335e+01
1660000000 -2.287088e-02 -5.450440e+01 -6.527309e+01 -1.517257e+02 -6.527038e+01 -1.494883e+02 1.841018e-02 -5.498502e+01
1670000000 -2.360065e-02 -5.492842e+01 -6.382160e+01 -1.587635e+02 -6.544614e+01 -1.537127e+02 1.634065e-02 -5.531535e+01
1680000000 -1.782657e-02 -5.531412e+01 -6.366299e+01 -1.552935e+02 -6.536744e+01 -1.535276e+02 2.075387e-02 -5.588298e+01
1690000000 -2.714763e-02 -5.567862e+01 -6.631860e+01 -1.518433e+02 -6.698246e+01 -1.484668e+02 2.134759e-02 -5.635326e+01
1700000000 -2.120234e-02 -5.606569e+01 -6.462627e+01 -1.512040e+02 -6.530021e+01 -1.448435e+02 2.225710e-02 -5.679911e+01
1710000000 -2.577322e-02 -5.642481e+01 -6.465828e+01 -1.566584e+02 -6.425314e+01 -1.529181e+02 1.983574e-02 -5.691889e+01
1720000000 -2.795273e-02 -5.684174e+01 -6.535211e+01 -1.378356e+02 -6.512860e+01 -1.445336e+02 2.303668e-02 -5.745111e+01
1730000000 -3.129205e-02 -5.791523e+01 -6.435354e+01 -1.521621e+02 -6.648918e+01 -1.354985e+02 1.321769e-02 -5.767194e+01
1740000000 -3.373239e-02 -5.824926e+01 -6.323451e+01 -1.470175e+02 -6.467770e+01 -1.571045e+02 1.451141e-02 -5.802022e+01
1750000000 -3.439922e-02 -5.878521e+01 -6.280945e+01 -1.426384e+02 -6.589907e+01 -1.450593e+02 1.494076e-02 -5.855977e+01
1760000000 -3.133663e-02 -5.873134e+01 -6.567546e+01 -1.466510e+02 -6.536938e+01 -1.480021e+02 2.079403e-02 -5.873904e+01
1770000000 -3.146207e-02 -5.916588e+01 -6.416093e+01 -1.469971e+02 -6.476875e+01 -1.321606e+02 1.795805e-02 -5.898134e+01
1780000000 -3.424352e-02 -5.987825e+01 -6.297826e+01 -1.527043e+02 -6.348079e+01 -1.545994e+02 2.101766e-02 -5.933755e+01
1790000000 -3.163277e-02 -5.996516e+01 -6.370116e+01 -1.488093e+02 -6.580011e+01 -1.622864e+02 1.933758e-02 -5.997855e+01
1800000000 -3.499849e-02 -6.048255e+01 -6.317907e+01 -1.438535e+02 -6.206226e+01 -1.506166e+02 1.570520e-02 -6.009987e+01
1810000000 -4.264460e-02 -6.090702e+01 -6.491045e+01 -1.588230e+02 -6.451686e+01 -1.557461e+02 1.914450e-02 -6.047507e+01
1820000000 -3.563505e-02 -6.076627e+01 -6.379136e+01 -1.522182e+02 -6.361890e+01 -1.439328e+02 1.482073e-02 -6.074585e+01
1830000000 -4.136394e-02 -6.164176e+01 -6.307115e+01 -1.510864e+02 -6.436345e+01 -1.472108e+02 1.568596e-02 -6.107585e+01
1840000000 -3.495655e-02 -6.174704e+01 -6.381519e+01 -1.464311e+02 -6.408041e+01 -1.359896e+02 1.786057e-02 -6.164380e+01
1850000000 -3.420740e-02 -6.198730e+01 -6.304131e+01 -1.499388e+02 -6.255798e+01 -1.488291e+02 1.590883e-02 -6.188879e+01
1860000000 -4.026782e-02 -6.265117e+01 -6.456410e+01 -1.477724e+02 -6.418528e+01 -1.442543e+02 1.707608e-02 -6.199432e+01
1870000000 -4.659298e-02 -6.301188e+01 -6.564896e+01 -1.537532e+02 -6.595861e+01 -1.315103e+02 2.362893e-02 -6.130484e+01
1880000000 -4.030045e-02 -6.316613e+01 -6.219215e+01 -1.493604e+02 -6.427386e+01 -1.503403e+02 1.763580e-02 -6.317042e+01
1890000000 -3.799586e-02 -6.338545e+01 -6.331565e+01 -1.450521e+02 -6.448134e+01 -1.385809e+02 1.754905e-02 -6.344946e+01
1900000000 -4.315168e-02 -6.367637e+01 -6.303972e+01 -1.626844e+02 -6.345481e+01 -1.490155e+02 1.657406e-02 -6.366229e+01
1910000000 -4.491642e-02 -6.434710e+01 -6.213729e+01 -1.455476e+02 -6.308123e+01 -1.470980e+02 1.413951e-02 -6.427740e+01
1920000000 -4.022486e-02 -6.422289e+01 -6.590878e+01 -1.378441e+02 -6.475777e+01 -1.600576e+02 1.790100e-02 -6.456007e+01
1930000000 -4.606687e-02 -6.467864e+01 -6.465645e+01 -1.464381e+02 -6.478477e+01 -1.563748e+02 1.616927e-02 -6.502206e+01
1940000000 -4.986697e-02 -6.525530e+01 -6.359109e+01 -1.496550e+02 -6.167052e+01 -1.596179e+02 1.033132e-02 -6.541376e+01
1950000000 -4.964504e-02 -6.545682e+01 -6.331241e+01 -1.424678e+02 -6.327782e+01 -1.476958e+02 1.375197e-02 -6.557836e+01
1960000000 -4.611740e-02 -6.588501e+01 -6.328827e+01 -1.544081e+02 -6.399282e+01 -1.472448e+02 1.569689e-02 -6.611417e+01
1970000000 -4.987526e-02 -6.621988e+01 -6.479929e+01 -1.590482e+02 -6.431177e+01 -1.486327e+02 1.423460e-02 -6.655186e+01
1980000000 -5.277539e-02 -6.638287e+01 -6.523061e+01 -1.568177e+02 -6.382108e+01 -1.437297e+02 1.536705e-02 -6.694886e+01
1990000000 -5.130225e-02 -6.669489e+01 -6.483206e+01 -1.459380e+02 -6.633587e+01 -1.683780e+02 5.228706e-03 -6.714973e+01
2000000000 -5.196749e-02 -6.734286e+01 -6.404567e+01 -1.538062e+02 -6.295792e+01 -1.558290e+02 2.609027e-03 -6.802421e+01
2010000000 -5.658833e-02 -6.743601e+01 -6.453420e+01 -1.556421e+02 -6.478143e+01 -1.677661e+02 6.939115e-03 -6.794500e+01
2020000000 -6.084367e-02 -6.785168e+01 -6.505972e+01 -1.423772e+02 -6.585011e+01 -1.422252e+02 8.042539e-03 -6.868233e+01
2030000000 -6.549458e-02 -6.858779e+01 -6.701216e+01 -1.586087e+02 -6.902061e+01 -1.256106e+02 4.171502e-03 -6.879714e+01
2040000000 -5.371110e-02 -6.795765e+01 -6.655383e+01 -1.452037e+02 -6.631299e+01 -1.199881e+02 7.402039e-03 -6.927923e+01
2050000000 -6.050227e-02 -6.875542e+01 -6.670998e+01 -1.518714e+02 -6.699535e+01 -1.390579e+02 1.207748e-03 -6.985977e+01
2060000000 -4.970009e-02 -6.761015e+01 -7.000513e+01 -1.535958e+02 -7.173233e+01 -1.370117e+02 3.726136e-03 -6.975211e+01
2070000000 -6.147214e-02 -6.961597e+01 -6.822772e+01 -1.026466e+02 -6.832986e+01 -1.008445e+02 -3.029490e-03 -7.052642e+01
2080000000 -6.436381e-02 -7.016027e+01 -6.731015e+01 -8.975677e+01 -6.876811e+01 -1.062916e+02 -5.927093e-03 -7.106870e+01
2090000000 -6.975859e-02 -7.029111e+01 -6.466398e+01 -9.078042e+01 -6.558009e+01 -8.418226e+01 -4.629808e-03 -7.099157e+01
2100000000 -6.530008e-02 -7.015501e+01 -6.358201e+01 -8.716793e+01 -6.350098e+01 -1.051706e+02 -2.219124e-04 -7.184214e+01
2110000000 -7.120355e-02 -7.142101e+01 -6.235239e+01 -1.104869e+02 -6.087526e+01 -1.007825e+02 -6.961585e-03 -7.193514e+01
2120000000 -7.580733e-02 -7.132897e+01 -6.201152e+01 -1.025714e+02 -6.149636e+01 -1.051046e+02 -3.856695e-03 -7.220260e+01
2130000000 -6.998758e-02 -7.154299e+01 -6.141886e+01 -1.086878e+02 -6.039151e+01 -1.218923e+02 -9.437456e-03 -7.278974e+01
2140000000 -7.662228e-02 -7.225050e+01 -5.942987e+01 -1.252259e+02 -6.050560e+01 -1.223727e+02 -9.649750e-03 -7.318071e+01
2150000000 -7.628209e-02 -7.257574e+01 -6.275818e+01 -1.214662e+02 -6.098120e+01 -1.242368e+02 -1.071241e-02 -7.347386e+01
2160000000 -7.970845e-02 -7.302139e+01 -6.339877e+01 -1.287165e+02 -6.304802e+01 -1.204130e+02 -9.216499e-03 -7.408157e+01
2170000000 -7.817690e-02 -7.339901e+01 -6.249140e+01 -1.262947e+02 -6.156391e+01 -1.303736e+02 -1.800257e-02 -7.439526e+01
2180000000 -7.865100e-02 -7.377930e+01 -6.243122e+01 -1.375862e+02 -6.323217e+01 -1.297333e+02 -1.073987e-02 -7.484529e+01
2190000000 -8.184367e-02 -7.417699e+01 -6.419058e+01 -1.303901e+02 -6.418176e+01 -1.498303e+02 -1.409584e-02 -7.545827e+01
2200000000 -8.412363e-02 -7.453655e+01 -6.478971e+01 -1.450654e+02 -6.605045e+01 -1.254178e+02 -2.301572e-02 -7.631776e+01
2210000000 -8.493195e-02 -7.487341e+01 -6.641768e+01 -1.440991e+02 -6.483080e+01 -1.127535e+02 -2.037896e-02 -7.645060e+01
2220000000 -9.007179e-02 -7.528808e+01 -7.062460e+01 -1.168898e+02 -9.042813e+01 -1.552458e+02 -2.956715e-02 -7.770439e+01
2230000000 -8.626190e-02 -7.570865e+01 -7.095563e+01 -9.331947e+01 -6.541432e+01 -1.055499e+02 -2.542743e-02 -7.776220e+01
2240000000 -8.677434e-02 -7.606094e+01 -7.328763e+01 -1.055751e+02 -6.923520e+01 -9.466870e+01 -1.904677e-02 -7.760809e+01
2250000000 -9.314433e-02 -7.646329e+01 -7.083965e+01 -7.947410e+01 -6.845277e+01 -9.951002e+01 -2.934747e-02 -7.898907e+01
2260000000 -9.779900e-02 -7.689190e+01 -6.840192e+01 -7.079501e+01 -6.958270e+01 -5.765715e+01 -3.696281e-02 -7.909480e+01
2270000000 -9.517988e-02 -7.723155e+01 -6.904488e+01 -3.018549e+01 -6.678255e+01 -3.815268e+01 -3.326674e-02 -7.943101e+01
2280000000 -1.029498e-01 -7.764992e+01 -6.965113e+01 -5.072060e+01 -6.733106e+01 -4.102298e+01 -3.917942e-02 -8.025060e+01
2290000000 -9.586508e-02 -7.805092e+01 -6.553286e+01 -4.442571e+01 -6.584180e+01 -3.705468e+01 -3.584287e-02 -7.971461e+01
2300000000 -1.063235e-01 -7.845798e+01 -6.505808e+01 -1.338381e+01 -6.654123e+01 -3.034822e+01 -3.696742e-02 -8.009020e+01
2310000000 -1.088721e-01 -7.882438e+01 -6.257886e+01 -2.140792e+01 -6.254171e+01 -3.315469e+01 -4.289545e-02 -8.145475e+01
2320000000 -1.108417e-01 -7.930000e+01 -6.285529e+01 -3.102585e+01 -6.170461e+01 -4.560390e+01 -5.051104e-02 -8.136919e+01
2330000000 -1.072496e-01 -7.968349e+01 -6.133874e+01 -2.446917e+01 -6.155020e+01 -2.134116e+01 -4.150834e-02 -8.139203e+01
2340000000 -1.094957e-01 -8.007529e+01 -5.981659e+01 -1.379827e+01 -6.043572e+01 -2.426697e+01 -5.258840e-02 -8.281262e+01
2350000000 -1.097273e-01 -8.050468e+01 -5.987894e+01 -2.413936e+01 -5.832529e+01 -1.334350e+01 -5.257436e-02 -8.281876e+01
2360000000 -1.170127e-01 -8.093665e+01 -5.803441e+01 -2.093570e+01 -5.866793e+01 -1.394586e+01 -4.791141e-02 -8.243556e+01
2370000000 -1.199382e-01 -8.139243e+01 -5.795568e+01 -1.379872e+01 -5.742384e+01 -2.282443e+01 -5.884486e-02 -8.375434e+01
2380000000 -1.229793e-01 -8.179985e+01 -5.520605e+01 -1.194848e+01 -5.712473e+01 -1.977724e+01 -6.236989e-02 -8.365834e+01
2390000000 -1.276192e-01 -8.225237e+01 -5.587690e+01 -1.431809e+01 -5.435654e+01 -1.764893e+01 -6.654086e-02 -8.468487e+01
2400000000 -1.375758e-01 -8.269565e+01 -5.559587e+01 -1.206792e+01 -5.479837e+01 -1.793229e+01 -6.878281e-02 -8.520274e+01
2410000000 -1.350667e-01 -8.311559e+01 -5.344598e+01 -7.541818e+00 -5.407634e+01 -1.772507e+01 -7.514898e-02 -8.513145e+01
2420000000 -1.411306e-01 -8.358662e+01 -5.390348e+01 -1.000389e+01 -5.273003e+01 -1.466437e+01 -7.369339e-02 -8.654844e+01
2430000000 -1.396504e-01 -8.397615e+01 -5.279984e+01 -1.204313e+01 -5.244149e+01 -1.337956e+01 -7.402007e-02 -8.649133e+01
2440000000 -1.448218e-01 -8.441227e+01 -5.244825e+01 -1.246895e+01 -5.091010e+01 -1.070508e+01 -7.112098e-02 -8.626689e+01
2450000000 -1.469732e-01 -8.486445e+01 -5.056169e+01 -1.283075e+01 -5.097299e+01 -1.392981e+01 -8.338480e-02 -8.770695e+01
2460000000 -1.562108e-01 -8.532764e+01 -5.004208e+01 -8.202845e+00 -4.994215e+01 -1.288528e+01 -8.369919e-02 -8.778436e+01
2470000000 -1.625218e-01 -8.571298e+01 -4.890895e+01 -7.500131e+00 -4.926985e+01 -9.882540e+00 -7.850859e-02 -8.767507e+01
2480000000 -1.647225e-01 -8.618275e+01 -4.906054e+01 -1.171761e+01 -4.797157e+01 -1.163945e+01 -9.303129e-02 -8.913411e+01
2490000000 -1.663331e-01 -8.672494e+01 -4.773463e+01 -1.357505e+01 -4.731203e+01 -1.432763e+01 -9.798526e-02 -8.907149e+01
2500000000 -1.705084e-01 -8.713189e+01 -4.726540e+01 -1.407757e+01 -4.715863e+01 -1.438819e+01 -8.893393e-02 -8.917554e+01
2510000000 -1.838412e-01 -8.766647e+01 -4.642202e+01 -1.462258e+01 -4.605179e+01 -1.648448e+01 -1.075977e-01 -9.093888e+01
2520000000 -1.882374e-01 -8.819171e+01 -4.600345e+01 -1.552231e+01 -4.542053e+01 -1.755482e+01 -1.014704e-01 -9.087970e+01
2530000000 -1.865832e-01 -8.858577e+01 -4.547959e+01 -1.609863e+01 -4.538434e+01 -1.489689e+01 -9.841149e-02 -9.075894e+01
2540000000 -1.933738e-01 -8.910937e+01 -4.469946e+01 -1.628798e+01 -4.428009e+01 -1.796666e+01 -1.101529e-01 -9.235453e+01
2550000000 -1.948867e-01 -8.964918e+01 -4.439159e+01 -1.757996e+01 -4.410402e+01 -2.050836e+01 -1.043173e-01 -9.181234e+01
2560000000 -1.981158e-01 -9.009772e+01 -4.410582e+01 -1.919922e+01 -4.367018e+01 -2.012770e+01 -1.120639e-01 -9.242699e+01
2570000000 -1.960105e-01 -9.060556e+01 -4.330581e+01 -2.021115e+01 -4.315197e+01 -1.980605e+01 -1.217538e-01 -9.314068e+01
2580000000 -2.085926e-01 -9.118343e+01 -4.310237e+01 -2.047341e+01 -4.245024e+01 -1.888707e+01 -1.184271e-01 -9.344678e+01
2590000000 -2.074114e-01 -9.165922e+01 -4.229766e+01 -1.829289e+01 -4.193243e+01 -2.066750e+01 -1.240003e-01 -9.424404e+01
2600000000 -2.125327e-01 -9.220130e+01 -4.187713e+01 -1.902223e+01 -4.144226e+01 -2.080779e+01 -1.276505e-01 -9.462593e+01
2610000000 -2.214094e-01 -9.279060e+01 -4.135887e+01 -2.006849e+01 -4.100021e+01 -1.911326e+01 -1.341452e-01 -9.490587e+01
