!Agilent Technologies,N5227A,US51270477,A.10.00.00

!File generated by LCAF-GAM-UPV software
!josevmart@iteam.upv.es
!S2P File: Measurements: S11, S21, S12, S22:
# Hz S  dB   R 50
1000000000 3.354194e-03 -3.051549e+01 -9.240398e+01 -1.667362e+02 -8.466260e+01 -1.672246e+02 1.416915e-02 -3.082964e+01
1010000000 9.726312e-03 -3.108352e+01 -8.086560e+01 -2.926162e+01 -7.288338e+01 5.292366e+00 1.709015e-02 -3.112060e+01
1020000000 2.979010e-03 -3.132174e+01 -7.839953e+01 4.798074e+01 -8.831009e+01 -4.871975e+01 1.737546e-02 -3.145923e+01
1030000000 8.722124e-03 -3.169564e+01 -8.591204e+01 -1.461879e+02 -7.132044e+01 -5.109933e+01 1.895278e-02 -3.186060e+01
1040000000 3.733646e-03 -3.183477e+01 -9.234369e+01 4.416072e+01 -7.463622e+01 1.667240e+02 1.727858e-02 -3.214740e+01
1050000000 1.716917e-03 -3.232103e+01 -7.549573e+01 1.775786e+02 -7.581900e+01 1.707841e+02 1.589220e-02 -3.246519e+01
1060000000 1.008369e-03 -3.254717e+01 -8.393494e+01 1.259524e+02 -7.457487e+01 -1.095191e+02 1.548531e-02 -3.292986e+01
1070000000 2.646948e-03 -3.287627e+01 -7.748859e+01 -8.131927e+01 -8.448821e+01 -9.651700e-01 1.991936e-02 -3.317079e+01
1080000000 1.295237e-03 -3.312930e+01 -8.736787e+01 5.603979e+01 -7.940676e+01 1.736192e+02 1.451128e-02 -3.333145e+01
1090000000 5.156885e-03 -3.346277e+01 -8.339541e+01 -1.796804e+02 -7.708989e+01 -8.594216e+01 1.845949e-02 -3.387111e+01
1100000000 -2.643719e-03 -3.362958e+01 -8.266407e+01 1.799826e+02 -8.070712e+01 -2.700449e+01 2.229201e-02 -3.397787e+01
1110000000 6.167763e-03 -3.405546e+01 -9.136357e+01 -9.675616e+01 -8.158426e+01 -1.127775e+02 2.242016e-02 -3.381618e+01
1120000000 5.482603e-03 -3.428819e+01 -7.288445e+01 -1.611491e+02 -7.572654e+01 -9.221632e+01 1.637003e-02 -3.460345e+01
1130000000 -3.370178e-03 -3.478595e+01 -7.672509e+01 -3.483266e+01 -7.862056e+01 6.251988e+01 1.880153e-02 -3.511257e+01
1140000000 -8.830110e-04 -3.507349e+01 -7.517426e+01 -8.683495e+01 -7.296360e+01 -7.826566e+01 2.010508e-02 -3.534275e+01
1150000000 1.446959e-03 -3.540998e+01 -7.117978e+01 -6.998582e+01 -7.274020e+01 -8.762491e+01 2.579289e-02 -3.566772e+01
1160000000 1.654376e-03 -3.572609e+01 -7.831435e+01 -1.528019e+02 -7.651315e+01 -1.928677e+01 2.171197e-02 -3.609819e+01
1170000000 -3.705889e-03 -3.593145e+01 -7.319415e+01 -8.677716e+01 -7.313817e+01 -1.059447e+02 2.428449e-02 -3.632634e+01
1180000000 -1.511071e-03 -3.628382e+01 -7.598121e+01 -7.710025e+01 -7.074442e+01 -7.739026e+01 2.362773e-02 -3.654013e+01
1190000000 -5.400681e-03 -3.666409e+01 -8.388640e+01 -1.145841e+02 -7.763113e+01 -1.484511e+02 2.001910e-02 -3.691606e+01
1200000000 1.549984e-03 -3.696788e+01 -7.601546e+01 -9.411507e+01 -7.139071e+01 -1.460295e+02 2.380938e-02 -3.724714e+01
1210000000 4.868505e-04 -3.720068e+01 -7.162532e+01 -1.490103e+02 -7.141383e+01 -1.095717e+02 2.575469e-02 -3.751139e+01
1220000000 2.133763e-03 -3.761620e+01 -7.644104e+01 -1.418785e+02 -7.510294e+01 -1.164739e+02 2.750519e-02 -3.785979e+01
1230000000 2.985515e-03 -3.791169e+01 -7.189846e+01 -1.473039e+02 -7.214223e+01 -1.264845e+02 2.975252e-02 -3.817362e+01
1240000000 -1.460649e-03 -3.813541e+01 -7.361233e+01 -1.278990e+02 -7.700089e+01 -1.552753e+02 2.357642e-02 -3.842002e+01
1250000000 -1.227959e-03 -3.856561e+01 -7.367785e+01 -1.285399e+02 -7.538116e+01 -1.440802e+02 2.624698e-02 -3.872202e+01
1260000000 -1.877487e-03 -3.867595e+01 -8.281109e+01 -1.215709e+02 -7.654118e+01 1.617951e+02 2.254052e-02 -3.904756e+01
1270000000 1.150299e-03 -3.923219e+01 -7.110649e+01 -1.611385e+02 -7.587319e+01 -1.016250e+02 2.416608e-02 -3.922349e+01
1280000000 -4.030940e-03 -3.932643e+01 -7.258556e+01 1.795513e+02 -8.636639e+01 -1.537579e+01 1.987518e-02 -3.972857e+01
1290000000 6.343668e-03 -3.955755e+01 -8.502340e+01 -1.111843e+02 -7.547790e+01 -1.531934e+02 2.108742e-02 -3.987540e+01
1300000000 4.346644e-03 -3.994355e+01 -7.103792e+01 -1.340311e+02 -6.873405e+01 -1.166948e+02 2.663581e-02 -4.024910e+01
1310000000 1.760897e-03 -4.024771e+01 -7.124717e+01 -1.479129e+02 -7.797741e+01 -1.248043e+02 2.779748e-02 -4.052372e+01
1320000000 5.108982e-03 -4.056487e+01 -6.959653e+01 -1.227825e+02 -7.382957e+01 -1.179423e+02 2.810842e-02 -4.076131e+01
1330000000 -2.382342e-03 -4.095158e+01 -6.980225e+01 -8.938065e+01 -7.478842e+01 -1.041800e+02 2.396708e-02 -4.113025e+01
1340000000 3.824591e-03 -4.113012e+01 -7.206001e+01 -1.525762e+02 -7.297087e+01 -1.151261e+02 2.861421e-02 -4.146506e+01
1350000000 2.338747e-04 -4.170742e+01 -7.036250e+01 -1.271608e+02 -7.223858e+01 -1.571306e+02 2.530872e-02 -4.175146e+01
1360000000 3.336563e-03 -4.208727e+01 -7.147299e+01 -1.193662e+02 -7.197591e+01 -1.641336e+02 3.138711e-02 -4.204684e+01
1370000000 2.509816e-03 -4.218424e+01 -7.299248e+01 -1.546894e+02 -7.874457e+01 -1.399824e+02 2.959303e-02 -4.233881e+01
1380000000 3.650509e-03 -4.263974e+01 -7.561512e+01 -1.128260e+02 -7.552556e+01 -1.330693e+02 3.153780e-02 -4.260487e+01
1390000000 1.012348e-03 -4.272307e+01 -6.990373e+01 -1.248861e+02 -7.204708e+01 -1.545671e+02 2.880060e-02 -4.290800e+01
1400000000 3.644891e-03 -4.299087e+01 -7.156063e+01 -1.280726e+02 -7.005945e+01 -1.274689e+02 2.938777e-02 -4.326545e+01
1410000000 5.797069e-03 -4.328090e+01 -7.298517e+01 -1.341194e+02 -7.294321e+01 -1.585099e+02 2.680807e-02 -4.358164e+01
1420000000 9.720988e-04 -4.356954e+01 -7.537963e+01 -1.528727e+02 -7.627364e+01 -1.422446e+02 3.103718e-02 -4.394181e+01
1430000000 1.364556e-03 -4.385938e+01 -6.901530e+01 -1.525902e+02 -7.224916e+01 -1.333033e+02 3.216643e-02 -4.429284e+01
1440000000 1.677672e-03 -4.417574e+01 -7.263454e+01 -1.433739e+02 -7.013882e+01 -1.490957e+02 2.960909e-02 -4.464027e+01
1450000000 4.530347e-03 -4.448343e+01 -6.868589e+01 -1.484172e+02 -7.003235e+01 -1.535364e+02 2.762427e-02 -4.496854e+01
1460000000 3.508068e-03 -4.479559e+01 -6.997681e+01 -1.082832e+02 -7.177125e+01 -1.238134e+02 2.678955e-02 -4.532855e+01
1470000000 4.485018e-03 -4.508306e+01 -7.363763e+01 -1.319911e+02 -6.937105e+01 -1.546742e+02 3.143870e-02 -4.596661e+01
1480000000 6.391309e-03 -4.539995e+01 -7.260642e+01 -1.363469e+02 -7.036100e+01 -1.719933e+02 3.543703e-02 -4.621946e+01
1490000000 4.302112e-03 -4.567863e+01 -7.736093e+01 -1.767198e+02 -7.050460e+01 -1.170475e+02 3.108949e-02 -4.648760e+01
1500000000 6.859527e-03 -4.597790e+01 -6.955379e+01 -1.487216e+02 -7.206191e+01 -1.041418e+02 3.097718e-02 -4.700105e+01
1510000000 5.541417e-03 -4.630641e+01 -6.922333e+01 -1.284495e+02 -6.809923e+01 -1.441124e+02 2.577923e-02 -4.716572e+01
1520000000 5.245670e-03 -4.659686e+01 -7.046528e+01 -8.552883e+01 -7.193957e+01 -1.356886e+02 2.922602e-02 -4.758158e+01
1530000000 3.607201e-03 -4.691350e+01 -7.102115e+01 -1.235242e+02 -7.135332e+01 -1.162297e+02 2.744198e-02 -4.787820e+01
1540000000 4.530633e-03 -4.721017e+01 -7.430399e+01 -1.416374e+02 -7.323518e+01 -1.462729e+02 3.643286e-02 -4.821266e+01
1550000000 5.862316e-03 -4.750745e+01 -6.944019e+01 -9.685139e+01 -6.980855e+01 -1.293346e+02 3.183966e-02 -4.861190e+01
1560000000 4.068658e-03 -4.783186e+01 -7.329523e+01 -1.157439e+02 -6.834284e+01 -1.330723e+02 3.354826e-02 -4.889795e+01
1570000000 5.188733e-03 -4.809838e+01 -6.797894e+01 -1.374048e+02 -6.923531e+01 -1.197020e+02 3.019633e-02 -4.920147e+01
1580000000 1.280243e-03 -4.839690e+01 -7.189935e+01 -1.223521e+02 -7.209047e+01 -1.412241e+02 2.904734e-02 -4.948945e+01
1590000000 -2.689352e-03 -4.873188e+01 -6.955890e+01 -1.179483e+02 -6.907061e+01 -1.140931e+02 2.816464e-02 -4.990102e+01
1600000000 -3.293706e-03 -4.901459e+01 -6.704288e+01 -1.272940e+02 -6.980659e+01 -1.209347e+02 3.619430e-02 -5.027238e+01
1610000000 3.025108e-03 -4.930791e+01 -6.643397e+01 -1.294209e+02 -6.952101e+01 -1.293764e+02 2.902696e-02 -5.032858e+01
1620000000 -1.548573e-03 -4.962407e+01 -6.710446e+01 -1.309316e+02 -6.944164e+01 -1.318318e+02 3.196270e-02 -5.083862e+01
1630000000 -3.253488e-03 -4.991513e+01 -6.593069e+01 -1.312579e+02 -6.513943e+01 -1.393612e+02 3.452810e-02 -5.112355e+01
1640000000 4.619104e-04 -5.020525e+01 -6.834502e+01 -1.376712e+02 -6.368107e+01 -1.589408e+02 3.717865e-02 -5.158194e+01
1650000000 -4.785979e-04 -5.050750e+01 -6.932555e+01 -1.497077e+02 -6.779288e+01 -1.424208e+02 3.372375e-02 -5.162790e+01
1660000000 -3.207667e-03 -5.078632e+01 -6.421175e+01 -1.593728e+02 -6.815878e+01 -1.613796e+02 3.115508e-02 -5.190593e+01
1670000000 -3.214082e-04 -5.111669e+01 -6.491244e+01 -1.527572e+02 -6.675961e+01 -1.524861e+02 2.714984e-02 -5.270068e+01
1680000000 6.691112e-03 -5.142049e+01 -7.150233e+01 -1.633063e+02 -6.786938e+01 -1.341368e+02 3.719275e-02 -5.270967e+01
1690000000 -2.768442e-03 -5.172618e+01 -6.773456e+01 -1.271881e+02 -6.757695e+01 -1.451886e+02 3.832985e-02 -5.295784e+01
1700000000 3.241520e-03 -5.203161e+01 -6.875094e+01 -1.401293e+02 -6.908420e+01 -1.492025e+02 3.895616e-02 -5.350289e+01
1710000000 -2.052762e-03 -5.234465e+01 -6.585026e+01 -1.472650e+02 -6.660771e+01 -1.551245e+02 3.957178e-02 -5.361186e+01
1720000000 -2.921759e-03 -5.267356e+01 -7.106600e+01 -1.647870e+02 -6.916586e+01 -1.386529e+02 3.626623e-02 -5.411068e+01
1730000000 -5.293249e-04 -5.298853e+01 -6.830015e+01 -1.353261e+02 -6.841181e+01 -1.295672e+02 2.924659e-02 -5.448233e+01
1740000000 -3.430181e-03 -5.329979e+01 -6.763663e+01 -1.259348e+02 -6.786903e+01 -1.537608e+02 3.347708e-02 -5.459513e+01
1750000000 -7.724385e-04 -5.362313e+01 -6.796421e+01 -1.525625e+02 -6.574225e+01 -1.346446e+02 3.276057e-02 -5.508926e+01
1760000000 9.078533e-04 -5.394429e+01 -6.821410e+01 -1.406353e+02 -6.912727e+01 -1.421927e+02 3.468949e-02 -5.530344e+01
1770000000 -8.302412e-04 -5.423622e+01 -6.805699e+01 -1.380804e+02 -6.618768e+01 -1.414699e+02 3.208878e-02 -5.566825e+01
1780000000 4.803950e-04 -5.455541e+01 -6.418529e+01 -1.498739e+02 -6.699432e+01 -1.389260e+02 3.785655e-02 -5.565179e+01
1790000000 -6.463151e-04 -5.489414e+01 -7.130987e+01 -1.524288e+02 -6.729147e+01 -1.400233e+02 3.881058e-02 -5.598925e+01
1800000000 1.070228e-06 -5.518153e+01 -6.661919e+01 -1.521051e+02 -6.330047e+01 -1.454630e+02 3.325499e-02 -5.631279e+01
1810000000 -4.280350e-03 -5.549957e+01 -6.737990e+01 -1.369250e+02 -6.576521e+01 -1.659864e+02 3.769543e-02 -5.670594e+01
1820000000 -2.429980e-03 -5.581362e+01 -6.703217e+01 -1.511679e+02 -6.590846e+01 -1.416628e+02 3.038554e-02 -5.711545e+01
1830000000 2.162522e-03 -5.614961e+01 -6.591622e+01 -1.560481e+02 -6.711926e+01 -1.399466e+02 3.583037e-02 -5.698310e+01
1840000000 2.080832e-03 -5.645792e+01 -6.662060e+01 -1.364203e+02 -6.674059e+01 -1.366797e+02 3.787039e-02 -5.735762e+01
1850000000 2.385050e-03 -5.678203e+01 -6.347624e+01 -1.418854e+02 -6.522802e+01 -1.555390e+02 3.445033e-02 -5.806772e+01
1860000000 3.312718e-04 -5.711433e+01 -6.570882e+01 -1.481730e+02 -6.772245e+01 -1.289508e+02 3.587322e-02 -5.845415e+01
1870000000 -3.606014e-03 -5.745080e+01 -6.582373e+01 -1.508986e+02 -6.509366e+01 -1.468881e+02 3.721465e-02 -5.862558e+01
1880000000 -1.037772e-03 -5.775753e+01 -6.786324e+01 -1.432974e+02 -6.515376e+01 -1.574165e+02 3.976283e-02 -5.868199e+01
1890000000 1.119819e-03 -5.811126e+01 -6.798587e+01 -1.435213e+02 -6.412728e+01 -1.455844e+02 3.824880e-02 -5.918666e+01
1900000000 6.350729e-04 -5.842786e+01 -6.596319e+01 -1.466494e+02 -6.622037e+01 -1.425759e+02 4.201682e-02 -5.932959e+01
1910000000 -4.046648e-03 -5.923386e+01 -6.325752e+01 -1.377517e+02 -6.456934e+01 -1.412538e+02 4.006136e-02 -5.982766e+01
1920000000 -6.098281e-03 -5.967678e+01 -6.526156e+01 -1.363697e+02 -6.629364e+01 -1.391163e+02 4.101917e-02 -6.020254e+01
1930000000 -6.677438e-03 -5.993223e+01 -6.414590e+01 -1.394809e+02 -6.641054e+01 -1.521070e+02 3.740270e-02 -6.055698e+01
1940000000 -7.934729e-03 -6.017165e+01 -6.451392e+01 -1.524437e+02 -6.459518e+01 -1.384316e+02 3.485394e-02 -6.084972e+01
1950000000 -9.454475e-03 -6.057636e+01 -6.563040e+01 -1.465126e+02 -6.562787e+01 -1.394005e+02 3.572654e-02 -6.118314e+01
1960000000 -5.020680e-03 -6.085345e+01 -6.618666e+01 -1.313298e+02 -6.614088e+01 -1.491508e+02 4.314214e-02 -6.150572e+01
1970000000 -1.031855e-02 -6.111530e+01 -6.495585e+01 -1.552612e+02 -6.507560e+01 -1.516371e+02 4.273523e-02 -6.181388e+01
1980000000 -1.516084e-02 -6.159274e+01 -6.449859e+01 -1.514972e+02 -6.316856e+01 -1.558804e+02 4.297462e-02 -6.211794e+01
1990000000 -1.067647e-02 -6.168440e+01 -6.539383e+01 -1.579394e+02 -6.534458e+01 -1.505775e+02 3.243712e-02 -6.247866e+01
2000000000 -6.424408e-03 -6.171879e+01 -6.694374e+01 -1.516991e+02 -6.629274e+01 -1.419557e+02 3.444084e-02 -6.272907e+01
2010000000 -8.972690e-03 -6.199010e+01 -6.618990e+01 -1.477424e+02 -7.141474e+01 -1.531769e+02 3.980676e-02 -6.301697e+01
2020000000 -1.656802e-02 -6.272361e+01 -6.759077e+01 -1.331747e+02 -6.727166e+01 -1.523654e+02 4.071291e-02 -6.332277e+01
2030000000 -1.703906e-02 -6.319783e+01 -6.439226e+01 -1.368640e+02 -6.907902e+01 -1.566286e+02 3.423008e-02 -6.364177e+01
2040000000 -2.208197e-02 -6.431425e+01 -6.663161e+01 -1.476967e+02 -6.681728e+01 -1.466021e+02 4.357282e-02 -6.400940e+01
2050000000 -1.464458e-02 -6.369380e+01 -7.019576e+01 -1.405824e+02 -6.767448e+01 -1.432753e+02 3.484244e-02 -6.429169e+01
2060000000 -2.322545e-02 -6.408087e+01 -6.727042e+01 -1.539772e+02 -6.574742e+01 -1.309001e+02 3.572128e-02 -6.463265e+01
2070000000 -1.511365e-02 -6.420790e+01 -6.980508e+01 -1.281139e+02 -7.162693e+01 -1.067532e+02 3.525868e-02 -6.498260e+01
2080000000 -1.867380e-02 -6.494065e+01 -6.789175e+01 -1.096401e+02 -7.107853e+01 -1.507893e+02 3.158822e-02 -6.531675e+01
2090000000 -1.979697e-02 -6.501531e+01 -6.699984e+01 -1.024780e+02 -6.471818e+01 -1.093754e+02 3.254965e-02 -6.562489e+01
2100000000 -1.743338e-02 -6.535305e+01 -6.315308e+01 -1.087311e+02 -6.346163e+01 -1.095176e+02 3.533894e-02 -6.598193e+01
2110000000 -2.153513e-02 -6.589130e+01 -6.337306e+01 -1.118291e+02 -6.342020e+01 -1.045623e+02 2.977382e-02 -6.629729e+01
2120000000 -2.494940e-02 -6.596478e+01 -6.235382e+01 -1.081738e+02 -6.139921e+01 -1.128487e+02 3.598662e-02 -6.659849e+01
2130000000 -1.861012e-02 -6.639214e+01 -5.997501e+01 -1.235429e+02 -5.988315e+01 -1.261627e+02 2.987419e-02 -6.692696e+01
2140000000 -2.611697e-02 -6.698705e+01 -5.980651e+01 -1.276766e+02 -6.110939e+01 -1.383825e+02 3.357482e-02 -6.725749e+01
2150000000 -2.121554e-02 -6.684273e+01 -5.977156e+01 -1.317849e+02 -6.172132e+01 -1.321949e+02 3.429713e-02 -6.760516e+01
2160000000 -2.247263e-02 -6.740190e+01 -5.967427e+01 -1.406275e+02 -6.101861e+01 -1.376469e+02 3.326941e-02 -6.797374e+01
2170000000 -2.707896e-02 -6.788683e+01 -6.090028e+01 -1.438934e+02 -6.008607e+01 -1.366843e+02 2.869722e-02 -6.828618e+01
2180000000 -2.042666e-02 -6.793172e+01 -6.061905e+01 -1.463009e+02 -6.159278e+01 -1.492211e+02 3.475189e-02 -6.863483e+01
2190000000 -2.727076e-02 -6.863692e+01 -6.108327e+01 -1.463140e+02 -6.187850e+01 -1.493772e+02 3.495842e-02 -6.901257e+01
2200000000 -2.665453e-02 -6.900593e+01 -6.273663e+01 -1.477130e+02 -6.313394e+01 -1.577722e+02 3.139100e-02 -6.933047e+01
2210000000 -2.392387e-02 -6.884282e+01 -6.095166e+01 -1.580232e+02 -6.124085e+01 -1.426225e+02 3.119361e-02 -6.966968e+01
2220000000 -2.948866e-02 -6.956599e+01 -6.075242e+01 -1.532826e+02 -6.172180e+01 -1.584759e+02 2.961813e-02 -6.999316e+01
2230000000 -2.698890e-02 -6.986585e+01 -6.155429e+01 -1.572719e+02 -6.279435e+01 -1.459649e+02 2.879998e-02 -7.035551e+01
2240000000 -2.337458e-02 -6.982822e+01 -6.121574e+01 -1.497165e+02 -6.266273e+01 -1.494441e+02 3.106568e-02 -7.072659e+01
2250000000 -3.158027e-02 -7.058971e+01 -6.053576e+01 -1.563860e+02 -6.131180e+01 -1.422452e+02 3.368771e-02 -7.104790e+01
2260000000 -3.656443e-02 -7.088724e+01 -6.390952e+01 -1.478030e+02 -6.318916e+01 -1.604616e+02 2.606973e-02 -7.138599e+01
2270000000 -2.880670e-02 -7.096439e+01 -6.416501e+01 -1.517655e+02 -6.298183e+01 -1.394348e+02 2.807122e-02 -7.172784e+01
2280000000 -3.665372e-02 -7.159073e+01 -6.185941e+01 -1.494005e+02 -6.264029e+01 -1.569415e+02 2.419073e-02 -7.210627e+01
2290000000 -3.106396e-02 -7.191556e+01 -6.386005e+01 -1.519149e+02 -6.393638e+01 -1.546849e+02 2.589318e-02 -7.245110e+01
2300000000 -3.420031e-02 -7.195612e+01 -6.308737e+01 -1.456047e+02 -6.567136e+01 -1.489383e+02 2.507976e-02 -7.282666e+01
2310000000 -4.258116e-02 -7.278674e+01 -6.429696e+01 -1.370222e+02 -6.327782e+01 -1.430718e+02 2.655917e-02 -7.318410e+01
2320000000 -3.990987e-02 -7.283844e+01 -6.466730e+01 -1.429603e+02 -6.582391e+01 -1.398930e+02 1.915567e-02 -7.355165e+01
2330000000 -2.736648e-02 -7.299180e+01 -6.578438e+01 -1.552198e+02 -6.351092e+01 -1.428705e+02 2.400544e-02 -7.387396e+01
2340000000 -3.802584e-02 -7.407079e+01 -6.606840e+01 -1.359903e+02 -6.514668e+01 -1.395705e+02 2.017664e-02 -7.427054e+01
2350000000 -3.310185e-02 -7.392391e+01 -6.450251e+01 -1.284256e+02 -6.590192e+01 -1.525115e+02 2.079068e-02 -7.458920e+01
2360000000 -3.700594e-02 -7.413161e+01 -6.594933e+01 -1.582062e+02 -6.535706e+01 -1.238209e+02 1.849800e-02 -7.496344e+01
2370000000 -4.530142e-02 -7.497137e+01 -6.517837e+01 -1.468111e+02 -6.697277e+01 -1.191828e+02 1.941931e-02 -7.528627e+01
2380000000 -3.893997e-02 -7.480020e+01 -6.445811e+01 -1.416410e+02 -6.580075e+01 -1.407521e+02 7.864596e-03 -7.571659e+01
2390000000 -4.080978e-02 -7.527074e+01 -7.010513e+01 -1.736997e+02 -6.438277e+01 -1.607954e+02 1.581047e-02 -7.604854e+01
2400000000 -4.991302e-02 -7.585653e+01 -6.573559e+01 -1.459666e+02 -6.973579e+01 -1.647169e+02 1.598879e-02 -7.638298e+01
2410000000 -4.782134e-02 -7.598521e+01 -7.143095e+01 -1.538022e+02 -6.816525e+01 -1.540321e+02 6.661227e-03 -7.727064e+01
2420000000 -4.871593e-02 -7.640011e+01 -7.426562e+01 -1.460397e+02 -6.700569e+01 -1.444507e+02 1.167278e-02 -7.784207e+01
2430000000 -5.541904e-02 -7.709647e+01 -7.707198e+01 -1.495150e+02 -6.903593e+01 -1.244494e+02 1.468580e-02 -7.757710e+01
2440000000 -5.376260e-02 -7.717095e+01 -6.608238e+01 -1.184369e+02 -7.080656e+01 -1.078468e+02 1.047469e-02 -7.849879e+01
2450000000 -5.119263e-02 -7.763615e+01 -7.984882e+01 -7.839154e+01 -7.231586e+01 -1.308680e+02 7.963716e-03 -7.904424e+01
2460000000 -5.608526e-02 -7.813663e+01 -7.428893e+01 -8.843829e+01 -8.798501e+01 1.790330e+02 1.050733e-02 -7.877023e+01
2470000000 -5.955543e-02 -7.836015e+01 -7.038580e+01 -5.621472e+01 -9.172807e+01 6.523347e+01 8.097718e-03 -7.961749e+01
2480000000 -7.240297e-02 -7.966595e+01 -8.213732e+01 -4.318216e+01 -6.968800e+01 -8.404131e+01 3.263529e-03 -7.993945e+01
2490000000 -6.804502e-02 -8.006509e+01 -6.591151e+01 -4.293439e+01 -6.494774e+01 -2.836100e+01 8.319567e-03 -7.999654e+01
2500000000 -6.837775e-02 -7.989315e+01 -6.822596e+01 -6.551688e+01 -6.860121e+01 -3.881975e+01 4.076337e-03 -8.079698e+01
2510000000 -7.923542e-02 -8.062752e+01 -6.762840e+01 -5.212836e+01 -7.040289e+01 -3.161069e+01 2.765649e-04 -8.134757e+01
2520000000 -8.552945e-02 -8.128593e+01 -6.567961e+01 -3.517999e+01 -6.696589e+01 -2.673903e+01 7.546511e-03 -8.125439e+01
2530000000 -7.876024e-02 -8.169794e+01 -6.268631e+01 -5.190577e+01 -6.373246e+01 -4.000079e+01 5.153853e-03 -8.199519e+01
2540000000 -9.191874e-02 -8.247556e+01 -6.130821e+01 -3.548397e+01 -6.187690e+01 -4.381928e+01 3.121539e-03 -8.270535e+01
2550000000 -8.744343e-02 -8.258875e+01 -5.976860e+01 -3.462147e+01 -6.147872e+01 -4.106708e+01 9.819454e-03 -8.272472e+01
2560000000 -7.886905e-02 -8.247114e+01 -6.038437e+01 -4.218043e+01 -5.962683e+01 -4.726475e+01 2.610098e-03 -8.331828e+01
2570000000 -7.524751e-02 -8.264339e+01 -6.071270e+01 -3.759410e+01 -6.218115e+01 -3.143013e+01 -2.123972e-03 -8.343888e+01
2580000000 -8.231926e-02 -8.341034e+01 -6.257811e+01 -4.495151e+01 -6.253286e+01 -4.430773e+01 5.494466e-03 -8.369296e+01
2590000000 -8.253459e-02 -8.399100e+01 -6.073745e+01 -3.966914e+01 -6.093775e+01 -3.460197e+01 7.803036e-03 -8.436533e+01
2600000000 -7.687379e-02 -8.428248e+01 -5.957815e+01 -3.459592e+01 -6.231541e+01 -2.465882e+01 6.174471e-03 -8.465211e+01
2610000000 -7.479575e-02 -8.392144e+01 -6.175076e+01 -2.405021e+01 -5.991923e+01 -2.040846e+01 -7.396263e-04 -8.505677e+01
2620000000 -8.460221e-02 -8.446265e+01 -6.024401e+01 -2.734428e+01 -5.944510e+01 -1.768953e+01 -1.482708e-03 -8.578453e+01
