!Agilent Technologies,N5227A,US51270477,A.10.00.00

!File generated by LCAF-GAM-UPV software
!josevmart@iteam.upv.es
!S2P File: Measurements: S11, S21, S12, S22:
# Hz S  dB   R 50
1000000000 -1.632648e-02 -3.553419e+01 -7.837336e+01 -9.786509e+01 -8.228476e+01 -4.118836e+01 3.164044e-03 -3.602995e+01
1010000000 -7.255140e-03 -3.588289e+01 -7.182027e+01 -1.223242e+02 -7.827809e+01 -1.015308e+02 8.242573e-03 -3.649034e+01
1020000000 -1.141926e-02 -3.621670e+01 -7.228008e+01 -1.359882e+02 -7.073665e+01 -1.599924e+02 8.809173e-03 -3.698882e+01
1030000000 -1.002599e-02 -3.661836e+01 -8.024835e+01 -1.064990e+02 -7.146921e+01 -1.329815e+02 8.432924e-03 -3.736828e+01
1040000000 -1.738133e-02 -3.698919e+01 -7.399397e+01 -1.516620e+02 -7.219266e+01 -8.710183e+01 8.064721e-03 -3.766729e+01
1050000000 -1.623839e-02 -3.734490e+01 -7.690643e+01 -1.074212e+02 -7.503720e+01 -1.446829e+02 6.055576e-03 -3.807527e+01
1060000000 -1.649052e-02 -3.771027e+01 -7.333672e+01 -1.146946e+02 -7.486758e+01 -1.563885e+02 4.272524e-03 -3.831231e+01
1070000000 -1.761972e-02 -3.808120e+01 -7.432579e+01 -1.118697e+02 -7.613500e+01 -1.451481e+02 5.302333e-03 -3.858759e+01
1080000000 -1.858968e-02 -3.850721e+01 -7.264111e+01 -1.178018e+02 -7.258727e+01 -9.585761e+01 5.387531e-03 -3.895294e+01
1090000000 -1.560003e-02 -3.889975e+01 -7.241676e+01 -1.318509e+02 -7.726848e+01 -9.193536e+01 8.358425e-03 -3.932971e+01
1100000000 -2.331148e-02 -3.927799e+01 -7.327982e+01 -1.024616e+02 -7.588486e+01 -9.562257e+01 9.800980e-03 -3.966665e+01
1110000000 -1.916074e-02 -3.960629e+01 -7.574219e+01 -9.555481e+01 -7.232949e+01 -9.225388e+01 1.064852e-02 -4.005150e+01
1120000000 -2.079742e-02 -4.008177e+01 -8.479692e+01 -1.251351e+02 -7.399643e+01 -1.370390e+02 4.671504e-03 -4.042540e+01
1130000000 -2.390074e-02 -4.041463e+01 -7.133565e+01 -1.134409e+02 -7.200560e+01 -1.111505e+02 4.153338e-03 -4.077091e+01
1140000000 -2.704172e-02 -4.089273e+01 -7.360651e+01 -1.192605e+02 -7.152462e+01 -1.310472e+02 6.753793e-03 -4.115778e+01
1150000000 -2.571645e-02 -4.126297e+01 -6.844875e+01 -1.194590e+02 -6.953339e+01 -1.399307e+02 1.260902e-02 -4.149928e+01
1160000000 -2.587946e-02 -4.168188e+01 -6.785811e+01 -1.144427e+02 -6.964823e+01 -1.056282e+02 8.601482e-03 -4.188168e+01
1170000000 -2.197143e-02 -4.197062e+01 -6.954185e+01 -1.169057e+02 -6.802803e+01 -1.172423e+02 8.747528e-03 -4.222637e+01
1180000000 -2.752508e-02 -4.240825e+01 -6.780798e+01 -1.257321e+02 -6.780734e+01 -1.230982e+02 7.620302e-03 -4.260255e+01
1190000000 -2.793385e-02 -4.285652e+01 -6.580362e+01 -1.215669e+02 -6.909348e+01 -8.928239e+01 3.390358e-03 -4.295763e+01
1200000000 -2.650816e-02 -4.309127e+01 -6.383696e+01 -1.268986e+02 -6.730531e+01 -1.206050e+02 8.716354e-03 -4.329759e+01
1210000000 -2.572311e-02 -4.350370e+01 -6.820547e+01 -1.364427e+02 -6.677588e+01 -1.281651e+02 9.223497e-03 -4.368180e+01
1220000000 -2.564677e-02 -4.400788e+01 -6.530029e+01 -1.172345e+02 -6.699847e+01 -1.459216e+02 7.598593e-03 -4.403030e+01
1230000000 -2.613463e-02 -4.422093e+01 -6.771288e+01 -1.436243e+02 -6.687281e+01 -1.228967e+02 7.852853e-03 -4.436900e+01
1240000000 -3.341038e-02 -4.470836e+01 -6.797968e+01 -1.340707e+02 -6.960830e+01 -1.493345e+02 8.040138e-03 -4.472468e+01
1250000000 -2.830162e-02 -4.496714e+01 -6.844794e+01 -1.592597e+02 -6.686150e+01 -1.375642e+02 9.698772e-03 -4.512395e+01
1260000000 -3.188019e-02 -4.545071e+01 -6.779588e+01 -1.412881e+02 -6.600031e+01 -1.551017e+02 5.672734e-04 -4.547256e+01
1270000000 -2.933014e-02 -4.561285e+01 -6.697801e+01 -1.436126e+02 -6.754481e+01 -1.470135e+02 4.118223e-03 -4.585896e+01
1280000000 -3.532172e-02 -4.612867e+01 -6.604755e+01 -1.368540e+02 -6.750645e+01 -1.403047e+02 3.248015e-03 -4.623251e+01
1290000000 -2.919341e-02 -4.672698e+01 -6.964988e+01 -1.371208e+02 -6.720232e+01 -1.217384e+02 4.865749e-03 -4.659426e+01
1300000000 -2.885228e-02 -4.698837e+01 -6.754147e+01 -1.404990e+02 -6.723771e+01 -1.120056e+02 8.227687e-03 -4.697312e+01
1310000000 -3.960901e-02 -4.745987e+01 -6.550423e+01 -1.330587e+02 -6.464024e+01 -1.278559e+02 6.816019e-03 -4.733931e+01
1320000000 -3.289359e-02 -4.795887e+01 -6.450201e+01 -1.434850e+02 -6.700206e+01 -1.308291e+02 5.335325e-03 -4.767506e+01
1330000000 -4.035921e-02 -4.812846e+01 -6.493877e+01 -1.581541e+02 -6.787716e+01 -1.472322e+02 4.212459e-03 -4.804876e+01
1340000000 -3.544027e-02 -4.848230e+01 -6.438049e+01 -1.411851e+02 -6.743054e+01 -1.364577e+02 6.514914e-03 -4.842199e+01
1350000000 -3.608584e-02 -4.903795e+01 -6.457037e+01 -1.364722e+02 -6.664145e+01 -1.385658e+02 6.157671e-03 -4.875606e+01
1360000000 -3.571479e-02 -4.928306e+01 -6.459296e+01 -1.621476e+02 -6.643516e+01 -1.353710e+02 6.957747e-03 -4.916911e+01
1370000000 -3.883889e-02 -4.968713e+01 -6.591871e+01 -1.375788e+02 -6.536785e+01 -1.552948e+02 4.913500e-03 -4.953205e+01
1380000000 -3.738039e-02 -5.008484e+01 -6.640276e+01 -1.409649e+02 -6.569066e+01 -1.543297e+02 1.541481e-03 -4.990688e+01
1390000000 -4.129025e-02 -5.035190e+01 -6.446566e+01 -1.367718e+02 -6.604681e+01 -1.310466e+02 6.004469e-03 -5.025270e+01
1400000000 -3.541876e-02 -5.069907e+01 -6.663670e+01 -1.580228e+02 -6.806260e+01 -1.402794e+02 4.874195e-03 -5.064976e+01
1410000000 -4.239846e-02 -5.131621e+01 -6.625830e+01 -1.489353e+02 -6.643746e+01 -1.541774e+02 1.141639e-03 -5.102877e+01
1420000000 -4.066289e-02 -5.144974e+01 -6.717319e+01 -1.337588e+02 -6.482777e+01 -1.483810e+02 5.850266e-03 -5.141414e+01
1430000000 -4.049878e-02 -5.174537e+01 -6.500761e+01 -1.484438e+02 -6.568791e+01 -1.619408e+02 5.384591e-03 -5.179727e+01
1440000000 -4.168482e-02 -5.229959e+01 -6.499404e+01 -1.485391e+02 -6.674693e+01 -1.465089e+02 6.924131e-03 -5.216389e+01
1450000000 -4.380734e-02 -5.271788e+01 -6.638627e+01 -1.350429e+02 -6.603896e+01 -1.368416e+02 -1.076486e-03 -5.256634e+01
1460000000 -4.556911e-02 -5.300538e+01 -6.458543e+01 -1.491904e+02 -6.545186e+01 -1.387342e+02 6.687749e-04 -5.295695e+01
1470000000 -4.165895e-02 -5.319146e+01 -6.404449e+01 -1.489731e+02 -6.491249e+01 -1.440374e+02 3.247314e-03 -5.331085e+01
1480000000 -4.548019e-02 -5.382837e+01 -6.388741e+01 -1.411268e+02 -6.457973e+01 -1.469286e+02 4.266331e-03 -5.371601e+01
1490000000 -4.721997e-02 -5.396030e+01 -6.386842e+01 -1.472546e+02 -6.384894e+01 -1.508276e+02 8.979586e-04 -5.405692e+01
1500000000 -4.219359e-02 -5.440800e+01 -6.343427e+01 -1.537491e+02 -6.660011e+01 -1.551590e+02 1.784922e-03 -5.446413e+01
1510000000 -4.806138e-02 -5.490059e+01 -6.424008e+01 -1.474264e+02 -6.685156e+01 -1.508462e+02 -4.531777e-03 -5.485424e+01
1520000000 -4.688880e-02 -5.514700e+01 -6.352913e+01 -1.453238e+02 -6.629178e+01 -1.428964e+02 -4.735421e-03 -5.529926e+01
1530000000 -4.928679e-02 -5.538003e+01 -6.333750e+01 -1.324429e+02 -6.527514e+01 -1.315377e+02 -5.163082e-03 -5.569552e+01
1540000000 -5.359808e-02 -5.601418e+01 -6.457236e+01 -1.560043e+02 -6.366832e+01 -1.417258e+02 1.846840e-03 -5.607564e+01
1550000000 -4.942996e-02 -5.618485e+01 -6.418086e+01 -1.410592e+02 -6.549944e+01 -1.352970e+02 -5.228217e-03 -5.643656e+01
1560000000 -5.134602e-02 -5.663123e+01 -6.456341e+01 -1.267459e+02 -6.571770e+01 -1.370673e+02 2.000755e-03 -5.678798e+01
1570000000 -5.398208e-02 -5.702136e+01 -6.350263e+01 -1.520880e+02 -6.379979e+01 -1.456845e+02 -1.284676e-03 -5.719741e+01
1580000000 -5.700732e-02 -5.744748e+01 -6.459790e+01 -1.459646e+02 -6.392860e+01 -1.460648e+02 -7.817057e-03 -5.806472e+01
1590000000 -6.272140e-02 -5.787258e+01 -6.551740e+01 -1.477010e+02 -6.311488e+01 -1.294174e+02 -1.113293e-02 -5.851152e+01
1600000000 -6.105002e-02 -5.828500e+01 -6.312175e+01 -1.311225e+02 -6.304412e+01 -1.376994e+02 -5.070439e-03 -5.887033e+01
1610000000 -6.123248e-02 -5.868248e+01 -6.139725e+01 -1.354466e+02 -6.251069e+01 -1.314212e+02 -7.171202e-03 -5.935747e+01
1620000000 -6.418879e-02 -5.909713e+01 -6.034967e+01 -1.353167e+02 -6.142504e+01 -1.384938e+02 -9.607784e-03 -5.970544e+01
1630000000 -6.856117e-02 -5.996513e+01 -6.049793e+01 -1.487684e+02 -5.971891e+01 -1.435552e+02 -8.139538e-03 -6.001336e+01
1640000000 -7.085259e-02 -6.037982e+01 -6.206350e+01 -1.505332e+02 -6.018973e+01 -1.495923e+02 -7.278460e-03 -6.038237e+01
1650000000 -7.037557e-02 -6.084065e+01 -6.098470e+01 -1.528957e+02 -6.220317e+01 -1.585085e+02 -8.103990e-03 -6.079446e+01
1660000000 -7.117608e-02 -6.096559e+01 -6.197440e+01 -1.510744e+02 -6.139486e+01 -1.499130e+02 -1.417791e-02 -6.137603e+01
1670000000 -7.486957e-02 -6.170963e+01 -6.142340e+01 -1.524372e+02 -6.241337e+01 -1.461096e+02 -1.560448e-02 -6.164798e+01
1680000000 -7.543772e-02 -6.211305e+01 -6.260209e+01 -1.605218e+02 -6.241773e+01 -1.589656e+02 -9.314198e-03 -6.183531e+01
1690000000 -7.440091e-02 -6.218390e+01 -6.302973e+01 -1.608110e+02 -6.092932e+01 -1.550429e+02 -1.116471e-02 -6.230975e+01
1700000000 -7.494821e-02 -6.284185e+01 -6.296434e+01 -1.467186e+02 -6.154855e+01 -1.471736e+02 -9.946847e-03 -6.277061e+01
1710000000 -8.142544e-02 -6.365100e+01 -6.388578e+01 -1.545708e+02 -6.373736e+01 -1.663697e+02 -9.745104e-03 -6.296189e+01
1720000000 -8.121575e-02 -6.343298e+01 -6.346751e+01 -1.458385e+02 -6.374850e+01 -1.504851e+02 -1.236146e-02 -6.345929e+01
1730000000 -8.306088e-02 -6.394620e+01 -6.284293e+01 -1.590542e+02 -6.362629e+01 -1.460182e+02 -1.455522e-02 -6.366789e+01
1740000000 -8.798880e-02 -6.461822e+01 -6.368571e+01 -1.581397e+02 -6.301789e+01 -1.546808e+02 -2.044123e-02 -6.435612e+01
1750000000 -8.854730e-02 -6.489870e+01 -6.531974e+01 -1.440835e+02 -6.302085e+01 -1.381343e+02 -2.151644e-02 -6.458839e+01
1760000000 -8.438201e-02 -6.470028e+01 -6.330352e+01 -1.510236e+02 -6.352173e+01 -1.569090e+02 -1.490184e-02 -6.506831e+01
1770000000 -9.126282e-02 -6.568337e+01 -6.204301e+01 -1.571558e+02 -6.405522e+01 -1.437189e+02 -1.217557e-02 -6.423554e+01
1780000000 -8.989150e-02 -6.617430e+01 -6.333754e+01 -1.488288e+02 -6.494503e+01 -1.441781e+02 -1.877667e-02 -6.593484e+01
1790000000 -8.969004e-02 -6.632300e+01 -6.378121e+01 -1.496637e+02 -6.318678e+01 -1.445321e+02 -2.094756e-02 -6.644976e+01
1800000000 -9.165414e-02 -6.702154e+01 -6.450323e+01 -1.557142e+02 -6.375414e+01 -1.612197e+02 -2.367386e-02 -6.669876e+01
1810000000 -1.009660e-01 -6.763495e+01 -6.326307e+01 -1.485885e+02 -6.420471e+01 -1.556992e+02 -2.152560e-02 -6.721349e+01
1820000000 -9.634028e-02 -6.759941e+01 -6.323733e+01 -1.566617e+02 -6.327711e+01 -1.426052e+02 -2.618150e-02 -6.747174e+01
1830000000 -1.040724e-01 -6.866666e+01 -6.603133e+01 -1.457772e+02 -6.427556e+01 -1.573935e+02 -2.952328e-02 -6.810161e+01
1840000000 -9.803174e-02 -6.855129e+01 -6.412431e+01 -1.423397e+02 -6.694288e+01 -1.554619e+02 -2.476372e-02 -6.854557e+01
1850000000 -1.005523e-01 -6.890144e+01 -6.536479e+01 -1.570276e+02 -6.837389e+01 -1.478662e+02 -2.814671e-02 -6.861700e+01
1860000000 -1.049240e-01 -6.940731e+01 -6.595406e+01 -1.452407e+02 -6.555564e+01 -1.305650e+02 -2.587882e-02 -6.907700e+01
1870000000 -1.124348e-01 -7.007215e+01 -6.445607e+01 -1.352762e+02 -6.776141e+01 -1.349958e+02 -3.102667e-02 -6.982253e+01
1880000000 -1.098080e-01 -7.046658e+01 -6.588927e+01 -1.298574e+02 -6.854943e+01 -1.318934e+02 -3.249966e-02 -6.999861e+01
1890000000 -1.094615e-01 -7.077932e+01 -6.705783e+01 -1.205350e+02 -6.536237e+01 -1.336357e+02 -3.388218e-02 -7.054245e+01
1900000000 -1.124204e-01 -7.114030e+01 -6.669503e+01 -1.457941e+02 -6.526127e+01 -1.013530e+02 -3.330714e-02 -7.115223e+01
1910000000 -1.157957e-01 -7.142925e+01 -6.704936e+01 -1.306535e+02 -7.080299e+01 -1.261732e+02 -3.700909e-02 -7.145038e+01
1920000000 -1.145743e-01 -7.191847e+01 -6.626969e+01 -1.567890e+02 -6.752534e+01 -1.474061e+02 -3.376410e-02 -7.199529e+01
1930000000 -1.208308e-01 -7.246722e+01 -6.855363e+01 -1.329114e+02 -6.588226e+01 -1.608914e+02 -3.916764e-02 -7.248447e+01
1940000000 -1.210529e-01 -7.254248e+01 -6.623840e+01 -1.230237e+02 -7.123666e+01 -1.192674e+02 -4.179689e-02 -7.297253e+01
1950000000 -1.249123e-01 -7.293934e+01 -6.893837e+01 -1.131757e+02 -7.033958e+01 -9.996244e+01 -4.088994e-02 -7.335753e+01
1960000000 -1.210312e-01 -7.351185e+01 -7.261182e+01 -1.014905e+02 -7.032269e+01 -1.168520e+02 -4.228484e-02 -7.401604e+01
1970000000 -1.340905e-01 -7.382241e+01 -7.133031e+01 -8.676716e+01 -7.716866e+01 -1.168719e+02 -4.331926e-02 -7.445010e+01
1980000000 -1.308431e-01 -7.405974e+01 -7.830296e+01 -1.025724e+02 -7.569942e+01 -1.116862e+02 -4.435095e-02 -7.476040e+01
1990000000 -1.328369e-01 -7.453752e+01 -7.847296e+01 -6.996575e+01 -7.132367e+01 -3.459625e+01 -5.814498e-02 -7.532043e+01
2000000000 -1.242163e-01 -7.440129e+01 -7.276240e+01 -2.648572e+01 -6.908779e+01 -1.509554e+01 -6.137039e-02 -7.578735e+01
2010000000 -1.402910e-01 -7.542317e+01 -6.801519e+01 -3.215745e+01 -6.928551e+01 -5.476881e+01 -5.873288e-02 -7.597818e+01
2020000000 -1.453496e-01 -7.588378e+01 -6.856080e+01 -4.135238e+01 -6.733794e+01 -2.813728e+01 -5.906463e-02 -7.673079e+01
2030000000 -1.478421e-01 -7.623367e+01 -6.561787e+01 -2.607035e+01 -6.616174e+01 -1.734459e+01 -6.145969e-02 -7.697854e+01
2040000000 -1.492514e-01 -7.675977e+01 -6.360571e+01 -2.205743e+01 -6.267385e+01 -2.372801e+01 -5.890085e-02 -7.747257e+01
2050000000 -1.538138e-01 -7.721149e+01 -6.117846e+01 -2.255823e+01 -6.157136e+01 -1.328154e+01 -7.077228e-02 -7.798344e+01
2060000000 -1.603613e-01 -7.766981e+01 -6.124475e+01 -1.617165e+01 -6.032277e+01 -1.740838e+01 -6.981493e-02 -7.849083e+01
2070000000 -1.582066e-01 -7.811788e+01 -5.884791e+01 -1.598225e+01 -5.916085e+01 -1.693444e+01 -8.285465e-02 -7.974488e+01
2080000000 -1.627793e-01 -7.857223e+01 -5.731432e+01 -2.013878e+01 -5.693472e+01 -2.572668e+01 -9.088691e-02 -8.060764e+01
2090000000 -1.663459e-01 -7.898977e+01 -5.708959e+01 -2.810149e+01 -5.735431e+01 -3.222503e+01 -8.790091e-02 -8.060621e+01
2100000000 -1.687460e-01 -7.944761e+01 -5.684273e+01 -3.297113e+01 -5.686656e+01 -3.333877e+01 -8.283948e-02 -8.084357e+01
2110000000 -1.696086e-01 -7.990708e+01 -5.585824e+01 -3.421441e+01 -5.648723e+01 -4.177723e+01 -1.004310e-01 -8.205330e+01
2120000000 -1.811148e-01 -8.034525e+01 -5.607459e+01 -3.694579e+01 -5.537811e+01 -4.223623e+01 -9.733616e-02 -8.237144e+01
2130000000 -1.832904e-01 -8.083040e+01 -5.629004e+01 -3.595514e+01 -5.548292e+01 -4.501803e+01 -1.054845e-01 -8.280408e+01
2140000000 -1.854289e-01 -8.127649e+01 -5.727758e+01 -3.813204e+01 -5.608991e+01 -3.784328e+01 -1.023940e-01 -8.297165e+01
2150000000 -1.881601e-01 -8.170289e+01 -5.690007e+01 -2.702131e+01 -5.540393e+01 -3.300105e+01 -1.046891e-01 -8.349239e+01
2160000000 -1.899122e-01 -8.222289e+01 -5.511820e+01 -2.766462e+01 -5.473520e+01 -2.555719e+01 -1.082332e-01 -8.425147e+01
2170000000 -1.970130e-01 -8.266002e+01 -5.506117e+01 -2.431558e+01 -5.410685e+01 -2.076398e+01 -1.217291e-01 -8.512566e+01
2180000000 -1.956885e-01 -8.311698e+01 -5.419572e+01 -2.054541e+01 -5.418016e+01 -2.083243e+01 -1.133184e-01 -8.515939e+01
2190000000 -1.987972e-01 -8.365015e+01 -5.278341e+01 -1.559940e+01 -5.318879e+01 -1.737094e+01 -1.132105e-01 -8.559978e+01
2200000000 -2.078759e-01 -8.408362e+01 -5.257102e+01 -1.847439e+01 -5.188580e+01 -1.981851e+01 -1.249757e-01 -8.631743e+01
2210000000 -2.090939e-01 -8.456567e+01 -5.206025e+01 -1.607393e+01 -5.149630e+01 -1.321181e+01 -1.273417e-01 -8.668680e+01
2220000000 -2.174844e-01 -8.509069e+01 -5.060643e+01 -1.411202e+01 -5.051290e+01 -1.686259e+01 -1.328377e-01 -8.770354e+01
2230000000 -2.188871e-01 -8.560088e+01 -4.993620e+01 -1.298364e+01 -5.020551e+01 -1.740906e+01 -1.221604e-01 -8.689462e+01
2240000000 -2.187966e-01 -8.608647e+01 -4.877297e+01 -1.443781e+01 -4.898131e+01 -1.508684e+01 -1.311984e-01 -8.789571e+01
2250000000 -2.288101e-01 -8.658969e+01 -4.871192e+01 -1.381439e+01 -4.795484e+01 -1.582232e+01 -1.410656e-01 -8.888179e+01
2260000000 -2.377150e-01 -8.712106e+01 -4.774737e+01 -1.288945e+01 -4.714569e+01 -1.388505e+01 -1.459034e-01 -8.919501e+01
2270000000 -2.396284e-01 -8.763697e+01 -4.697862e+01 -1.457459e+01 -4.702415e+01 -1.659155e+01 -1.467649e-01 -8.978608e+01
2280000000 -2.503006e-01 -8.818003e+01 -4.643123e+01 -1.405505e+01 -4.573062e+01 -1.791110e+01 -1.582066e-01 -9.069773e+01
2290000000 -2.487029e-01 -8.868474e+01 -4.562765e+01 -1.580988e+01 -4.547352e+01 -1.699222e+01 -1.578200e-01 -9.066441e+01
2300000000 -2.561593e-01 -8.922202e+01 -4.528899e+01 -1.639155e+01 -4.515860e+01 -1.744477e+01 -1.550222e-01 -9.087376e+01
2310000000 -2.645705e-01 -8.972993e+01 -4.449347e+01 -1.645838e+01 -4.398981e+01 -1.890811e+01 -1.741097e-01 -9.236855e+01
2320000000 -2.705613e-01 -9.030098e+01 -4.396940e+01 -1.500188e+01 -4.353050e+01 -1.875215e+01 -1.865876e-01 -9.286122e+01
2330000000 -2.680494e-01 -9.082566e+01 -4.360927e+01 -1.706085e+01 -4.312756e+01 -1.842476e+01 -1.782331e-01 -9.274606e+01
2340000000 -2.759537e-01 -9.137108e+01 -4.284902e+01 -1.771985e+01 -4.245553e+01 -1.878384e+01 -1.870120e-01 -9.374184e+01
2350000000 -2.837119e-01 -9.194548e+01 -4.216578e+01 -1.792924e+01 -4.192678e+01 -2.013412e+01 -1.927477e-01 -9.417049e+01
2360000000 -2.947127e-01 -9.251814e+01 -4.145476e+01 -1.818746e+01 -4.110172e+01 -2.076136e+01 -2.017956e-01 -9.510355e+01
2370000000 -3.016678e-01 -9.313452e+01 -4.112409e+01 -1.918740e+01 -4.042208e+01 -2.085257e+01 -2.129747e-01 -9.602943e+01
2380000000 -3.099939e-01 -9.369636e+01 -4.047176e+01 -1.934442e+01 -4.007523e+01 -1.999177e+01 -2.189893e-01 -9.600740e+01
2390000000 -3.184659e-01 -9.432137e+01 -3.996374e+01 -2.042683e+01 -3.951797e+01 -2.234904e+01 -2.276321e-01 -9.704730e+01
2400000000 -3.307429e-01 -9.494862e+01 -3.926160e+01 -1.989264e+01 -3.894819e+01 -2.181616e+01 -2.325772e-01 -9.756867e+01
2410000000 -3.397177e-01 -9.552989e+01 -3.865873e+01 -2.114223e+01 -3.844593e+01 -2.180121e+01 -2.394876e-01 -9.765067e+01
2420000000 -3.535402e-01 -9.620426e+01 -3.832384e+01 -2.107293e+01 -3.784398e+01 -2.260891e+01 -2.401379e-01 -9.857895e+01
2430000000 -3.555004e-01 -9.680239e+01 -3.759311e+01 -2.204447e+01 -3.712223e+01 -2.375411e+01 -2.588497e-01 -9.978399e+01
2440000000 -3.672806e-01 -9.747150e+01 -3.691792e+01 -2.204659e+01 -3.668758e+01 -2.435500e+01 -2.509359e-01 -9.948919e+01
2450000000 -3.733215e-01 -9.809796e+01 -3.642439e+01 -2.338473e+01 -3.620060e+01 -2.475006e+01 -2.683309e-01 -1.003765e+02
2460000000 -3.856379e-01 -9.876994e+01 -3.587264e+01 -2.392974e+01 -3.554290e+01 -2.492017e+01 -2.763384e-01 -1.008599e+02
2470000000 -4.011926e-01 -9.940137e+01 -3.532278e+01 -2.423046e+01 -3.498236e+01 -2.541591e+01 -2.858567e-01 -1.014563e+02
2480000000 -4.158409e-01 -1.000999e+02 -3.462964e+01 -2.615347e+01 -3.432329e+01 -2.688396e+01 -3.001000e-01 -1.023902e+02
2490000000 -4.245310e-01 -1.008869e+02 -3.408354e+01 -2.662714e+01 -3.370951e+01 -2.836510e+01 -3.070586e-01 -1.030223e+02
2500000000 -4.363917e-01 -1.015539e+02 -3.347546e+01 -2.766680e+01 -3.353517e+01 -2.779416e+01 -2.987070e-01 -1.026181e+02
2510000000 -4.563764e-01 -1.023200e+02 -3.294590e+01 -2.921425e+01 -3.254025e+01 -3.028841e+01 -3.377554e-01 -1.050438e+02
2520000000 -4.728606e-01 -1.030676e+02 -3.247957e+01 -2.994987e+01 -3.210888e+01 -3.121991e+01 -3.479246e-01 -1.058063e+02
2530000000 -4.770142e-01 -1.037791e+02 -3.186211e+01 -3.057358e+01 -3.176014e+01 -3.161078e+01 -3.385837e-01 -1.054855e+02
2540000000 -4.976338e-01 -1.045252e+02 -3.135613e+01 -3.154313e+01 -3.152072e+01 -3.078422e+01 -3.309562e-01 -1.046856e+02
2550000000 -5.113542e-01 -1.053680e+02 -3.081107e+01 -3.298542e+01 -3.057290e+01 -3.428889e+01 -3.792423e-01 -1.074905e+02
2560000000 -5.244948e-01 -1.061464e+02 -3.031137e+01 -3.403145e+01 -3.006572e+01 -3.494187e+01 -3.885793e-01 -1.083731e+02
2570000000 -5.357425e-01 -1.070115e+02 -2.975023e+01 -3.465401e+01 -2.937099e+01 -3.649003e+01 -4.270154e-01 -1.100363e+02
2580000000 -5.569851e-01 -1.078655e+02 -2.922044e+01 -3.543759e+01 -2.905361e+01 -3.607463e+01 -4.187528e-01 -1.098596e+02
2590000000 -5.772134e-01 -1.087120e+02 -2.865585e+01 -3.654100e+01 -2.841683e+01 -3.757611e+01 -4.405834e-01 -1.108731e+02
2600000000 -5.972070e-01 -1.096601e+02 -2.808710e+01 -3.775313e+01 -2.775426e+01 -3.927722e+01 -4.723020e-01 -1.123799e+02
