!Agilent Technologies,N5227A,US51270477,A.10.00.00

!File generated by LCAF-GAM-UPV software
!josevmart@iteam.upv.es
!S2P File: Measurements: S11, S21, S12, S22:
# Hz S  dB   R 50
1000000000 -7.507396e-03 -3.302046e+01 -9.132516e+01 8.770947e+01 -7.649643e+01 -1.276252e+02 1.509824e-02 -3.316385e+01
1010000000 5.300823e-03 -3.329866e+01 -7.938108e+01 -1.683026e+02 -7.106714e+01 -8.441540e+01 1.578224e-02 -3.356837e+01
1020000000 3.738679e-04 -3.371175e+01 -7.820506e+01 -1.483436e+02 -7.990579e+01 -1.487128e+02 1.326158e-02 -3.381910e+01
1030000000 3.691688e-05 -3.421530e+01 -7.060291e+01 -1.496738e+02 -7.234132e+01 -1.013270e+02 1.210613e-02 -3.422721e+01
1040000000 -6.444453e-03 -3.466169e+01 -7.293951e+01 -1.643445e+02 -7.703530e+01 -1.120040e+02 1.424293e-02 -3.460304e+01
1050000000 -6.485581e-03 -3.454709e+01 -7.305120e+01 1.728765e+02 -8.297701e+01 -7.245612e+01 1.349219e-02 -3.546960e+01
1060000000 -7.140378e-03 -3.502817e+01 -7.663879e+01 -1.210211e+02 -7.436588e+01 -1.394515e+02 1.335900e-02 -3.538735e+01
1070000000 -5.910987e-03 -3.542565e+01 -8.322185e+01 -1.760894e+02 -7.365918e+01 -1.532787e+02 1.288648e-02 -3.553422e+01
1080000000 -6.490794e-03 -3.578148e+01 -7.819230e+01 -1.737498e+02 -7.703597e+01 -1.411764e+02 1.319981e-02 -3.597474e+01
1090000000 -5.223993e-03 -3.604649e+01 -7.422259e+01 -1.086126e+02 -7.867513e+01 -1.458745e+02 2.003693e-02 -3.627252e+01
1100000000 -1.074349e-02 -3.634691e+01 -7.528798e+01 -1.425893e+02 -7.193281e+01 -1.151449e+02 1.814964e-02 -3.662709e+01
1110000000 -1.929091e-03 -3.681028e+01 -8.254848e+01 -7.686887e+01 -8.156512e+01 -1.049114e+02 2.016880e-02 -3.689835e+01
1120000000 -7.624901e-03 -3.712226e+01 -7.219149e+01 -9.838815e+01 -7.598745e+01 -9.527354e+01 1.625063e-02 -3.725061e+01
1130000000 -1.026791e-02 -3.736180e+01 -7.900043e+01 -1.185233e+02 -7.402905e+01 -1.112613e+02 1.486320e-02 -3.764484e+01
1140000000 -1.369705e-02 -3.791721e+01 -7.260278e+01 -8.323045e+01 -7.567572e+01 -7.891412e+01 1.937805e-02 -3.792556e+01
1150000000 -9.358502e-03 -3.819223e+01 -7.212325e+01 -7.598421e+01 -6.955716e+01 -9.679639e+01 2.276463e-02 -3.827137e+01
1160000000 -8.470398e-03 -3.850975e+01 -7.103519e+01 -1.098425e+02 -7.177151e+01 -9.739560e+01 1.580021e-02 -3.859153e+01
1170000000 -8.933198e-03 -3.890813e+01 -7.185506e+01 -8.192697e+01 -6.962582e+01 -1.239222e+02 1.810112e-02 -3.892436e+01
1180000000 -8.615283e-03 -3.912583e+01 -7.013692e+01 -1.267149e+02 -6.972137e+01 -1.176406e+02 2.032334e-02 -3.929704e+01
1190000000 -1.695075e-02 -3.961528e+01 -6.903736e+01 -1.050962e+02 -7.047652e+01 -1.357192e+02 1.487230e-02 -3.941296e+01
1200000000 -1.098316e-02 -3.974980e+01 -7.537012e+01 -1.186362e+02 -7.061450e+01 -9.215302e+01 2.020512e-02 -3.984056e+01
1210000000 -8.767437e-03 -3.997848e+01 -7.384212e+01 -1.519029e+02 -7.187715e+01 -1.237229e+02 1.714019e-02 -4.009593e+01
1220000000 -1.062057e-02 -4.036786e+01 -6.934380e+01 -1.214665e+02 -7.419080e+01 -1.350048e+02 2.138468e-02 -4.053551e+01
1230000000 -8.038142e-03 -4.059254e+01 -7.048222e+01 -1.377422e+02 -6.876604e+01 -1.554064e+02 1.986462e-02 -4.085104e+01
1240000000 -1.192806e-02 -4.090336e+01 -6.940992e+01 -1.483747e+02 -6.940651e+01 -1.401784e+02 2.255217e-02 -4.112852e+01
1250000000 -1.148592e-02 -4.142916e+01 -6.904079e+01 -1.431941e+02 -7.528518e+01 -1.246954e+02 2.037018e-02 -4.148281e+01
1260000000 -1.156101e-02 -4.164045e+01 -7.221893e+01 -1.490823e+02 -7.260360e+01 -1.310753e+02 1.756020e-02 -4.178916e+01
1270000000 -1.309920e-02 -4.187347e+01 -7.381898e+01 -1.639707e+02 -6.900026e+01 -1.451519e+02 1.522771e-02 -4.217581e+01
1280000000 -1.403357e-02 -4.225110e+01 -7.325920e+01 1.650493e+02 -7.371984e+01 -1.235517e+02 1.504193e-02 -4.248011e+01
1290000000 -1.139553e-02 -4.274568e+01 -7.207710e+01 -1.341714e+02 -7.067246e+01 -1.067371e+02 1.858425e-02 -4.284478e+01
1300000000 -1.031255e-02 -4.312222e+01 -6.843767e+01 -1.409824e+02 -6.962370e+01 -1.193540e+02 2.208005e-02 -4.308136e+01
1310000000 -1.532479e-02 -4.328893e+01 -7.072427e+01 -1.345424e+02 -6.972590e+01 -1.441561e+02 1.993917e-02 -4.347137e+01
1320000000 -7.659073e-03 -4.364009e+01 -7.045768e+01 -1.297389e+02 -6.898096e+01 -1.200511e+02 2.135445e-02 -4.380092e+01
1330000000 -1.584585e-02 -4.401566e+01 -7.186866e+01 -1.466997e+02 -7.091298e+01 -1.396340e+02 1.895614e-02 -4.414460e+01
1340000000 -1.440806e-02 -4.423368e+01 -7.014298e+01 -1.275829e+02 -7.105904e+01 -1.474692e+02 2.013330e-02 -4.449500e+01
1350000000 -1.556705e-02 -4.460487e+01 -6.996709e+01 -1.408864e+02 -6.899496e+01 -1.373159e+02 1.867215e-02 -4.487730e+01
1360000000 -9.999157e-03 -4.493951e+01 -6.812996e+01 -1.548446e+02 -6.876648e+01 -1.365623e+02 2.411344e-02 -4.522942e+01
1370000000 -1.037641e-02 -4.523534e+01 -7.071307e+01 -1.435924e+02 -6.913190e+01 -1.504783e+02 1.830072e-02 -4.561457e+01
1380000000 -9.593595e-03 -4.555598e+01 -6.783151e+01 -1.396119e+02 -7.067197e+01 -1.502168e+02 2.212837e-02 -4.596086e+01
1390000000 -1.338481e-02 -4.591462e+01 -6.957499e+01 -1.353022e+02 -6.664858e+01 -1.490639e+02 2.023282e-02 -4.632930e+01
1400000000 -7.848879e-03 -4.623605e+01 -7.034418e+01 -1.443816e+02 -7.029639e+01 -1.243709e+02 2.473258e-02 -4.669422e+01
1410000000 -1.170590e-02 -4.658885e+01 -7.092477e+01 -1.342036e+02 -6.946400e+01 -1.157325e+02 1.947173e-02 -4.751357e+01
1420000000 -1.026713e-02 -4.689832e+01 -6.793657e+01 -1.348493e+02 -6.923001e+01 -1.535004e+02 2.080808e-02 -4.787807e+01
1430000000 -1.482930e-02 -4.721371e+01 -7.142454e+01 -1.495255e+02 -6.740331e+01 -1.424919e+02 2.169865e-02 -4.800107e+01
1440000000 -1.363710e-02 -4.756866e+01 -6.910928e+01 -1.518463e+02 -6.921205e+01 -1.340621e+02 1.566699e-02 -4.868093e+01
1450000000 -1.112818e-02 -4.791485e+01 -6.912868e+01 -1.357110e+02 -6.527942e+01 -1.258657e+02 1.520455e-02 -4.895873e+01
1460000000 -1.303482e-02 -4.821707e+01 -6.646164e+01 -1.537688e+02 -7.261245e+01 -1.354055e+02 1.891504e-02 -4.904386e+01
1470000000 -1.143377e-02 -4.854712e+01 -6.935838e+01 -1.720588e+02 -6.561972e+01 -1.458005e+02 2.411448e-02 -4.966799e+01
1480000000 -1.338997e-02 -4.887001e+01 -6.926173e+01 -1.355652e+02 -7.113941e+01 -1.384491e+02 2.308119e-02 -5.020997e+01
1490000000 -1.388357e-02 -4.918967e+01 -6.708297e+01 -1.373369e+02 -6.715647e+01 -1.458408e+02 1.893904e-02 -5.011089e+01
1500000000 -1.306495e-02 -4.952016e+01 -6.768904e+01 -1.335697e+02 -6.569623e+01 -1.365088e+02 1.923906e-02 -5.051942e+01
1510000000 -1.315905e-02 -4.986555e+01 -6.835152e+01 -1.295684e+02 -6.820649e+01 -1.373420e+02 1.592283e-02 -5.104620e+01
1520000000 -1.328457e-02 -5.020016e+01 -6.766139e+01 -1.509036e+02 -6.752851e+01 -1.539607e+02 1.534250e-02 -5.138725e+01
1530000000 -1.726143e-02 -5.052826e+01 -6.807870e+01 -1.507820e+02 -6.886897e+01 -1.161067e+02 1.630756e-02 -5.172717e+01
1540000000 -1.592723e-02 -5.085861e+01 -6.557763e+01 -1.352598e+02 -7.014742e+01 -1.600711e+02 1.900708e-02 -5.238680e+01
1550000000 -1.488360e-02 -5.119709e+01 -6.863335e+01 -1.411637e+02 -6.854025e+01 -1.223951e+02 1.901548e-02 -5.199717e+01
1560000000 -1.442631e-02 -5.155992e+01 -6.860419e+01 -1.467572e+02 -6.867720e+01 -1.573747e+02 1.976470e-02 -5.273951e+01
1570000000 -1.801692e-02 -5.185361e+01 -6.930954e+01 -1.256398e+02 -6.635085e+01 -1.369052e+02 1.785949e-02 -5.294989e+01
1580000000 -1.797471e-02 -5.217892e+01 -6.882928e+01 -1.527120e+02 -6.374268e+01 -1.460807e+02 1.970888e-02 -5.345950e+01
1590000000 -2.355768e-02 -5.255760e+01 -6.810698e+01 -1.236257e+02 -6.721486e+01 -1.417589e+02 1.622158e-02 -5.375735e+01
1600000000 -2.663979e-02 -5.286253e+01 -6.555826e+01 -1.426755e+02 -6.633271e+01 -1.339462e+02 2.270818e-02 -5.402348e+01
1610000000 -1.607259e-02 -5.319183e+01 -6.417030e+01 -1.289165e+02 -6.376007e+01 -1.416744e+02 1.356264e-02 -5.465908e+01
1620000000 -2.515326e-02 -5.351686e+01 -6.305405e+01 -1.278077e+02 -6.472260e+01 -1.218197e+02 1.704224e-02 -5.468769e+01
1630000000 -2.159852e-02 -5.384504e+01 -6.284353e+01 -1.376194e+02 -6.221965e+01 -1.453305e+02 1.711874e-02 -5.505892e+01
1640000000 -2.293362e-02 -5.416309e+01 -6.305798e+01 -1.568674e+02 -6.391101e+01 -1.455076e+02 2.019576e-02 -5.554605e+01
1650000000 -2.197728e-02 -5.450199e+01 -6.461655e+01 -1.570052e+02 -6.197106e+01 -1.604094e+02 1.969581e-02 -5.580187e+01
1660000000 -2.558030e-02 -5.480899e+01 -6.406363e+01 -1.507670e+02 -6.478006e+01 -1.560335e+02 1.359138e-02 -5.621060e+01
1670000000 -2.225746e-02 -5.519768e+01 -6.804931e+01 -1.567632e+02 -6.342165e+01 -1.504355e+02 1.084996e-02 -5.664523e+01
1680000000 -1.950509e-02 -5.552072e+01 -6.541903e+01 -1.555278e+02 -6.565540e+01 -1.487531e+02 1.899943e-02 -5.677871e+01
1690000000 -2.607965e-02 -5.586353e+01 -6.628473e+01 -1.589781e+02 -6.412130e+01 -1.430021e+02 1.862052e-02 -5.709693e+01
1700000000 -2.060140e-02 -5.622829e+01 -6.499013e+01 -1.540327e+02 -6.545350e+01 -1.608385e+02 1.916479e-02 -5.750927e+01
1710000000 -2.544296e-02 -5.654819e+01 -6.869855e+01 -1.448077e+02 -6.615492e+01 -1.521028e+02 2.044762e-02 -5.785229e+01
1720000000 -2.734784e-02 -5.692039e+01 -6.480280e+01 -1.547176e+02 -6.489361e+01 -1.475693e+02 2.207819e-02 -5.805065e+01
1730000000 -2.764382e-02 -5.727491e+01 -6.806755e+01 -1.463147e+02 -6.775604e+01 -1.592348e+02 1.203057e-02 -5.846325e+01
1740000000 -2.601440e-02 -5.763857e+01 -6.632784e+01 -1.537165e+02 -6.516821e+01 -1.402100e+02 1.240117e-02 -5.870516e+01
1750000000 -2.869445e-02 -5.798784e+01 -6.639411e+01 -1.282249e+02 -6.392986e+01 -1.433899e+02 1.347819e-02 -5.898583e+01
1760000000 -2.994750e-02 -5.834132e+01 -6.414390e+01 -1.439077e+02 -6.564138e+01 -1.406997e+02 1.992515e-02 -5.923623e+01
1770000000 -2.612948e-02 -5.865914e+01 -6.671262e+01 -1.396447e+02 -6.400462e+01 -1.565141e+02 1.473513e-02 -5.942492e+01
1780000000 -2.849714e-02 -5.902031e+01 -6.427127e+01 -1.407181e+02 -6.422180e+01 -1.393364e+02 2.027131e-02 -5.991540e+01
1790000000 -2.889371e-02 -5.942721e+01 -6.479193e+01 -1.439591e+02 -6.390427e+01 -1.525033e+02 1.847286e-02 -6.058743e+01
1800000000 -3.164171e-02 -5.973307e+01 -6.449813e+01 -1.480752e+02 -6.563847e+01 -1.450846e+02 1.364117e-02 -6.089683e+01
1810000000 -3.103103e-02 -6.007844e+01 -6.458153e+01 -1.558186e+02 -6.488240e+01 -1.499297e+02 1.600872e-02 -6.112241e+01
1820000000 -3.274827e-02 -6.042072e+01 -6.442207e+01 -1.433279e+02 -6.337711e+01 -1.402261e+02 1.135540e-02 -6.146526e+01
1830000000 -3.568261e-02 -6.081105e+01 -6.396159e+01 -1.613586e+02 -6.469943e+01 -1.540884e+02 1.426015e-02 -6.168847e+01
1840000000 -3.106106e-02 -6.113795e+01 -6.499428e+01 -1.497081e+02 -6.608420e+01 -1.486210e+02 1.416812e-02 -6.207274e+01
1850000000 -3.411287e-02 -6.175658e+01 -6.416064e+01 -1.500304e+02 -6.414767e+01 -1.388260e+02 1.133376e-02 -6.261967e+01
1860000000 -3.648669e-02 -6.251624e+01 -6.813381e+01 -1.437136e+02 -6.301464e+01 -1.380673e+02 1.388986e-02 -6.299688e+01
1870000000 -4.133654e-02 -6.256562e+01 -6.532547e+01 -1.422641e+02 -6.443397e+01 -1.481152e+02 1.342644e-02 -6.341378e+01
1880000000 -3.835333e-02 -6.290514e+01 -6.564658e+01 -1.392508e+02 -6.357637e+01 -1.580257e+02 1.341665e-02 -6.374433e+01
1890000000 -3.721600e-02 -6.325117e+01 -6.758402e+01 -1.534470e+02 -6.431100e+01 -1.426155e+02 1.302638e-02 -6.411912e+01
1900000000 -3.825822e-02 -6.371970e+01 -6.356694e+01 -1.359558e+02 -6.514462e+01 -1.303034e+02 1.491227e-02 -6.446227e+01
1910000000 -4.049797e-02 -6.388225e+01 -6.492843e+01 -1.514233e+02 -6.251947e+01 -1.386078e+02 1.616629e-02 -6.482496e+01
1920000000 -4.229518e-02 -6.442931e+01 -6.490204e+01 -1.574393e+02 -6.657487e+01 -1.393326e+02 1.563224e-02 -6.518858e+01
1930000000 -4.279222e-02 -6.462937e+01 -6.677779e+01 -1.436687e+02 -6.337907e+01 -1.395703e+02 1.166263e-02 -6.554093e+01
1940000000 -4.366633e-02 -6.495141e+01 -6.448799e+01 -1.359488e+02 -6.492020e+01 -1.362424e+02 9.671053e-03 -6.590271e+01
1950000000 -4.617690e-02 -6.541004e+01 -6.446357e+01 -1.402544e+02 -6.488467e+01 -1.603485e+02 1.159271e-02 -6.624561e+01
1960000000 -4.046276e-02 -6.574945e+01 -6.520036e+01 -1.600978e+02 -6.808770e+01 -1.371102e+02 1.473116e-02 -6.663273e+01
1970000000 -5.034949e-02 -6.595370e+01 -6.496656e+01 -1.438310e+02 -6.600072e+01 -1.620836e+02 1.283460e-02 -6.696027e+01
1980000000 -5.376927e-02 -6.654800e+01 -6.506837e+01 -1.543157e+02 -6.405613e+01 -1.499198e+02 1.724734e-02 -6.731207e+01
1990000000 -5.033671e-02 -6.696384e+01 -6.692561e+01 -1.522361e+02 -6.948311e+01 -1.502645e+02 5.938368e-03 -6.768315e+01
2000000000 -5.312264e-02 -6.746350e+01 -6.582501e+01 -1.540901e+02 -6.685753e+01 -1.540069e+02 4.625115e-03 -6.798775e+01
2010000000 -5.755172e-02 -6.789657e+01 -6.728548e+01 -1.474638e+02 -6.884854e+01 -1.496898e+02 6.408306e-03 -6.831231e+01
2020000000 -6.041520e-02 -6.801906e+01 -6.757206e+01 -1.501516e+02 -6.716409e+01 -1.432882e+02 1.123200e-02 -6.867236e+01
2030000000 -6.716748e-02 -6.886949e+01 -6.600259e+01 -1.330083e+02 -7.019125e+01 -1.239372e+02 3.658941e-03 -6.902467e+01
2040000000 -6.286088e-02 -6.899616e+01 -7.020400e+01 -1.401865e+02 -7.015820e+01 -1.135016e+02 7.631069e-03 -6.943060e+01
2050000000 -5.873770e-02 -6.897805e+01 -7.397395e+01 -1.313576e+02 -7.184990e+01 -9.963247e+01 3.606366e-03 -6.977987e+01
2060000000 -7.044417e-02 -6.998453e+01 -7.667541e+01 -1.343898e+02 -7.156812e+01 -1.463105e+02 1.297323e-03 -7.017332e+01
2070000000 -6.641550e-02 -7.001508e+01 -7.279902e+01 -1.300263e+02 -6.912252e+01 -1.081917e+02 -4.770877e-05 -7.053941e+01
2080000000 -6.372717e-02 -7.035523e+01 -7.162553e+01 -8.608791e+01 -6.563238e+01 -7.965665e+01 -3.891967e-03 -7.093797e+01
2090000000 -6.967524e-02 -7.108621e+01 -6.363263e+01 -7.728680e+01 -6.603622e+01 -9.030466e+01 2.278038e-04 -7.129283e+01
2100000000 -6.934524e-02 -7.093358e+01 -6.361061e+01 -7.719704e+01 -6.359861e+01 -8.327011e+01 2.746959e-03 -7.167213e+01
2110000000 -6.918202e-02 -7.127572e+01 -6.353099e+01 -8.452621e+01 -6.154362e+01 -9.756281e+01 -5.158770e-03 -7.205555e+01
2120000000 -8.344190e-02 -7.223422e+01 -6.296080e+01 -1.100697e+02 -6.265891e+01 -1.031904e+02 -1.793942e-03 -7.238552e+01
2130000000 -7.048159e-02 -7.201812e+01 -6.203481e+01 -1.109582e+02 -6.151575e+01 -1.016931e+02 -6.062916e-03 -7.278627e+01
2140000000 -7.597397e-02 -7.247867e+01 -6.231130e+01 -1.115886e+02 -6.055830e+01 -1.179299e+02 -5.563637e-03 -7.318362e+01
2150000000 -8.278579e-02 -7.339217e+01 -6.256741e+01 -1.302483e+02 -6.138920e+01 -1.251595e+02 -6.973690e-03 -7.355740e+01
2160000000 -7.917306e-02 -7.307315e+01 -6.246325e+01 -1.231991e+02 -6.251469e+01 -1.284516e+02 -3.905310e-03 -7.397182e+01
2170000000 -8.362918e-02 -7.401010e+01 -6.379302e+01 -1.301161e+02 -6.252954e+01 -1.265191e+02 -1.366017e-02 -7.436211e+01
2180000000 -8.260121e-02 -7.448219e+01 -6.631984e+01 -1.391399e+02 -6.357705e+01 -1.165019e+02 -7.940171e-03 -7.477302e+01
2190000000 -7.933635e-02 -7.439580e+01 -6.953255e+01 -1.212820e+02 -6.547595e+01 -1.047630e+02 -9.827031e-03 -7.521534e+01
2200000000 -8.725488e-02 -7.524624e+01 -6.798741e+01 -1.246330e+02 -6.948673e+01 -1.170671e+02 -1.249115e-02 -7.557629e+01
2210000000 -8.978081e-02 -7.566254e+01 -6.654871e+01 -1.201465e+02 -6.719463e+01 -1.222204e+02 -1.143403e-02 -7.596873e+01
2220000000 -8.837618e-02 -7.569572e+01 -6.805354e+01 -9.394426e+01 -6.936024e+01 -1.086749e+02 -1.427883e-02 -7.636674e+01
2230000000 -9.311108e-02 -7.654585e+01 -7.043742e+01 -1.042892e+02 -7.233479e+01 -8.152771e+01 -1.607960e-02 -7.677119e+01
2240000000 -8.953153e-02 -7.671906e+01 -7.151639e+01 -7.405557e+01 -7.117941e+01 -8.014807e+01 -1.667536e-02 -7.718813e+01
2250000000 -9.204419e-02 -7.681891e+01 -7.414375e+01 -6.139173e+01 -6.791042e+01 -1.041833e+02 -1.388405e-02 -7.756561e+01
2260000000 -1.044036e-01 -7.779903e+01 -6.894889e+01 -5.581609e+01 -7.019696e+01 -5.788347e+01 -2.174376e-02 -7.796772e+01
2270000000 -1.013114e-01 -7.816628e+01 -7.139091e+01 -6.793169e+01 -7.212765e+01 -2.957415e+01 -2.286666e-02 -7.837580e+01
2280000000 -1.054434e-01 -7.813106e+01 -6.718398e+01 -4.112155e+01 -6.909745e+01 -5.825188e+01 -2.721092e-02 -7.883174e+01
2290000000 -1.055685e-01 -7.906265e+01 -6.467480e+01 -4.177837e+01 -6.619845e+01 -3.204016e+01 -2.843024e-02 -7.926573e+01
2300000000 -1.056373e-01 -7.902219e+01 -6.585769e+01 -2.508430e+01 -6.354686e+01 -3.064083e+01 -2.720803e-02 -7.968547e+01
2310000000 -1.103405e-01 -7.928635e+01 -6.501591e+01 -2.785094e+01 -6.339185e+01 -3.096244e+01 -2.715077e-02 -8.008344e+01
2320000000 -1.202803e-01 -8.044981e+01 -6.105382e+01 -3.745531e+01 -6.248140e+01 -2.439057e+01 -3.497319e-02 -8.055385e+01
2330000000 -1.056779e-01 -8.030644e+01 -6.176722e+01 -1.071514e+01 -6.132317e+01 -2.694814e+01 -2.924688e-02 -8.092700e+01
2340000000 -1.094433e-01 -8.064037e+01 -6.064344e+01 -2.295694e+01 -6.155952e+01 -2.542243e+01 -4.441556e-02 -8.232032e+01
2350000000 -1.155044e-01 -8.128764e+01 -6.095578e+01 -1.906738e+01 -6.095847e+01 -2.411240e+01 -4.329732e-02 -8.234288e+01
2360000000 -1.188665e-01 -8.155683e+01 -5.890247e+01 -1.897615e+01 -6.007737e+01 -9.585882e+00 -4.552223e-02 -8.284639e+01
2370000000 -1.264405e-01 -8.241025e+01 -5.835214e+01 -1.949326e+01 -5.738785e+01 -1.470411e+01 -4.893535e-02 -8.340168e+01
2380000000 -1.250111e-01 -8.259083e+01 -5.746837e+01 -1.617642e+01 -5.671965e+01 -1.715581e+01 -5.255278e-02 -8.339598e+01
2390000000 -1.285691e-01 -8.299712e+01 -5.738403e+01 -1.414132e+01 -5.652915e+01 -1.515981e+01 -5.743184e-02 -8.443236e+01
2400000000 -1.379357e-01 -8.351978e+01 -5.691174e+01 -1.667650e+01 -5.477710e+01 -9.318414e+00 -5.901950e-02 -8.478747e+01
2410000000 -1.562145e-01 -8.541506e+01 -5.423722e+01 -1.301139e+01 -5.516580e+01 -1.135800e+01 -6.042291e-02 -8.487727e+01
2420000000 -1.570276e-01 -8.529694e+01 -5.374326e+01 -1.180361e+01 -5.453567e+01 -8.299081e+00 -6.078248e-02 -8.592541e+01
2430000000 -1.521683e-01 -8.521668e+01 -5.266156e+01 -1.256219e+01 -5.260801e+01 -1.241164e+01 -6.245037e-02 -8.598268e+01
2440000000 -1.583461e-01 -8.605331e+01 -5.231125e+01 -1.340930e+01 -5.289297e+01 -1.368669e+01 -5.759586e-02 -8.597042e+01
2450000000 -1.501684e-01 -8.595132e+01 -5.153107e+01 -1.076585e+01 -5.147482e+01 -1.158832e+01 -6.965684e-02 -8.720502e+01
2460000000 -1.649807e-01 -8.693102e+01 -5.094096e+01 -1.225763e+01 -5.062518e+01 -9.992667e+00 -7.186224e-02 -8.744243e+01
2470000000 -1.804727e-01 -8.774883e+01 -5.047382e+01 -1.308935e+01 -5.054514e+01 -1.002835e+01 -6.605297e-02 -8.741650e+01
2480000000 -1.744239e-01 -8.750509e+01 -4.947851e+01 -1.386187e+01 -4.966233e+01 -9.495695e+00 -8.243982e-02 -8.879753e+01
2490000000 -1.767148e-01 -8.836835e+01 -4.826454e+01 -1.249709e+01 -4.888062e+01 -1.425310e+01 -7.784529e-02 -8.861000e+01
2500000000 -1.927154e-01 -8.943421e+01 -4.769065e+01 -1.577256e+01 -4.821350e+01 -1.606585e+01 -7.483336e-02 -8.883257e+01
2510000000 -1.886483e-01 -8.910872e+01 -4.763823e+01 -2.038165e+01 -4.811016e+01 -1.554741e+01 -8.402006e-02 -8.993841e+01
2520000000 -2.055477e-01 -9.032617e+01 -4.669733e+01 -1.806875e+01 -4.709874e+01 -1.758624e+01 -7.922554e-02 -9.007388e+01
2530000000 -2.002136e-01 -9.059358e+01 -4.581550e+01 -1.944478e+01 -4.689838e+01 -1.552861e+01 -7.548915e-02 -9.010671e+01
2540000000 -1.990055e-01 -9.037604e+01 -4.611169e+01 -1.716311e+01 -4.565136e+01 -1.671920e+01 -8.422622e-02 -9.119044e+01
2550000000 -2.044177e-01 -9.124495e+01 -4.574735e+01 -2.040174e+01 -4.556842e+01 -1.887765e+01 -8.568814e-02 -9.153288e+01
2560000000 -2.101055e-01 -9.193986e+01 -4.493002e+01 -2.045563e+01 -4.525421e+01 -2.058021e+01 -8.665886e-02 -9.190023e+01
2570000000 -1.981409e-01 -9.180830e+01 -4.503054e+01 -2.028228e+01 -4.429674e+01 -2.259818e+01 -1.213131e-01 -9.486723e+01
2580000000 -2.274131e-01 -9.364960e+01 -4.368788e+01 -2.239849e+01 -4.477504e+01 -1.938465e+01 -8.727707e-02 -9.217275e+01
2590000000 -2.097877e-01 -9.310197e+01 -4.389562e+01 -1.743308e+01 -4.381120e+01 -2.025159e+01 -9.363669e-02 -9.369933e+01
2600000000 -2.088586e-01 -9.324834e+01 -4.330428e+01 -2.001688e+01 -4.298447e+01 -2.018019e+01 -1.077074e-01 -9.482497e+01
2610000000 -2.321556e-01 -9.465122e+01 -4.268141e+01 -1.993617e+01 -4.313126e+01 -1.752056e+01 -1.021504e-01 -9.394748e+01
