!Agilent Technologies,N5227A,US51270477,A.10.00.00

!File generated by LCAF-GAM-UPV software
!josevmart@iteam.upv.es
!S2P File: Measurements: S11, S21, S12, S22:
# Hz S  dB   R 50
1000000000 -3.746290e-04 -3.025733e+01 -7.715432e+01 -1.582707e+02 -8.056931e+01 -1.221655e+02 1.853801e-02 -3.049890e+01
1010000000 1.026040e-02 -3.038174e+01 -7.665088e+01 -1.283940e+02 -7.373709e+01 -1.320707e+02 1.771326e-02 -3.069514e+01
1020000000 2.123436e-03 -3.084223e+01 -9.932368e+01 1.014443e+02 -7.883887e+01 -1.207816e+01 1.880973e-02 -3.115854e+01
1030000000 8.669931e-03 -3.106848e+01 -8.006998e+01 -5.716734e+01 -7.495153e+01 -1.296962e+02 1.878698e-02 -3.138246e+01
1040000000 5.602509e-03 -3.121758e+01 -8.268056e+01 7.904406e+01 -8.807790e+01 5.917433e+00 2.097374e-02 -3.178111e+01
1050000000 2.940034e-03 -3.153887e+01 -8.386697e+01 4.599076e+01 -8.030148e+01 -1.104192e+02 1.575959e-02 -3.202583e+01
1060000000 2.725379e-03 -3.202610e+01 -8.212566e+01 -9.362965e+01 -8.590796e+01 5.788685e+00 1.614267e-02 -3.239384e+01
1070000000 3.384045e-03 -3.236066e+01 -8.026338e+01 -1.570599e+02 -8.341914e+01 1.682405e+02 2.017674e-02 -3.268063e+01
1080000000 3.460935e-03 -3.252152e+01 -7.669543e+01 -1.642524e+02 -8.718853e+01 1.167557e+02 1.936612e-02 -3.288073e+01
1090000000 1.998091e-03 -3.285928e+01 -8.571966e+01 2.085974e+01 -8.722801e+01 7.202386e+01 2.409132e-02 -3.326079e+01
1100000000 8.638590e-04 -3.316960e+01 -7.287769e+01 -2.561510e+01 -7.957874e+01 7.920198e+01 2.326849e-02 -3.356035e+01
1110000000 7.991582e-04 -3.346557e+01 -7.571531e+01 -2.023895e+01 -8.982066e+01 -8.898199e+01 2.331842e-02 -3.373180e+01
1120000000 3.351554e-03 -3.370180e+01 -8.344593e+01 3.568791e+01 -7.714347e+01 -1.010263e+02 1.923659e-02 -3.406316e+01
1130000000 -2.426123e-03 -3.403732e+01 -7.976974e+01 -1.417389e+02 -7.776272e+01 -1.004265e+02 2.038444e-02 -3.449171e+01
1140000000 -1.828172e-03 -3.434100e+01 -8.986033e+01 -1.430157e+01 -7.801561e+01 -1.300298e+02 2.383227e-02 -3.461984e+01
1150000000 3.819235e-03 -3.462905e+01 -7.904539e+01 -7.286084e+01 -7.092202e+01 -1.194349e+02 2.398892e-02 -3.494017e+01
1160000000 2.971853e-03 -3.493314e+01 -7.456370e+01 -7.860240e+01 -7.585402e+01 -9.713001e+01 2.372850e-02 -3.529144e+01
1170000000 1.348460e-03 -3.522806e+01 -7.497411e+01 -1.162446e+02 -8.028551e+01 -5.912377e+01 2.498279e-02 -3.558023e+01
1180000000 3.018063e-03 -3.552730e+01 -7.097645e+01 -1.477586e+02 -7.118456e+01 -1.248695e+02 2.318750e-02 -3.591798e+01
1190000000 -2.311384e-03 -3.582385e+01 -7.400185e+01 -1.171629e+02 -6.941638e+01 -1.241410e+02 2.111993e-02 -3.623510e+01
1200000000 3.858161e-03 -3.610608e+01 -7.348769e+01 -7.280712e+01 -8.302473e+01 -6.549132e+01 2.927479e-02 -3.655498e+01
1210000000 5.890000e-03 -3.641040e+01 -7.537999e+01 -1.636211e+02 -7.274844e+01 -1.257947e+02 2.969417e-02 -3.708339e+01
1220000000 7.313535e-03 -3.670975e+01 -7.070946e+01 -1.525453e+02 -7.290417e+01 -1.327555e+02 2.813379e-02 -3.717490e+01
1230000000 7.203484e-03 -3.701201e+01 -7.253795e+01 -1.460521e+02 -7.327328e+01 -9.599049e+01 2.700722e-02 -3.758565e+01
1240000000 5.750473e-04 -3.730625e+01 -7.112704e+01 -1.513883e+02 -7.370693e+01 -1.761017e+02 3.009348e-02 -3.800964e+01
1250000000 5.628090e-03 -3.758317e+01 -7.444753e+01 -1.368426e+02 -7.672010e+01 -1.713888e+02 2.762200e-02 -3.808166e+01
1260000000 3.762349e-03 -3.790922e+01 -7.386568e+01 -1.725357e+02 -7.557920e+01 -1.476127e+02 2.126137e-02 -3.859883e+01
1270000000 4.744921e-03 -3.819137e+01 -7.175984e+01 -1.174544e+02 -7.716446e+01 -1.794191e+02 2.497643e-02 -3.881924e+01
1280000000 1.662407e-03 -3.850135e+01 -8.829960e+01 -1.657228e+01 -7.951757e+01 -1.376500e+02 2.586371e-02 -3.910064e+01
1290000000 7.239258e-03 -3.877155e+01 -7.503866e+01 -1.499963e+02 -7.397983e+01 -1.685629e+02 2.468466e-02 -3.953976e+01
1300000000 1.032733e-02 -3.906955e+01 -7.353434e+01 -1.169027e+02 -7.352504e+01 -1.331846e+02 3.133605e-02 -3.988079e+01
1310000000 1.287921e-03 -3.938931e+01 -7.191003e+01 -1.236160e+02 -7.645963e+01 -1.138327e+02 2.470160e-02 -3.999765e+01
1320000000 2.637837e-03 -3.969480e+01 -7.319200e+01 -1.222170e+02 -9.084081e+01 -1.523292e+02 3.141019e-02 -4.031879e+01
1330000000 6.027824e-04 -3.996568e+01 -8.208189e+01 -1.177702e+02 -7.069727e+01 -1.331369e+02 2.814630e-02 -4.088452e+01
1340000000 6.894758e-03 -4.025317e+01 -7.093123e+01 -1.519878e+02 -7.026357e+01 -1.460051e+02 2.847052e-02 -4.080486e+01
1350000000 1.044624e-03 -4.055452e+01 -6.946530e+01 -1.540817e+02 -7.254732e+01 -1.535978e+02 2.976389e-02 -4.121427e+01
1360000000 6.823357e-03 -4.084927e+01 -6.989360e+01 -1.512658e+02 -7.607509e+01 -1.072973e+02 3.411770e-02 -4.150148e+01
1370000000 4.003304e-03 -4.114228e+01 -7.363445e+01 -1.279871e+02 -7.085904e+01 -1.471660e+02 3.141204e-02 -4.210675e+01
1380000000 6.518921e-03 -4.143851e+01 -7.466457e+01 -1.313080e+02 -7.259498e+01 -1.506335e+02 3.340909e-02 -4.227518e+01
1390000000 8.270423e-03 -4.173860e+01 -7.046075e+01 -1.241804e+02 -7.103493e+01 -1.354456e+02 2.915777e-02 -4.256457e+01
1400000000 7.571938e-03 -4.202801e+01 -8.122762e+01 -1.507670e+02 -6.796635e+01 -1.122576e+02 3.316500e-02 -4.304462e+01
1410000000 8.073664e-03 -4.233003e+01 -7.325790e+01 -1.326774e+02 -7.046295e+01 -1.410850e+02 3.255146e-02 -4.317974e+01
1420000000 5.311515e-03 -4.265150e+01 -7.650377e+01 -9.444792e+01 -7.049025e+01 -1.442828e+02 3.286039e-02 -4.360304e+01
1430000000 5.441555e-03 -4.292295e+01 -6.871820e+01 -1.206409e+02 -7.144350e+01 -1.588714e+02 3.333730e-02 -4.393554e+01
1440000000 8.938486e-03 -4.324907e+01 -7.202219e+01 -1.099996e+02 -7.313895e+01 -1.529337e+02 3.242294e-02 -4.416004e+01
1450000000 6.739894e-03 -4.355220e+01 -7.217758e+01 -1.385089e+02 -7.098785e+01 -1.671358e+02 2.929910e-02 -4.455856e+01
1460000000 8.030329e-03 -4.384485e+01 -7.389236e+01 -1.393320e+02 -7.010703e+01 -1.443367e+02 2.852743e-02 -4.494833e+01
1470000000 8.137863e-03 -4.414497e+01 -7.130773e+01 -1.470708e+02 -7.480516e+01 -1.300138e+02 3.553340e-02 -4.513794e+01
1480000000 6.627079e-03 -4.447574e+01 -7.222984e+01 -1.602862e+02 -7.996777e+01 -1.117381e+02 3.924408e-02 -4.550423e+01
1490000000 9.928622e-03 -4.474397e+01 -7.387877e+01 -1.355321e+02 -6.800307e+01 -1.502680e+02 3.648626e-02 -4.568377e+01
1500000000 9.253152e-03 -4.504984e+01 -7.201314e+01 -1.257930e+02 -7.220440e+01 -1.264102e+02 3.385960e-02 -4.615046e+01
1510000000 8.954397e-03 -4.536314e+01 -8.017793e+01 -1.330513e+02 -7.925164e+01 -1.415004e+02 3.052503e-02 -4.625471e+01
1520000000 6.467096e-03 -4.567416e+01 -6.932033e+01 -1.490579e+02 -7.007733e+01 -1.384144e+02 3.345002e-02 -4.655021e+01
1530000000 6.576438e-03 -4.598988e+01 -6.981760e+01 -1.100005e+02 -7.475340e+01 -1.417880e+02 3.192682e-02 -4.682103e+01
1540000000 4.152889e-03 -4.628462e+01 -7.184518e+01 -1.479867e+02 -7.022099e+01 -1.437063e+02 3.389782e-02 -4.719765e+01
1550000000 7.904191e-03 -4.658162e+01 -6.929915e+01 -1.423455e+02 -7.380448e+01 -1.182937e+02 3.358939e-02 -4.762670e+01
1560000000 1.170094e-02 -4.692439e+01 -7.775719e+01 -1.488344e+02 -7.380794e+01 -1.449733e+02 3.435478e-02 -4.783426e+01
1570000000 7.810244e-03 -4.721656e+01 -7.160094e+01 -1.143148e+02 -6.820874e+01 -1.260115e+02 3.259921e-02 -4.809551e+01
1580000000 4.095885e-03 -4.750583e+01 -6.984061e+01 -1.333931e+02 -7.137173e+01 -1.434282e+02 3.644517e-02 -4.841144e+01
1590000000 7.371795e-04 -4.784275e+01 -7.298077e+01 -1.176087e+02 -6.802534e+01 -1.188821e+02 3.621929e-02 -4.811811e+01
1600000000 1.117837e-03 -4.813741e+01 -7.400708e+01 -1.035629e+02 -6.634103e+01 -1.355451e+02 3.893491e-02 -4.903539e+01
1610000000 5.027036e-03 -4.874189e+01 -6.651739e+01 -1.229385e+02 -6.617408e+01 -1.149105e+02 3.404542e-02 -4.927157e+01
1620000000 -1.349591e-03 -4.926547e+01 -6.574802e+01 -1.338077e+02 -6.795477e+01 -1.235577e+02 3.782134e-02 -4.975165e+01
1630000000 1.016402e-03 -4.937037e+01 -6.380886e+01 -1.493657e+02 -6.593123e+01 -1.347552e+02 3.906324e-02 -5.003228e+01
1640000000 -3.612745e-04 -4.982526e+01 -6.734344e+01 -1.530152e+02 -6.849646e+01 -1.382727e+02 4.144306e-02 -5.027576e+01
1650000000 1.797648e-03 -5.003107e+01 -6.406774e+01 -1.472978e+02 -6.667938e+01 -1.585824e+02 4.081019e-02 -5.056259e+01
1660000000 1.778817e-03 -5.038976e+01 -6.682697e+01 -1.590012e+02 -6.710497e+01 -1.634460e+02 3.116973e-02 -5.090511e+01
1670000000 -1.244089e-03 -5.074396e+01 -6.857641e+01 -1.552380e+02 -6.657412e+01 -1.480226e+02 3.355237e-02 -5.120555e+01
1680000000 5.109725e-03 -5.115249e+01 -7.069535e+01 -1.366617e+02 -6.721567e+01 -1.602921e+02 3.904771e-02 -5.153729e+01
1690000000 2.362361e-03 -5.119757e+01 -7.053522e+01 -1.464688e+02 -7.015530e+01 -1.425148e+02 4.202586e-02 -5.179697e+01
1700000000 5.477852e-03 -5.159386e+01 -6.815649e+01 -1.506681e+02 -6.729075e+01 -1.587648e+02 4.020441e-02 -5.210133e+01
1710000000 -1.256396e-03 -5.196220e+01 -6.444054e+01 -1.435150e+02 -7.045802e+01 -1.255692e+02 4.124808e-02 -5.238942e+01
1720000000 -7.803295e-04 -5.235097e+01 -6.877096e+01 -1.431350e+02 -7.057357e+01 -1.325195e+02 3.908707e-02 -5.271294e+01
1730000000 1.221386e-03 -5.250811e+01 -6.822160e+01 -1.475293e+02 -6.657825e+01 -1.369278e+02 3.469469e-02 -5.299959e+01
1740000000 -1.809712e-04 -5.275007e+01 -6.607988e+01 -1.606327e+02 -6.960795e+01 -1.560855e+02 3.712310e-02 -5.336377e+01
1750000000 1.576010e-03 -5.303316e+01 -6.659332e+01 -1.347157e+02 -6.507632e+01 -1.177007e+02 3.727290e-02 -5.366443e+01
1760000000 -4.383117e-04 -5.341582e+01 -6.767178e+01 -1.377694e+02 -6.637236e+01 -1.472129e+02 4.249340e-02 -5.394428e+01
1770000000 2.411879e-03 -5.359889e+01 -6.650943e+01 -1.569756e+02 -6.733271e+01 -1.342133e+02 3.636676e-02 -5.425248e+01
1780000000 2.375019e-03 -5.406356e+01 -6.717503e+01 -1.522460e+02 -6.842086e+01 -1.367966e+02 4.147723e-02 -5.455576e+01
1790000000 6.253998e-03 -5.420252e+01 -6.634613e+01 -1.329207e+02 -6.783511e+01 -1.616627e+02 4.276370e-02 -5.487023e+01
1800000000 -3.078285e-03 -5.525121e+01 -6.456717e+01 -1.577932e+02 -6.915675e+01 -1.406543e+02 3.718812e-02 -5.521401e+01
1810000000 3.066877e-04 -5.510477e+01 -6.624188e+01 -1.333584e+02 -6.509563e+01 -1.434105e+02 4.405428e-02 -5.552950e+01
1820000000 1.265923e-03 -5.530140e+01 -6.770014e+01 -1.507123e+02 -6.301915e+01 -1.488149e+02 3.781238e-02 -5.582309e+01
1830000000 2.196366e-03 -5.552095e+01 -6.771608e+01 -1.426861e+02 -6.550725e+01 -1.467222e+02 3.565045e-02 -5.608862e+01
1840000000 6.815229e-03 -5.580827e+01 -7.122091e+01 -1.240331e+02 -6.804412e+01 -1.519401e+02 4.394302e-02 -5.641132e+01
1850000000 3.289788e-03 -5.621738e+01 -6.696037e+01 -1.496384e+02 -6.483975e+01 -1.672787e+02 3.735812e-02 -5.673628e+01
1860000000 -2.014857e-04 -5.637774e+01 -6.568391e+01 -1.473642e+02 -6.588655e+01 -1.401818e+02 4.090659e-02 -5.704474e+01
1870000000 -9.009113e-04 -5.674047e+01 -6.466487e+01 -1.471363e+02 -6.778596e+01 -1.498988e+02 4.389901e-02 -5.739376e+01
1880000000 1.758327e-03 -5.704294e+01 -6.606039e+01 -1.432395e+02 -6.789269e+01 -1.375381e+02 4.272845e-02 -5.768828e+01
1890000000 3.709000e-03 -5.727659e+01 -6.647058e+01 -1.478200e+02 -6.453453e+01 -1.416442e+02 4.349478e-02 -5.800161e+01
1900000000 5.456327e-03 -5.768311e+01 -6.474893e+01 -1.504308e+02 -6.525407e+01 -1.303846e+02 4.598866e-02 -5.830381e+01
1910000000 1.077926e-03 -5.810609e+01 -6.775789e+01 -1.439066e+02 -6.427940e+01 -1.368308e+02 4.504541e-02 -5.860579e+01
1920000000 1.100887e-03 -5.825843e+01 -6.276958e+01 -1.379523e+02 -6.453590e+01 -1.366638e+02 4.230638e-02 -5.892283e+01
1930000000 2.294818e-03 -5.859606e+01 -6.747701e+01 -1.372099e+02 -6.337374e+01 -1.624339e+02 4.630375e-02 -5.926109e+01
1940000000 -9.380062e-04 -5.891739e+01 -6.361502e+01 -1.381883e+02 -6.420249e+01 -1.630706e+02 3.869475e-02 -5.956873e+01
1950000000 -6.383540e-04 -5.922018e+01 -6.643195e+01 -1.512388e+02 -6.403397e+01 -1.398851e+02 4.393264e-02 -5.989462e+01
1960000000 1.946836e-03 -5.945686e+01 -6.565501e+01 -1.584904e+02 -6.599078e+01 -1.544055e+02 4.780959e-02 -6.023196e+01
1970000000 -3.554014e-03 -5.992837e+01 -6.305334e+01 -1.522726e+02 -6.613933e+01 -1.639729e+02 4.670658e-02 -6.052057e+01
1980000000 -6.165558e-03 -6.021464e+01 -6.646497e+01 -1.607152e+02 -6.608697e+01 -1.292280e+02 5.338346e-02 -6.085192e+01
1990000000 -3.654602e-04 -6.055910e+01 -6.685386e+01 -1.373842e+02 -6.439047e+01 -1.577385e+02 4.188031e-02 -6.118951e+01
2000000000 -3.983250e-03 -6.131279e+01 -6.427654e+01 -1.544346e+02 -6.549999e+01 -1.466624e+02 3.821145e-02 -6.147511e+01
2010000000 -5.848343e-03 -6.142772e+01 -6.490830e+01 -1.477943e+02 -6.564360e+01 -1.461596e+02 4.184408e-02 -6.181499e+01
2020000000 -7.283289e-03 -6.159290e+01 -6.497292e+01 -1.447653e+02 -6.844098e+01 -1.322080e+02 4.742394e-02 -6.216118e+01
2030000000 -9.483099e-03 -6.202362e+01 -6.627814e+01 -1.477886e+02 -6.778921e+01 -1.559807e+02 4.119460e-02 -6.247312e+01
2040000000 -7.439577e-03 -6.228691e+01 -6.695139e+01 -1.490703e+02 -6.537107e+01 -1.488965e+02 4.539527e-02 -6.281723e+01
2050000000 -1.008709e-02 -6.254902e+01 -6.469054e+01 -1.522082e+02 -6.707603e+01 -1.317889e+02 4.341261e-02 -6.313956e+01
2060000000 -1.375871e-02 -6.296683e+01 -6.428405e+01 -1.388580e+02 -6.666781e+01 -1.594554e+02 4.525643e-02 -6.348589e+01
2070000000 -1.205180e-02 -6.331366e+01 -6.627130e+01 -1.573400e+02 -6.659181e+01 -1.226952e+02 4.157217e-02 -6.382880e+01
2080000000 -8.819751e-03 -6.360962e+01 -6.509760e+01 -1.138901e+02 -6.472675e+01 -1.229530e+02 3.958894e-02 -6.417153e+01
2090000000 -1.172013e-02 -6.398077e+01 -6.384386e+01 -1.217691e+02 -6.443451e+01 -1.073383e+02 3.762892e-02 -6.480524e+01
2100000000 -1.401884e-02 -6.431945e+01 -6.272875e+01 -1.191836e+02 -6.183285e+01 -1.154086e+02 4.262332e-02 -6.510393e+01
2110000000 -1.304000e-02 -6.465190e+01 -6.226297e+01 -1.192277e+02 -6.273556e+01 -1.145589e+02 3.482288e-02 -6.567666e+01
2120000000 -2.210095e-02 -6.559216e+01 -6.085986e+01 -1.200953e+02 -5.972754e+01 -1.123361e+02 4.072754e-02 -6.583189e+01
2130000000 -1.865778e-02 -6.612664e+01 -5.911849e+01 -1.290680e+02 -5.978178e+01 -1.170160e+02 3.604720e-02 -6.624195e+01
2140000000 -1.937661e-02 -6.608790e+01 -5.921107e+01 -1.353747e+02 -5.908738e+01 -1.269405e+02 3.567325e-02 -6.667560e+01
2150000000 -2.164236e-02 -6.651190e+01 -5.928047e+01 -1.368597e+02 -5.890524e+01 -1.360787e+02 3.368138e-02 -6.689476e+01
2160000000 -2.260533e-02 -6.709978e+01 -6.008856e+01 -1.408164e+02 -5.910032e+01 -1.472969e+02 3.727683e-02 -6.740238e+01
2170000000 -1.945220e-02 -6.691050e+01 -6.048249e+01 -1.495475e+02 -6.020687e+01 -1.434122e+02 3.173386e-02 -6.756068e+01
2180000000 -2.034636e-02 -6.768211e+01 -5.881339e+01 -1.439341e+02 -5.823426e+01 -1.376692e+02 4.074207e-02 -6.797557e+01
2190000000 -2.302944e-02 -6.827201e+01 -6.041389e+01 -1.460493e+02 -6.010920e+01 -1.483894e+02 3.938382e-02 -6.845968e+01
2200000000 -1.870778e-02 -6.827525e+01 -5.962201e+01 -1.546640e+02 -5.979817e+01 -1.554836e+02 3.309692e-02 -6.877361e+01
2210000000 -2.356227e-02 -6.862159e+01 -6.012033e+01 -1.615936e+02 -6.101398e+01 -1.475817e+02 3.374257e-02 -6.912431e+01
2220000000 -2.489821e-02 -6.880838e+01 -6.081445e+01 -1.525426e+02 -6.143286e+01 -1.506648e+02 3.123138e-02 -6.947444e+01
2230000000 -2.061022e-02 -6.905620e+01 -6.067624e+01 -1.484859e+02 -6.026180e+01 -1.570889e+02 3.363549e-02 -6.963124e+01
2240000000 -2.320724e-02 -6.967366e+01 -6.235333e+01 -1.484414e+02 -6.218937e+01 -1.579796e+02 3.677955e-02 -6.999390e+01
2250000000 -2.450989e-02 -6.979494e+01 -5.975193e+01 -1.542423e+02 -6.012424e+01 -1.571605e+02 3.465907e-02 -7.058276e+01
2260000000 -2.701315e-02 -7.012765e+01 -6.145926e+01 -1.573287e+02 -6.118250e+01 -1.636600e+02 3.066369e-02 -7.065805e+01
2270000000 -3.262870e-02 -7.112454e+01 -6.202853e+01 -1.534023e+02 -6.128751e+01 -1.510904e+02 3.359597e-02 -7.078306e+01
2280000000 -2.813007e-02 -7.028764e+01 -6.087067e+01 -1.495070e+02 -6.034098e+01 -1.519390e+02 2.905080e-02 -7.159521e+01
2290000000 -2.510529e-02 -7.098303e+01 -6.302794e+01 -1.529585e+02 -6.234686e+01 -1.628398e+02 2.886449e-02 -7.185265e+01
2300000000 -3.337470e-02 -7.166396e+01 -6.223743e+01 -1.502469e+02 -6.001082e+01 -1.524184e+02 2.784071e-02 -7.203742e+01
2310000000 -3.171993e-02 -7.157262e+01 -6.115525e+01 -1.589827e+02 -6.247282e+01 -1.378622e+02 2.888053e-02 -7.251418e+01
2320000000 -3.392857e-02 -7.230991e+01 -6.099475e+01 -1.668741e+02 -5.913913e+01 -1.543590e+02 1.282164e-02 -7.423009e+01
2330000000 -2.676659e-02 -7.267662e+01 -6.192189e+01 -1.557816e+02 -6.068205e+01 -1.452940e+02 3.105171e-02 -7.288972e+01
2340000000 -2.642195e-02 -7.281141e+01 -6.122570e+01 -1.562133e+02 -6.194835e+01 -1.472996e+02 2.740390e-02 -7.377846e+01
2350000000 -3.236839e-02 -7.348267e+01 -6.043596e+01 -1.570876e+02 -6.121259e+01 -1.574872e+02 2.719710e-02 -7.361053e+01
2360000000 -3.760901e-02 -7.398117e+01 -6.119262e+01 -1.461454e+02 -6.205105e+01 -1.543065e+02 2.150159e-02 -7.425854e+01
2370000000 -3.315952e-02 -7.367870e+01 -6.259312e+01 -1.565935e+02 -6.376386e+01 -1.437443e+02 1.415773e-02 -7.513839e+01
2380000000 -3.786472e-02 -7.438896e+01 -6.302944e+01 -1.640771e+02 -6.071071e+01 -1.576877e+02 1.618837e-02 -7.515607e+01
2390000000 -3.755289e-02 -7.451232e+01 -6.283170e+01 -1.640924e+02 -6.218098e+01 -1.637765e+02 1.606486e-02 -7.563875e+01
2400000000 -4.523623e-02 -7.480148e+01 -6.229267e+01 -1.532144e+02 -6.139697e+01 -1.607268e+02 1.526470e-02 -7.585578e+01
2410000000 -4.428034e-02 -7.537663e+01 -6.364302e+01 -1.525668e+02 -6.370291e+01 -1.491271e+02 1.402538e-02 -7.571227e+01
2420000000 -4.641361e-02 -7.576266e+01 -6.356075e+01 -1.629486e+02 -6.558592e+01 -1.738299e+02 2.497692e-02 -7.652023e+01
2430000000 -4.638967e-02 -7.597179e+01 -6.624117e+01 -1.548113e+02 -6.431609e+01 -1.745045e+02 1.221429e-02 -7.720316e+01
2440000000 -5.686190e-02 -7.674374e+01 -6.328306e+01 -1.480569e+02 -6.574403e+01 -1.454324e+02 1.901082e-02 -7.705769e+01
2450000000 -4.875010e-02 -7.679899e+01 -6.697320e+01 1.780816e+02 -6.947771e+01 1.797581e+02 1.273687e-02 -7.781187e+01
2460000000 -4.499026e-02 -7.694677e+01 -6.510062e+01 -1.591543e+02 -6.474416e+01 -1.462187e+02 1.201398e-02 -7.800327e+01
2470000000 -5.711062e-02 -7.760559e+01 -6.594157e+01 -1.451222e+02 -6.829103e+01 -1.396413e+02 1.625962e-02 -7.823462e+01
2480000000 -5.641995e-02 -7.756402e+01 -7.053551e+01 -1.558380e+02 -7.209542e+01 -1.103607e+02 7.534747e-03 -7.905013e+01
2490000000 -5.773907e-02 -7.829488e+01 -7.112230e+01 -8.924654e+01 -6.831743e+01 -1.295030e+02 8.951198e-03 -7.914634e+01
2500000000 -5.922611e-02 -7.852592e+01 -6.949353e+01 -9.006697e+01 -7.124323e+01 -7.812303e+01 1.428833e-02 -7.927060e+01
2510000000 -6.210672e-02 -7.877551e+01 -6.695736e+01 -8.324530e+01 -6.865533e+01 -1.060339e+02 3.475748e-03 -8.031760e+01
2520000000 -6.624770e-02 -7.929798e+01 -6.960706e+01 -7.885651e+01 -6.576624e+01 -8.529739e+01 1.169834e-02 -8.032520e+01
2530000000 -7.082783e-02 -7.989822e+01 -6.789285e+01 -7.169772e+01 -6.366073e+01 -8.136082e+01 1.469554e-02 -8.060111e+01
2540000000 -6.346299e-02 -7.954993e+01 -6.487776e+01 -6.084593e+01 -6.416874e+01 -7.277827e+01 9.001491e-03 -8.169601e+01
2550000000 -6.455290e-02 -8.016772e+01 -6.455011e+01 -6.753853e+01 -6.316427e+01 -6.478567e+01 1.376828e-02 -8.166918e+01
2560000000 -7.191940e-02 -8.112984e+01 -6.445893e+01 -7.568581e+01 -6.366950e+01 -6.267258e+01 1.142005e-02 -8.184374e+01
2570000000 -5.880706e-02 -8.073269e+01 -6.153650e+01 -8.124976e+01 -6.472296e+01 -8.896027e+01 4.611491e-03 -8.269539e+01
2580000000 -5.188507e-02 -8.015565e+01 -6.759734e+01 -8.768958e+01 -6.359090e+01 -7.782584e+01 6.179756e-03 -8.280402e+01
2590000000 -6.768543e-02 -8.195576e+01 -6.488477e+01 -7.006458e+01 -6.587134e+01 -5.631815e+01 1.147694e-02 -8.312315e+01
2600000000 -6.309269e-02 -8.218195e+01 -6.544456e+01 -4.530444e+01 -6.222895e+01 -6.648524e+01 4.800360e-03 -8.393428e+01
2610000000 -7.158519e-02 -8.314262e+01 -6.335150e+01 -4.051436e+01 -6.429549e+01 -4.213556e+01 6.687039e-03 -8.371265e+01
2620000000 -7.046966e-02 -8.309398e+01 -6.327026e+01 -3.707154e+01 -6.132827e+01 -4.648131e+01 3.761954e-03 -8.454591e+01
