!Agilent Technologies,N5227A,US51270477,A.10.00.00

!File generated by LCAF-GAM-UPV software
!josevmart@iteam.upv.es
!S2P File: Measurements: S11, S21, S12, S22:
# Hz S  dB   R 50
1000000000 -2.106615e-02 -3.749460e+01 -7.203367e+01 -1.541188e+02 -7.192109e+01 -1.402923e+02 -1.182051e-03 -3.772027e+01
1010000000 -1.973550e-02 -3.801247e+01 -7.724857e+01 -1.267187e+02 -6.884866e+01 -1.460603e+02 1.604207e-03 -3.819907e+01
1020000000 -2.448394e-02 -3.841264e+01 -6.955163e+01 -1.465107e+02 -6.871613e+01 -1.709162e+02 5.100502e-03 -3.852008e+01
1030000000 -2.211400e-02 -3.869524e+01 -7.706987e+01 -9.959406e+01 -7.501104e+01 -1.069476e+02 8.580813e-04 -3.888416e+01
1040000000 -2.662663e-02 -3.930755e+01 -6.910702e+01 -1.078598e+02 -7.411372e+01 -1.538209e+02 1.515305e-03 -3.928480e+01
1050000000 -2.430441e-02 -3.950626e+01 -7.340770e+01 -1.152798e+02 -6.865848e+01 -1.344509e+02 9.035208e-04 -3.964495e+01
1060000000 -2.692681e-02 -3.992638e+01 -7.042358e+01 -1.389469e+02 -6.762482e+01 -1.157641e+02 -1.382177e-04 -4.015657e+01
1070000000 -2.912886e-02 -4.035331e+01 -7.033475e+01 -1.107956e+02 -7.340498e+01 1.671854e+02 -1.083126e-03 -4.033546e+01
1080000000 -3.229675e-02 -4.062760e+01 -7.078755e+01 -1.181743e+02 -7.391429e+01 -1.137879e+02 2.315258e-04 -4.054964e+01
1090000000 -2.675210e-02 -4.095741e+01 -6.875913e+01 -1.034840e+02 -7.317912e+01 -9.792960e+01 9.339527e-04 -4.109097e+01
1100000000 -3.498517e-02 -4.162473e+01 -7.081123e+01 -1.302344e+02 -6.962400e+01 -1.092629e+02 4.998188e-03 -4.140614e+01
1110000000 -3.150068e-02 -4.188270e+01 -7.202586e+01 -1.214487e+02 -6.841235e+01 -1.361002e+02 4.511558e-03 -4.179897e+01
1120000000 -3.221842e-02 -4.212424e+01 -7.580032e+01 -1.463362e+02 -7.369592e+01 -1.603619e+02 -1.190284e-03 -4.218001e+01
1130000000 -3.697579e-02 -4.268565e+01 -7.286143e+01 -1.271647e+02 -6.922996e+01 -9.831691e+01 -2.465581e-03 -4.244683e+01
1140000000 -3.933243e-02 -4.285785e+01 -7.221342e+01 -1.089993e+02 -6.876286e+01 -1.277280e+02 -1.109430e-04 -4.286642e+01
1150000000 -3.737900e-02 -4.356992e+01 -7.068829e+01 -1.222333e+02 -7.020382e+01 -6.708798e+01 2.470938e-03 -4.340400e+01
1160000000 -3.595840e-02 -4.365226e+01 -6.771341e+01 -1.238322e+02 -6.743530e+01 -1.094478e+02 1.372137e-03 -4.372072e+01
1170000000 -3.972637e-02 -4.401448e+01 -6.534034e+01 -1.163300e+02 -7.186036e+01 -1.104731e+02 3.550180e-03 -4.394889e+01
1180000000 -3.889422e-02 -4.443544e+01 -6.636861e+01 -1.339763e+02 -6.718055e+01 -1.115586e+02 1.648847e-03 -4.452258e+01
1190000000 -4.222049e-02 -4.480281e+01 -6.665716e+01 -1.286048e+02 -6.568312e+01 -1.389769e+02 7.005238e-05 -4.498547e+01
1200000000 -4.043860e-02 -4.530616e+01 -6.571218e+01 -1.283380e+02 -6.584170e+01 -1.346940e+02 2.447601e-03 -4.523361e+01
1210000000 -3.837160e-02 -4.564373e+01 -6.724465e+01 -1.360300e+02 -6.567321e+01 -1.262933e+02 -7.443794e-04 -4.563437e+01
1220000000 -4.195143e-02 -4.605954e+01 -6.675100e+01 -1.455602e+02 -6.428144e+01 -1.336641e+02 3.191609e-03 -4.606916e+01
1230000000 -4.274246e-02 -4.653187e+01 -6.586653e+01 -1.436714e+02 -6.706843e+01 -1.571879e+02 2.642692e-05 -4.650856e+01
1240000000 -4.749331e-02 -4.687006e+01 -6.718667e+01 -1.447161e+02 -6.515212e+01 -1.445933e+02 -2.655830e-03 -4.683403e+01
1250000000 -4.475066e-02 -4.738433e+01 -6.437453e+01 -1.380451e+02 -6.863408e+01 -1.410757e+02 -1.088464e-04 -4.731021e+01
1260000000 -4.685589e-02 -4.763947e+01 -6.651595e+01 -1.433186e+02 -6.703996e+01 -1.464707e+02 -9.488769e-03 -4.769883e+01
1270000000 -4.772175e-02 -4.801536e+01 -6.522276e+01 -1.549667e+02 -6.793116e+01 -1.408387e+02 -2.140094e-03 -4.800990e+01
1280000000 -5.035492e-02 -4.837032e+01 -6.644625e+01 -1.415588e+02 -6.817648e+01 -1.464331e+02 -7.872439e-03 -4.844625e+01
1290000000 -4.676459e-02 -4.887430e+01 -6.631331e+01 -1.555232e+02 -6.804639e+01 -1.356670e+02 -5.621672e-03 -4.886698e+01
1300000000 -4.428550e-02 -4.911574e+01 -6.538387e+01 -1.363184e+02 -6.677142e+01 -1.520021e+02 -1.743682e-03 -4.933884e+01
1310000000 -5.408666e-02 -4.949027e+01 -6.626882e+01 -1.506426e+02 -6.452689e+01 -1.386782e+02 -6.434149e-03 -4.973084e+01
1320000000 -4.841128e-02 -4.989330e+01 -6.590221e+01 -1.541104e+02 -6.758846e+01 -1.322645e+02 -3.080612e-03 -5.013764e+01
1330000000 -5.701680e-02 -5.026344e+01 -6.431611e+01 -1.373904e+02 -6.640664e+01 -1.436544e+02 -9.191428e-03 -5.057374e+01
1340000000 -5.231149e-02 -5.066387e+01 -6.554571e+01 -1.385582e+02 -6.707632e+01 -1.487689e+02 -5.038644e-03 -5.098701e+01
1350000000 -5.587458e-02 -5.103942e+01 -6.602203e+01 -1.470409e+02 -6.689017e+01 -1.371422e+02 -8.743290e-03 -5.195525e+01
1360000000 -4.892159e-02 -5.142451e+01 -6.371924e+01 -1.419388e+02 -6.266726e+01 -1.593261e+02 -6.576398e-03 -5.259733e+01
1370000000 -5.494392e-02 -5.177698e+01 -6.736906e+01 -1.508325e+02 -6.559544e+01 -1.518544e+02 -5.303853e-03 -5.263032e+01
1380000000 -5.260477e-02 -5.216779e+01 -6.460865e+01 -1.474132e+02 -6.522127e+01 -1.389190e+02 -7.050885e-03 -5.320726e+01
1390000000 -5.596237e-02 -5.253955e+01 -6.440479e+01 -1.458118e+02 -6.577494e+01 -1.554828e+02 -1.186354e-02 -5.378128e+01
1400000000 -5.052652e-02 -5.292651e+01 -6.485221e+01 -1.526315e+02 -6.433187e+01 -1.451037e+02 -1.285922e-02 -5.387653e+01
1410000000 -5.658153e-02 -5.332480e+01 -6.450802e+01 -1.467720e+02 -6.403484e+01 -1.507142e+02 -1.391132e-02 -5.468129e+01
1420000000 -5.693270e-02 -5.370388e+01 -6.799072e+01 -1.457558e+02 -6.439361e+01 -1.624220e+02 -1.063570e-02 -5.499696e+01
1430000000 -6.197429e-02 -5.404264e+01 -6.313727e+01 -1.369097e+02 -6.395873e+01 -1.574967e+02 -1.179290e-02 -5.530866e+01
1440000000 -5.844148e-02 -5.447460e+01 -6.600069e+01 -1.335406e+02 -6.372213e+01 -1.517769e+02 -1.301804e-02 -5.604495e+01
1450000000 -6.409062e-02 -5.488134e+01 -6.693423e+01 -1.626944e+02 -6.341090e+01 -1.439424e+02 -1.561166e-02 -5.638866e+01
1460000000 -6.297111e-02 -5.525864e+01 -6.608563e+01 -1.378815e+02 -6.381927e+01 -1.417277e+02 -1.714272e-02 -5.650287e+01
1470000000 -5.897586e-02 -5.563728e+01 -6.418696e+01 -1.470854e+02 -6.502490e+01 -1.551453e+02 -1.368774e-02 -5.682687e+01
1480000000 -5.989347e-02 -5.603904e+01 -6.657927e+01 -1.479525e+02 -6.496237e+01 -1.478234e+02 -1.174366e-02 -5.685089e+01
1490000000 -6.327401e-02 -5.639403e+01 -6.504172e+01 -1.540520e+02 -6.573794e+01 -1.324383e+02 -1.685336e-02 -5.787879e+01
1500000000 -6.170611e-02 -5.677748e+01 -6.627737e+01 -1.482104e+02 -6.435629e+01 -1.425292e+02 -1.710460e-02 -5.819815e+01
1510000000 -6.319345e-02 -5.716541e+01 -6.502052e+01 -1.519014e+02 -6.400099e+01 -1.551687e+02 -2.584120e-02 -5.860806e+01
1520000000 -6.795315e-02 -5.757718e+01 -6.717967e+01 -1.386156e+02 -6.580100e+01 -1.392839e+02 -2.268400e-02 -5.889603e+01
1530000000 -7.292666e-02 -5.797788e+01 -6.502561e+01 -1.526331e+02 -6.747003e+01 -1.472360e+02 -2.078150e-02 -5.929898e+01
1540000000 -7.205073e-02 -5.836397e+01 -6.370036e+01 -1.424681e+02 -6.500189e+01 -1.472847e+02 -1.855628e-02 -5.961548e+01
1550000000 -7.460716e-02 -5.877130e+01 -6.555840e+01 -1.446014e+02 -6.484683e+01 -1.350175e+02 -2.304510e-02 -6.033002e+01
1560000000 -7.169557e-02 -5.915814e+01 -6.556461e+01 -1.470265e+02 -6.506691e+01 -1.437375e+02 -1.955560e-02 -6.028775e+01
1570000000 -7.360785e-02 -5.953683e+01 -6.392116e+01 -1.518310e+02 -6.370419e+01 -1.447341e+02 -2.591609e-02 -6.078500e+01
1580000000 -7.595389e-02 -5.991767e+01 -6.536607e+01 -1.395717e+02 -6.453923e+01 -1.356920e+02 -2.513673e-02 -6.153520e+01
1590000000 -8.337770e-02 -6.032843e+01 -6.549010e+01 -1.282375e+02 -6.460370e+01 -1.280418e+02 -2.513324e-02 -6.154531e+01
1600000000 -8.560693e-02 -6.073111e+01 -6.432872e+01 -1.341086e+02 -6.303639e+01 -1.371139e+02 -1.876674e-02 -6.204491e+01
1610000000 -8.024773e-02 -6.112459e+01 -6.272885e+01 -1.367134e+02 -6.283863e+01 -1.275343e+02 -2.895189e-02 -6.252882e+01
1620000000 -8.780023e-02 -6.150807e+01 -6.361321e+01 -1.330003e+02 -6.227337e+01 -1.406211e+02 -2.540798e-02 -6.259328e+01
1630000000 -8.854799e-02 -6.192787e+01 -6.247487e+01 -1.438943e+02 -6.187619e+01 -1.473361e+02 -2.653269e-02 -6.305957e+01
1640000000 -9.149880e-02 -6.232774e+01 -6.275122e+01 -1.595499e+02 -6.316139e+01 -1.552021e+02 -2.756493e-02 -6.356150e+01
1650000000 -8.891667e-02 -6.271435e+01 -6.405917e+01 -1.547128e+02 -6.447743e+01 -1.561560e+02 -2.258707e-02 -6.372165e+01
1660000000 -8.966890e-02 -6.311619e+01 -6.552865e+01 -1.525628e+02 -6.387635e+01 -1.526282e+02 -3.489297e-02 -6.424268e+01
1670000000 -9.394491e-02 -6.353349e+01 -6.476586e+01 -1.610609e+02 -6.633444e+01 -1.460145e+02 -3.282927e-02 -6.478139e+01
1680000000 -8.705113e-02 -6.393243e+01 -6.678427e+01 -1.569877e+02 -6.333402e+01 -1.628985e+02 -3.193750e-02 -6.502487e+01
1690000000 -9.607369e-02 -6.433910e+01 -6.606346e+01 -1.645229e+02 -6.829454e+01 -1.745439e+02 -2.826244e-02 -6.519205e+01
1700000000 -9.376244e-02 -6.476493e+01 -6.761006e+01 -1.455426e+02 -6.446755e+01 -1.547466e+02 -3.307405e-02 -6.575307e+01
1710000000 -9.605032e-02 -6.518353e+01 -6.570522e+01 -1.580384e+02 -6.580079e+01 -1.455683e+02 -2.974069e-02 -6.585355e+01
1720000000 -1.045927e-01 -6.563355e+01 -6.724846e+01 -1.526981e+02 -6.441029e+01 -1.631808e+02 -3.211183e-02 -6.660520e+01
1730000000 -1.002950e-01 -6.605560e+01 -6.746986e+01 -1.360343e+02 -6.852769e+01 -1.532426e+02 -2.465944e-02 -6.495852e+01
1740000000 -1.067489e-01 -6.649059e+01 -6.824857e+01 -1.370675e+02 -6.856171e+01 -1.631300e+02 -3.759758e-02 -6.701017e+01
1750000000 -1.059223e-01 -6.689990e+01 -7.066863e+01 -1.516980e+02 -6.751727e+01 -1.237565e+02 -3.784839e-02 -6.767495e+01
1760000000 -1.082163e-01 -6.733595e+01 -6.749983e+01 -1.248891e+02 -6.787551e+01 -1.463578e+02 -3.704397e-02 -6.815494e+01
1770000000 -1.083499e-01 -6.773410e+01 -7.116069e+01 -1.307084e+02 -6.699416e+01 -1.255265e+02 -4.098634e-02 -6.849131e+01
1780000000 -1.095722e-01 -6.817460e+01 -6.899916e+01 -1.572855e+02 -6.619855e+01 -1.505311e+02 -3.538667e-02 -6.886005e+01
1790000000 -1.130900e-01 -6.861047e+01 -6.772957e+01 -1.376334e+02 -6.699609e+01 -1.535018e+02 -4.285350e-02 -6.954751e+01
1800000000 -1.211791e-01 -6.973147e+01 -6.758804e+01 -1.476267e+02 -6.886847e+01 -1.267481e+02 -4.441077e-02 -7.005567e+01
1810000000 -1.245681e-01 -7.019755e+01 -7.077589e+01 -1.157838e+02 -7.232037e+01 -1.212609e+02 -4.566738e-02 -7.060503e+01
1820000000 -1.294850e-01 -7.079541e+01 -7.227125e+01 -1.518325e+02 -7.254604e+01 -1.684674e+02 -5.000657e-02 -7.103648e+01
1830000000 -1.324547e-01 -7.120950e+01 -7.475980e+01 -1.255268e+02 -7.514391e+01 -1.103576e+02 -4.917375e-02 -7.141615e+01
1840000000 -1.245384e-01 -7.138683e+01 -7.044151e+01 -1.080769e+02 -6.986549e+01 -1.170454e+02 -5.005959e-02 -7.184155e+01
1850000000 -1.302605e-01 -7.212634e+01 -7.058954e+01 -9.384460e+01 -7.948311e+01 -8.139037e+01 -5.623417e-02 -7.229732e+01
1860000000 -1.375721e-01 -7.271428e+01 -7.203073e+01 -1.085986e+02 -7.494228e+01 -1.251374e+02 -5.221671e-02 -7.270316e+01
1870000000 -1.383004e-01 -7.265776e+01 -7.639868e+01 -9.831961e+01 -7.201679e+01 -1.012522e+02 -5.521058e-02 -7.318257e+01
1880000000 -1.441386e-01 -7.351450e+01 -7.134909e+01 -6.861951e+01 -7.042509e+01 -6.567207e+01 -5.410203e-02 -7.360027e+01
1890000000 -1.417221e-01 -7.386032e+01 -7.195934e+01 -5.033799e+01 -6.993465e+01 -8.864102e+01 -5.509307e-02 -7.403084e+01
1900000000 -1.446618e-01 -7.411533e+01 -7.251540e+01 -5.934288e+01 -7.609026e+01 -5.630285e+01 -5.250631e-02 -7.443825e+01
1910000000 -1.506056e-01 -7.460267e+01 -7.071967e+01 -5.813077e+01 -7.442149e+01 -3.875979e+01 -5.648930e-02 -7.485670e+01
1920000000 -1.492998e-01 -7.490847e+01 -6.791079e+01 -4.693460e+01 -7.247396e+01 -7.633388e+01 -5.727509e-02 -7.529352e+01
1930000000 -1.567834e-01 -7.572554e+01 -6.707468e+01 -2.656600e+01 -6.662954e+01 -3.105560e+01 -6.301917e-02 -7.575130e+01
1940000000 -1.584889e-01 -7.592323e+01 -7.306010e+01 -2.377298e+01 -7.105032e+01 -3.916533e+01 -6.867243e-02 -7.617206e+01
1950000000 -1.607044e-01 -7.634440e+01 -6.908148e+01 -2.341559e+01 -6.835780e+01 -2.766369e+01 -6.299853e-02 -7.662728e+01
1960000000 -1.595199e-01 -7.695587e+01 -6.564168e+01 -2.329206e+01 -6.680988e+01 -1.558748e+01 -6.179024e-02 -7.708418e+01
1970000000 -1.642341e-01 -7.690618e+01 -6.431701e+01 -1.998901e+01 -6.535150e+01 -2.473814e+01 -6.588064e-02 -7.749696e+01
1980000000 -1.696970e-01 -7.762786e+01 -6.489659e+01 -2.087733e+01 -6.530485e+01 -1.876666e+01 -6.764889e-02 -7.794387e+01
1990000000 -1.785381e-01 -7.862975e+01 -6.165739e+01 -6.595428e+00 -6.316682e+01 -1.344306e+01 -7.652875e-02 -7.839613e+01
2000000000 -1.747671e-01 -7.867423e+01 -6.017274e+01 -8.425781e+00 -6.151709e+01 -1.225962e+01 -7.997327e-02 -7.875418e+01
2010000000 -1.793053e-01 -7.877241e+01 -5.950552e+01 -7.592006e+00 -5.948779e+01 -1.008896e+01 -8.089974e-02 -7.914852e+01
2020000000 -1.911460e-01 -7.987640e+01 -5.922911e+01 -1.068947e+01 -5.884622e+01 -1.388457e+01 -7.669431e-02 -7.959420e+01
2030000000 -1.932918e-01 -7.991414e+01 -5.802721e+01 -9.571891e+00 -5.863615e+01 -9.101947e+00 -8.444104e-02 -8.003989e+01
2040000000 -1.877752e-01 -8.024294e+01 -5.684212e+01 -7.172982e+00 -5.705051e+01 -1.001477e+01 -8.230454e-02 -8.050522e+01
2050000000 -2.004050e-01 -8.132103e+01 -5.589320e+01 -1.262575e+01 -5.593240e+01 -6.209491e+00 -9.086182e-02 -8.098859e+01
2060000000 -2.016380e-01 -8.132428e+01 -5.516630e+01 -1.261502e+01 -5.487115e+01 -1.465401e+01 -9.140746e-02 -8.147229e+01
2070000000 -1.953050e-01 -8.163705e+01 -5.487205e+01 -1.338492e+01 -5.382512e+01 -1.696717e+01 -9.856045e-02 -8.192714e+01
2080000000 -2.121747e-01 -8.283534e+01 -5.286279e+01 -1.482465e+01 -5.329182e+01 -1.502424e+01 -1.012838e-01 -8.242606e+01
2090000000 -2.110139e-01 -8.293893e+01 -5.289682e+01 -2.142179e+01 -5.280945e+01 -2.030227e+01 -1.022457e-01 -8.288447e+01
2100000000 -2.108107e-01 -8.310019e+01 -5.280624e+01 -2.633554e+01 -5.284818e+01 -2.053912e+01 -9.867182e-02 -8.336226e+01
2110000000 -2.200938e-01 -8.401653e+01 -5.263315e+01 -2.710976e+01 -5.330186e+01 -2.680053e+01 -1.114386e-01 -8.386069e+01
2120000000 -2.202763e-01 -8.391837e+01 -5.276151e+01 -2.751035e+01 -5.304733e+01 -2.518992e+01 -1.056849e-01 -8.429938e+01
2130000000 -2.233175e-01 -8.463155e+01 -5.210933e+01 -2.799292e+01 -5.213593e+01 -2.726398e+01 -1.168865e-01 -8.479538e+01
2140000000 -2.388843e-01 -8.564963e+01 -5.203699e+01 -2.547385e+01 -5.275637e+01 -2.479310e+01 -1.198076e-01 -8.532623e+01
2150000000 -2.332737e-01 -8.549713e+01 -5.219890e+01 -2.338011e+01 -5.299324e+01 -2.227908e+01 -1.185709e-01 -8.577309e+01
2160000000 -2.390002e-01 -8.620987e+01 -5.126084e+01 -2.366751e+01 -5.178174e+01 -2.019263e+01 -1.209176e-01 -8.628574e+01
2170000000 -2.454440e-01 -8.688683e+01 -5.086124e+01 -2.049489e+01 -5.092468e+01 -1.696537e+01 -1.268685e-01 -8.677625e+01
2180000000 -2.351276e-01 -8.686261e+01 -5.062868e+01 -1.432623e+01 -5.082188e+01 -1.387027e+01 -1.290171e-01 -8.728667e+01
2190000000 -2.510937e-01 -8.779099e+01 -4.964935e+01 -1.780623e+01 -4.969934e+01 -1.756256e+01 -1.319755e-01 -8.783276e+01
2200000000 -2.555902e-01 -8.841132e+01 -4.943927e+01 -1.372673e+01 -4.965114e+01 -1.567187e+01 -1.367172e-01 -8.830733e+01
2210000000 -2.589440e-01 -8.849963e+01 -4.856152e+01 -1.322673e+01 -4.869593e+01 -1.232472e+01 -1.379941e-01 -8.881595e+01
2220000000 -2.685218e-01 -8.943415e+01 -4.745500e+01 -1.589536e+01 -4.826197e+01 -1.184018e+01 -1.429557e-01 -8.933818e+01
2230000000 -2.659822e-01 -8.971580e+01 -4.754613e+01 -1.425880e+01 -4.734446e+01 -1.601910e+01 -1.437544e-01 -8.985529e+01
2240000000 -2.647399e-01 -9.005457e+01 -4.668993e+01 -1.418157e+01 -4.689496e+01 -1.404195e+01 -1.461961e-01 -9.036257e+01
2250000000 -2.863861e-01 -9.126884e+01 -4.598612e+01 -1.544187e+01 -4.624502e+01 -1.414216e+01 -1.461907e-01 -9.090317e+01
2260000000 -2.841200e-01 -9.122301e+01 -4.537236e+01 -1.478181e+01 -4.556670e+01 -1.377084e+01 -1.595634e-01 -9.147030e+01
2270000000 -2.839549e-01 -9.156419e+01 -4.516706e+01 -1.614486e+01 -4.516936e+01 -1.686320e+01 -1.662907e-01 -9.249770e+01
2280000000 -3.048787e-01 -9.255770e+01 -4.447398e+01 -1.813183e+01 -4.418560e+01 -1.729611e+01 -1.742267e-01 -9.338705e+01
2290000000 -2.934627e-01 -9.277267e+01 -4.415312e+01 -1.670570e+01 -4.392842e+01 -1.664922e+01 -1.783366e-01 -9.379736e+01
2300000000 -3.033568e-01 -9.333708e+01 -4.334034e+01 -1.891345e+01 -4.338786e+01 -1.855695e+01 -1.821814e-01 -9.440419e+01
2310000000 -3.152588e-01 -9.405341e+01 -4.316147e+01 -1.844901e+01 -4.287334e+01 -1.955995e+01 -1.929192e-01 -9.569442e+01
2320000000 -3.196816e-01 -9.459274e+01 -4.251436e+01 -1.880316e+01 -4.246484e+01 -1.909148e+01 -1.997617e-01 -9.576876e+01
2330000000 -3.153097e-01 -9.513683e+01 -4.198296e+01 -2.029572e+01 -4.217661e+01 -1.916938e+01 -1.898311e-01 -9.550140e+01
2340000000 -3.253494e-01 -9.579860e+01 -4.161516e+01 -1.993894e+01 -4.132267e+01 -2.014034e+01 -2.061198e-01 -9.686996e+01
2350000000 -3.624964e-01 -9.815025e+01 -4.064594e+01 -2.229946e+01 -4.094123e+01 -1.938703e+01 -2.134684e-01 -9.739691e+01
2360000000 -3.607830e-01 -9.800002e+01 -4.027930e+01 -2.205463e+01 -4.065958e+01 -2.040005e+01 -2.127426e-01 -9.775504e+01
2370000000 -3.632195e-01 -9.830334e+01 -3.981932e+01 -2.215581e+01 -3.992956e+01 -2.199254e+01 -2.326095e-01 -9.918458e+01
2380000000 -3.834310e-01 -9.948728e+01 -3.938686e+01 -2.393819e+01 -3.973904e+01 -2.178168e+01 -2.337605e-01 -9.903151e+01
2390000000 -3.883102e-01 -9.997552e+01 -3.888459e+01 -2.399177e+01 -3.931384e+01 -2.266177e+01 -2.274816e-01 -9.908772e+01
2400000000 -4.030054e-01 -1.006821e+02 -3.837817e+01 -2.465087e+01 -3.849834e+01 -2.362889e+01 -2.433660e-01 -1.005337e+02
2410000000 -4.022005e-01 -1.009369e+02 -3.798533e+01 -2.460016e+01 -3.838665e+01 -2.310677e+01 -2.468822e-01 -1.006319e+02
2420000000 -4.118574e-01 -1.016404e+02 -3.756134e+01 -2.548540e+01 -3.803341e+01 -2.356739e+01 -2.414159e-01 -1.009614e+02
2430000000 -4.214240e-01 -1.025354e+02 -3.703136e+01 -2.594537e+01 -3.732791e+01 -2.414709e+01 -2.513881e-01 -1.020209e+02
2440000000 -4.259474e-01 -1.026119e+02 -3.671659e+01 -2.642196e+01 -3.705103e+01 -2.445208e+01 -2.535319e-01 -1.019862e+02
2450000000 -4.339219e-01 -1.035470e+02 -3.612923e+01 -2.693526e+01 -3.634436e+01 -2.628040e+01 -2.725458e-01 -1.033263e+02
2460000000 -4.529816e-01 -1.045438e+02 -3.555363e+01 -2.788679e+01 -3.584505e+01 -2.691014e+01 -2.784578e-01 -1.040384e+02
2470000000 -4.481393e-01 -1.041148e+02 -3.528916e+01 -2.811012e+01 -3.568265e+01 -2.641940e+01 -2.778977e-01 -1.040791e+02
2480000000 -4.712946e-01 -1.051646e+02 -3.482516e+01 -2.931226e+01 -3.492935e+01 -2.774634e+01 -2.985320e-01 -1.054522e+02
2490000000 -4.903235e-01 -1.067614e+02 -3.406372e+01 -3.108216e+01 -3.453814e+01 -2.873526e+01 -3.006398e-01 -1.056659e+02
2500000000 -4.747795e-01 -1.061237e+02 -3.393525e+01 -3.066128e+01 -3.358054e+01 -3.240958e+01 -3.348074e-01 -1.088292e+02
2510000000 -4.957722e-01 -1.072764e+02 -3.333768e+01 -3.178859e+01 -3.361669e+01 -3.127130e+01 -3.238959e-01 -1.076165e+02
2520000000 -5.187731e-01 -1.082189e+02 -3.293240e+01 -3.286606e+01 -3.312337e+01 -3.227013e+01 -3.323180e-01 -1.084243e+02
2530000000 -5.002233e-01 -1.077408e+02 -3.273345e+01 -3.183121e+01 -3.286348e+01 -3.159725e+01 -3.184670e-01 -1.079502e+02
2540000000 -5.344380e-01 -1.094251e+02 -3.212221e+01 -3.485196e+01 -3.222966e+01 -3.405492e+01 -3.437124e-01 -1.098437e+02
2550000000 -5.259158e-01 -1.093532e+02 -3.187364e+01 -3.500962e+01 -3.197306e+01 -3.463675e+01 -3.444975e-01 -1.100183e+02
2560000000 -5.258739e-01 -1.095527e+02 -3.161040e+01 -3.492066e+01 -3.164869e+01 -3.472043e+01 -3.531055e-01 -1.104364e+02
2570000000 -5.541897e-01 -1.115286e+02 -3.094465e+01 -3.703983e+01 -3.098436e+01 -3.643549e+01 -3.861668e-01 -1.124179e+02
2580000000 -5.748220e-01 -1.121797e+02 -3.050431e+01 -3.768628e+01 -3.085837e+01 -3.646627e+01 -3.762545e-01 -1.121743e+02
2590000000 -5.633380e-01 -1.121002e+02 -3.022499e+01 -3.722536e+01 -3.043428e+01 -3.656640e+01 -3.765365e-01 -1.123722e+02
2600000000 -5.787950e-01 -1.130559e+02 -2.977376e+01 -3.870784e+01 -2.976717e+01 -3.819047e+01 -4.080721e-01 -1.142584e+02
