!Agilent Technologies,N5227A,US51270477,A.10.00.00

!File generated by LCAF-GAM-UPV software
!josevmart@iteam.upv.es
!S2P File: Measurements: S11, S21, S12, S22:
# Hz S  dB   R 50
1000000000 -5.597900e-03 -3.293476e+01 -7.794746e+01 -9.212321e+01 -9.309718e+01 -1.405532e+02 1.150022e-02 -3.293659e+01
1010000000 3.073064e-03 -3.332341e+01 -7.346820e+01 -1.455773e+02 -8.065157e+01 1.799437e+02 1.191970e-02 -3.331601e+01
1020000000 -3.752808e-03 -3.352981e+01 -7.488002e+01 -1.015594e+02 -8.550047e+01 1.562155e+02 1.611296e-02 -3.372775e+01
1030000000 1.043641e-03 -3.399578e+01 -7.228004e+01 -9.754758e+01 -8.014498e+01 7.477771e+01 1.233221e-02 -3.408151e+01
1040000000 -2.455442e-03 -3.419567e+01 -6.879890e+01 -1.129220e+02 -7.953375e+01 -9.705613e+01 1.527328e-02 -3.437807e+01
1050000000 -7.932005e-03 -3.451881e+01 -8.244335e+01 -1.646834e+02 -7.695198e+01 -1.044941e+02 1.540134e-02 -3.476424e+01
1060000000 -3.954000e-03 -3.488686e+01 -7.332344e+01 -9.897710e+01 -7.822589e+01 1.156507e+02 1.545554e-02 -3.507031e+01
1070000000 -3.880978e-03 -3.516756e+01 -7.366955e+01 -1.471834e+02 -8.420830e+01 -1.464221e+02 1.537357e-02 -3.555363e+01
1080000000 -4.495421e-03 -3.557233e+01 -8.779927e+01 -1.350185e+02 -7.522829e+01 -1.307850e+02 1.214559e-02 -3.582641e+01
1090000000 -3.758832e-03 -3.597694e+01 -7.276174e+01 -1.617026e+02 -8.858911e+01 1.638281e+02 2.052655e-02 -3.613108e+01
1100000000 -9.244230e-03 -3.613382e+01 -7.677904e+01 -9.864517e+01 -7.816605e+01 -1.015584e+02 1.913777e-02 -3.648637e+01
1110000000 -3.175420e-03 -3.657150e+01 -7.662762e+01 -1.050630e+02 -9.680622e+01 -1.693555e+02 1.889679e-02 -3.682848e+01
1120000000 -7.415331e-03 -3.677367e+01 -7.287585e+01 -1.196896e+02 -7.577130e+01 -1.285722e+02 1.364021e-02 -3.724003e+01
1130000000 -9.637936e-03 -3.727765e+01 -7.771992e+01 -9.445133e+01 -7.495737e+01 -9.385646e+01 1.094167e-02 -3.750638e+01
1140000000 -1.093150e-02 -3.752563e+01 -7.349390e+01 -1.005600e+02 -7.894663e+01 -1.218733e+02 1.495208e-02 -3.792315e+01
1150000000 -2.817371e-03 -3.786966e+01 -7.694411e+01 -9.905159e+01 -7.293813e+01 -9.149096e+01 1.756834e-02 -3.816436e+01
1160000000 -7.102255e-03 -3.814161e+01 -7.976917e+01 -6.574854e+01 -7.403327e+01 -1.459216e+02 1.928134e-02 -3.860472e+01
1170000000 -6.113956e-03 -3.853968e+01 -7.010248e+01 -1.057778e+02 -7.289099e+01 -9.625918e+01 1.970847e-02 -3.887935e+01
1180000000 -9.565700e-03 -3.884615e+01 -6.983223e+01 -1.245454e+02 -6.944965e+01 -1.260716e+02 1.805171e-02 -3.927841e+01
1190000000 -8.477272e-03 -3.917622e+01 -6.985665e+01 -1.367434e+02 -7.015357e+01 -1.146842e+02 1.300456e-02 -3.956301e+01
1200000000 -4.768478e-03 -3.950169e+01 -7.157131e+01 -1.272865e+02 -7.581980e+01 -9.337641e+01 1.952526e-02 -3.986791e+01
1210000000 -1.060586e-02 -3.981502e+01 -6.724667e+01 -1.270539e+02 -7.176581e+01 -1.648601e+02 2.076934e-02 -4.023051e+01
1220000000 -4.028516e-03 -4.013858e+01 -6.776663e+01 -1.246384e+02 -7.180603e+01 -1.273904e+02 2.106777e-02 -4.054807e+01
1230000000 -6.766672e-03 -4.047195e+01 -7.084444e+01 -1.116960e+02 -7.523412e+01 -1.447161e+02 2.009741e-02 -4.108183e+01
1240000000 -1.303336e-02 -4.077041e+01 -7.204391e+01 -1.504729e+02 -6.832120e+01 -1.400010e+02 2.008640e-02 -4.164120e+01
1250000000 -7.077324e-03 -4.111794e+01 -7.059618e+01 -1.312874e+02 -6.985423e+01 -1.424575e+02 2.069099e-02 -4.199711e+01
1260000000 -1.198542e-02 -4.143962e+01 -7.166335e+01 -1.419984e+02 -6.890377e+01 -1.586691e+02 1.294772e-02 -4.210017e+01
1270000000 -1.110860e-02 -4.177037e+01 -7.098883e+01 -1.427568e+02 -6.988691e+01 -1.665457e+02 1.691080e-02 -4.262700e+01
1280000000 -1.399196e-02 -4.210847e+01 -7.155339e+01 -1.329373e+02 -7.282745e+01 -1.705818e+02 1.187987e-02 -4.312743e+01
1290000000 -8.843414e-03 -4.238248e+01 -7.263067e+01 -1.403289e+02 -6.833987e+01 -1.460764e+02 1.859171e-02 -4.330962e+01
1300000000 -6.413965e-03 -4.273433e+01 -6.971630e+01 -1.461759e+02 -7.486137e+01 -1.589427e+02 2.108173e-02 -4.370299e+01
1310000000 -1.265951e-02 -4.306100e+01 -6.910074e+01 -1.366962e+02 -6.813968e+01 -1.303949e+02 1.612010e-02 -4.386324e+01
1320000000 -7.906427e-03 -4.340237e+01 -6.809515e+01 -1.194706e+02 -6.885017e+01 -1.201662e+02 2.164437e-02 -4.417992e+01
1330000000 -1.503830e-02 -4.370186e+01 -6.995246e+01 -1.369466e+02 -6.879594e+01 -1.083031e+02 1.411434e-02 -4.466559e+01
1340000000 -1.259683e-02 -4.403496e+01 -6.799501e+01 -1.632444e+02 -7.316619e+01 -1.259647e+02 1.934049e-02 -4.500679e+01
1350000000 -1.430392e-02 -4.436349e+01 -7.060307e+01 -1.217811e+02 -6.618246e+01 -1.512115e+02 1.617487e-02 -4.514884e+01
1360000000 -7.023261e-03 -4.470924e+01 -6.840475e+01 -1.225900e+02 -7.415221e+01 -1.374137e+02 2.221319e-02 -4.561068e+01
1370000000 -1.517467e-02 -4.500576e+01 -6.874085e+01 -1.462808e+02 -6.864976e+01 -1.267718e+02 2.043796e-02 -4.579250e+01
1380000000 -1.072717e-02 -4.533660e+01 -7.253159e+01 -1.380219e+02 -6.977466e+01 -1.385884e+02 1.913067e-02 -4.620272e+01
1390000000 -9.926541e-03 -4.566585e+01 -6.939856e+01 -1.533268e+02 -6.984002e+01 -1.235882e+02 1.825785e-02 -4.653735e+01
1400000000 -9.813427e-03 -4.601052e+01 -6.848907e+01 -1.393498e+02 -6.751044e+01 -1.630031e+02 2.247240e-02 -4.693111e+01
1410000000 -1.119817e-02 -4.634235e+01 -7.074514e+01 -1.490002e+02 -6.674976e+01 -1.068240e+02 1.874787e-02 -4.713039e+01
1420000000 -8.544139e-03 -4.667858e+01 -7.042180e+01 -1.241190e+02 -6.792125e+01 -1.698625e+02 2.322116e-02 -4.749800e+01
1430000000 -1.360762e-02 -4.697837e+01 -6.818195e+01 -1.280096e+02 -7.081783e+01 -1.543245e+02 2.333967e-02 -4.780325e+01
1440000000 -8.665103e-03 -4.732988e+01 -6.964457e+01 -1.532961e+02 -6.519759e+01 -1.302526e+02 2.153870e-02 -4.826607e+01
1450000000 -1.176486e-02 -4.767158e+01 -6.846291e+01 -1.396492e+02 -6.896348e+01 -1.299360e+02 1.756232e-02 -4.854293e+01
1460000000 -1.273922e-02 -4.797873e+01 -6.948823e+01 -1.324292e+02 -6.981068e+01 -1.391067e+02 1.716950e-02 -4.894354e+01
1470000000 -1.087110e-02 -4.830309e+01 -6.625170e+01 -1.508835e+02 -6.650740e+01 -1.530050e+02 2.073983e-02 -4.934875e+01
1480000000 -1.278817e-02 -4.866851e+01 -6.518803e+01 -1.447388e+02 -6.646127e+01 -1.298799e+02 2.429514e-02 -4.944750e+01
1490000000 -1.033707e-02 -4.896722e+01 -6.823530e+01 -1.588727e+02 -6.808596e+01 -1.521817e+02 2.008741e-02 -4.984391e+01
1500000000 -1.014191e-02 -4.930672e+01 -6.841399e+01 -1.539962e+02 -7.004424e+01 -1.397718e+02 2.273067e-02 -5.032667e+01
1510000000 -1.258383e-02 -4.964613e+01 -6.523338e+01 -1.308677e+02 -6.832262e+01 -1.225280e+02 1.755570e-02 -5.050955e+01
1520000000 -1.362105e-02 -5.000063e+01 -7.092805e+01 -1.309248e+02 -6.742525e+01 -1.652735e+02 1.988727e-02 -5.098889e+01
1530000000 -1.666490e-02 -5.033863e+01 -6.745950e+01 -1.407332e+02 -6.732542e+01 -1.755662e+02 1.744043e-02 -5.122746e+01
1540000000 -1.307872e-02 -5.068025e+01 -6.732630e+01 -1.447250e+02 -6.768484e+01 -1.489350e+02 2.368555e-02 -5.155623e+01
1550000000 -1.330637e-02 -5.100323e+01 -6.852735e+01 -1.307267e+02 -6.841507e+01 -1.314546e+02 1.826698e-02 -5.189539e+01
1560000000 -1.295544e-02 -5.137580e+01 -6.937276e+01 -1.359211e+02 -6.705259e+01 -1.562229e+02 2.192061e-02 -5.221735e+01
1570000000 -1.452646e-02 -5.168189e+01 -6.803665e+01 -1.470092e+02 -6.660155e+01 -1.399341e+02 2.135606e-02 -5.252330e+01
1580000000 -1.998550e-02 -5.202913e+01 -6.690945e+01 -1.455175e+02 -7.057505e+01 -1.560450e+02 2.177688e-02 -5.292992e+01
1590000000 -2.280519e-02 -5.240266e+01 -6.816674e+01 -1.305490e+02 -6.659238e+01 -1.423330e+02 1.505261e-02 -5.334919e+01
1600000000 -2.392011e-02 -5.271889e+01 -6.562373e+01 -1.251568e+02 -6.664793e+01 -1.429195e+02 2.238885e-02 -5.363036e+01
1610000000 -1.853357e-02 -5.306357e+01 -6.543320e+01 -1.227250e+02 -6.310202e+01 -1.223431e+02 1.487039e-02 -5.435572e+01
1620000000 -2.314566e-02 -5.339657e+01 -6.340871e+01 -1.389050e+02 -6.364668e+01 -1.359531e+02 1.704023e-02 -5.464860e+01
1630000000 -2.222990e-02 -5.374490e+01 -6.333971e+01 -1.357866e+02 -6.388564e+01 -1.439330e+02 1.825286e-02 -5.477799e+01
1640000000 -2.410434e-02 -5.405297e+01 -6.497957e+01 -1.503171e+02 -6.376597e+01 -1.407219e+02 2.273436e-02 -5.517855e+01
1650000000 -2.458939e-02 -5.439743e+01 -6.590044e+01 -1.560732e+02 -6.299009e+01 -1.395912e+02 2.288611e-02 -5.539923e+01
1660000000 -2.411647e-02 -5.472593e+01 -6.353153e+01 -1.600925e+02 -6.465017e+01 -1.496563e+02 1.433793e-02 -5.583672e+01
1670000000 -2.808714e-02 -5.566310e+01 -6.400429e+01 -1.525544e+02 -6.400634e+01 -1.537323e+02 1.728796e-02 -5.609869e+01
1680000000 -2.487230e-02 -5.592429e+01 -6.482744e+01 -1.646455e+02 -6.564935e+01 -1.631568e+02 1.815069e-02 -5.649361e+01
1690000000 -3.041767e-02 -5.613240e+01 -6.483308e+01 -1.336368e+02 -6.600774e+01 -1.591061e+02 2.305962e-02 -5.680147e+01
1700000000 -2.862635e-02 -5.675687e+01 -6.568284e+01 -1.647388e+02 -6.681972e+01 -1.403179e+02 1.883336e-02 -5.711900e+01
1710000000 -2.879661e-02 -5.688913e+01 -6.453037e+01 -1.523068e+02 -6.401718e+01 -1.472507e+02 2.086137e-02 -5.749112e+01
1720000000 -3.055773e-02 -5.726483e+01 -6.359687e+01 -1.525234e+02 -6.716190e+01 -1.471477e+02 2.027186e-02 -5.783235e+01
1730000000 -3.055985e-02 -5.757246e+01 -6.539777e+01 -1.359380e+02 -6.655371e+01 -1.523887e+02 1.465327e-02 -5.815997e+01
1740000000 -2.987305e-02 -5.796253e+01 -6.607534e+01 -1.509548e+02 -6.563568e+01 -1.504273e+02 1.332054e-02 -5.854388e+01
1750000000 -3.312492e-02 -5.829585e+01 -6.469862e+01 -1.414217e+02 -6.469283e+01 -1.410439e+02 1.333857e-02 -5.889756e+01
1760000000 -3.001919e-02 -5.869650e+01 -6.488525e+01 -1.579291e+02 -6.443178e+01 -1.551166e+02 2.108794e-02 -5.922771e+01
1770000000 -2.913141e-02 -5.886201e+01 -6.446546e+01 -1.391938e+02 -6.434821e+01 -1.599565e+02 1.594348e-02 -5.956851e+01
1780000000 -2.719838e-02 -5.909517e+01 -6.438305e+01 -1.543554e+02 -6.464410e+01 -1.502919e+02 1.556989e-02 -5.991988e+01
1790000000 -3.061808e-02 -5.965754e+01 -6.470266e+01 -1.475148e+02 -6.505303e+01 -1.381464e+02 1.984147e-02 -6.026210e+01
1800000000 -3.102974e-02 -5.981575e+01 -6.348749e+01 -1.466106e+02 -6.570069e+01 -1.484345e+02 1.846585e-02 -6.061660e+01
1810000000 -3.490185e-02 -6.015783e+01 -6.633064e+01 -1.513489e+02 -6.340251e+01 -1.485999e+02 1.477405e-02 -6.099966e+01
1820000000 -3.588184e-02 -6.070936e+01 -6.428532e+01 -1.556804e+02 -6.514789e+01 -1.520115e+02 1.239734e-02 -6.131903e+01
1830000000 -3.505418e-02 -6.087654e+01 -6.473030e+01 -1.482269e+02 -6.429995e+01 -1.492861e+02 1.580438e-02 -6.162514e+01
1840000000 -2.891511e-02 -6.127465e+01 -6.513633e+01 -1.445550e+02 -6.737123e+01 -1.249282e+02 1.667118e-02 -6.198111e+01
1850000000 -3.445449e-02 -6.172083e+01 -6.455220e+01 -1.382978e+02 -6.413837e+01 -1.517333e+02 1.028938e-02 -6.236417e+01
1860000000 -4.216628e-02 -6.297824e+01 -6.357546e+01 -1.461999e+02 -6.312789e+01 -1.532590e+02 1.507575e-02 -6.268703e+01
1870000000 -3.999634e-02 -6.257818e+01 -6.587774e+01 -1.548047e+02 -6.704523e+01 -1.504684e+02 1.514014e-02 -6.309132e+01
1880000000 -3.574068e-02 -6.272488e+01 -6.624660e+01 -1.438371e+02 -6.338802e+01 -1.453143e+02 1.488934e-02 -6.342012e+01
1890000000 -3.743459e-02 -6.321344e+01 -6.424904e+01 -1.434378e+02 -6.378499e+01 -1.407303e+02 1.713389e-02 -6.376720e+01
1900000000 -4.027348e-02 -6.348627e+01 -6.442645e+01 -1.391921e+02 -6.407414e+01 -1.301023e+02 1.849625e-02 -6.414413e+01
1910000000 -4.110740e-02 -6.386842e+01 -6.499571e+01 -1.526875e+02 -6.370171e+01 -1.445595e+02 1.634287e-02 -6.447766e+01
1920000000 -4.108639e-02 -6.428605e+01 -6.379613e+01 -1.322325e+02 -6.616021e+01 -1.561615e+02 1.819019e-02 -6.484718e+01
1930000000 -4.391755e-02 -6.471096e+01 -6.487215e+01 -1.615551e+02 -6.203744e+01 -1.557246e+02 1.461188e-02 -6.519558e+01
1940000000 -4.373794e-02 -6.474947e+01 -6.484981e+01 -1.526048e+02 -6.669006e+01 -1.327603e+02 1.099782e-02 -6.554762e+01
1950000000 -4.494673e-02 -6.519344e+01 -6.669018e+01 -1.606454e+02 -6.166880e+01 -1.434865e+02 1.193357e-02 -6.590865e+01
1960000000 -4.270358e-02 -6.582501e+01 -6.628324e+01 -1.413593e+02 -6.314844e+01 -1.559321e+02 1.566932e-02 -6.628075e+01
1970000000 -5.002464e-02 -6.611542e+01 -6.443439e+01 -1.448400e+02 -6.381129e+01 -1.549952e+02 1.620274e-02 -6.662607e+01
1980000000 -5.115715e-02 -6.646558e+01 -6.718987e+01 -1.440841e+02 -6.438515e+01 -1.411596e+02 1.514183e-02 -6.697308e+01
1990000000 -4.871436e-02 -6.685398e+01 -6.518230e+01 -1.722813e+02 -6.674383e+01 -1.551470e+02 8.075368e-03 -6.736875e+01
2000000000 -5.774107e-02 -6.776193e+01 -6.648384e+01 -1.518872e+02 -6.658894e+01 -1.354841e+02 6.604593e-03 -6.771068e+01
2010000000 -6.042496e-02 -6.807533e+01 -6.733038e+01 -1.545351e+02 -7.117553e+01 -1.544170e+02 8.007822e-03 -6.808251e+01
2020000000 -6.160245e-02 -6.800304e+01 -6.811425e+01 -1.348896e+02 -6.896860e+01 -1.588349e+02 1.150646e-02 -6.843533e+01
2030000000 -6.402045e-02 -6.838376e+01 -6.750155e+01 -1.337661e+02 -6.722711e+01 -1.271017e+02 5.151242e-03 -6.882517e+01
2040000000 -6.456257e-02 -6.914388e+01 -6.813816e+01 -1.460324e+02 -6.852030e+01 -1.316019e+02 1.035724e-02 -6.921113e+01
2050000000 -6.311256e-02 -6.934769e+01 -6.988589e+01 -1.088825e+02 -7.447161e+01 -1.400100e+02 5.993479e-03 -6.960063e+01
2060000000 -7.135099e-02 -6.981577e+01 -7.101662e+01 -1.229033e+02 -6.954697e+01 -1.020286e+02 7.360533e-03 -6.999009e+01
2070000000 -6.829716e-02 -7.025211e+01 -6.844382e+01 -1.051353e+02 -7.212298e+01 -1.082952e+02 -3.903247e-03 -7.038871e+01
2080000000 -6.650671e-02 -7.027116e+01 -6.777399e+01 -7.147081e+01 -6.804716e+01 -7.344198e+01 -1.163553e-04 -7.075841e+01
2090000000 -7.014231e-02 -7.079680e+01 -6.766768e+01 -7.925265e+01 -6.529217e+01 -8.048832e+01 -4.403482e-03 -7.113140e+01
2100000000 -6.985766e-02 -7.108827e+01 -6.401827e+01 -1.014181e+02 -6.337761e+01 -8.852880e+01 4.626698e-03 -7.151698e+01
2110000000 -7.031853e-02 -7.133176e+01 -6.328942e+01 -1.034830e+02 -6.402639e+01 -9.216092e+01 -2.391449e-03 -7.189137e+01
2120000000 -7.840656e-02 -7.192436e+01 -6.146407e+01 -1.034513e+02 -6.197165e+01 -9.884531e+01 -4.708230e-03 -7.289812e+01
2130000000 -7.463031e-02 -7.225664e+01 -6.112765e+01 -1.113458e+02 -6.189873e+01 -1.025536e+02 -1.345989e-02 -7.346626e+01
2140000000 -7.726108e-02 -7.250668e+01 -6.035141e+01 -1.133155e+02 -6.130161e+01 -1.074619e+02 -8.221285e-03 -7.332545e+01
2150000000 -8.031394e-02 -7.314445e+01 -6.138872e+01 -1.275014e+02 -6.132552e+01 -1.267391e+02 -1.410530e-02 -7.408295e+01
2160000000 -7.977583e-02 -7.344125e+01 -6.394075e+01 -1.377956e+02 -6.274668e+01 -1.288820e+02 -9.927149e-03 -7.456783e+01
2170000000 -8.147326e-02 -7.377277e+01 -6.355688e+01 -1.283265e+02 -6.547263e+01 -1.196600e+02 -1.443256e-02 -7.468055e+01
2180000000 -7.866747e-02 -7.422394e+01 -6.380996e+01 -1.340773e+02 -6.598123e+01 -1.418262e+02 -7.983239e-03 -7.536114e+01
2190000000 -9.252829e-02 -7.522569e+01 -6.390512e+01 -1.303259e+02 -6.542969e+01 -1.412646e+02 -1.650202e-02 -7.566647e+01
2200000000 -9.015529e-02 -7.551147e+01 -6.589471e+01 -1.449304e+02 -6.531096e+01 -1.205706e+02 -1.366272e-02 -7.570053e+01
2210000000 -9.300757e-02 -7.609110e+01 -6.457710e+01 -1.210812e+02 -6.846272e+01 -1.130452e+02 -1.816601e-02 -7.648670e+01
2220000000 -9.521276e-02 -7.632957e+01 -7.155717e+01 -1.092961e+02 -7.297121e+01 -1.079702e+02 -2.109850e-02 -7.678875e+01
2230000000 -9.598833e-02 -7.676949e+01 -6.631640e+01 -8.809720e+01 -7.215757e+01 -1.032646e+02 -1.608987e-02 -7.715701e+01
2240000000 -1.000155e-01 -7.760622e+01 -6.633512e+01 -9.546013e+01 -7.040337e+01 -7.390508e+01 -1.858827e-02 -7.792362e+01
2250000000 -1.005528e-01 -7.772382e+01 -7.474023e+01 -1.290804e+02 -6.996284e+01 -1.067493e+02 -1.601778e-02 -7.782379e+01
2260000000 -1.005078e-01 -7.767964e+01 -6.884027e+01 -4.026584e+01 -7.142492e+01 -3.084549e+01 -2.299805e-02 -7.827124e+01
2270000000 -1.083901e-01 -7.850797e+01 -6.799145e+01 -2.687614e+01 -7.034771e+01 -5.838955e+01 -2.607547e-02 -7.879911e+01
2280000000 -1.133840e-01 -7.896630e+01 -6.696353e+01 -3.408951e+01 -6.773003e+01 -3.439424e+01 -2.535340e-02 -7.904129e+01
2290000000 -1.081702e-01 -7.917595e+01 -6.468382e+01 -2.960293e+01 -6.741076e+01 -4.989195e+01 -3.056628e-02 -7.967964e+01
2300000000 -1.146178e-01 -7.994445e+01 -6.448914e+01 -2.715792e+01 -6.728294e+01 -3.351360e+01 -3.062397e-02 -8.025121e+01
2310000000 -1.203425e-01 -8.019898e+01 -6.227186e+01 -2.265683e+01 -6.345839e+01 -1.987434e+01 -3.004719e-02 -8.038730e+01
2320000000 -1.210813e-01 -8.057262e+01 -6.274926e+01 -3.676588e+01 -6.398780e+01 -2.535000e+01 -4.102467e-02 -8.100802e+01
2330000000 -1.160006e-01 -8.130909e+01 -6.236922e+01 -2.138767e+01 -6.308859e+01 -1.161603e+01 -3.664608e-02 -8.175069e+01
2340000000 -1.184546e-01 -8.133434e+01 -6.290450e+01 -1.165653e+01 -6.211636e+01 -1.384490e+01 -3.735009e-02 -8.173230e+01
2350000000 -1.274507e-01 -8.213691e+01 -5.960726e+01 -1.737276e+01 -5.968587e+01 -2.364785e+01 -5.858907e-02 -8.408926e+01
2360000000 -1.181595e-01 -8.142389e+01 -5.954327e+01 -2.079290e+01 -6.014268e+01 -7.250799e+00 -4.394728e-02 -8.240821e+01
2370000000 -1.297406e-01 -8.242225e+01 -5.768630e+01 -1.373245e+01 -5.797499e+01 -1.566672e+01 -4.812650e-02 -8.293382e+01
2380000000 -1.356604e-01 -8.321435e+01 -5.738731e+01 -1.306302e+01 -5.795346e+01 -1.487008e+01 -5.523270e-02 -8.381841e+01
2390000000 -1.366774e-01 -8.357051e+01 -5.684640e+01 -2.218551e+01 -5.699263e+01 -1.049142e+01 -5.561527e-02 -8.424673e+01
2400000000 -1.373123e-01 -8.356350e+01 -5.625760e+01 -1.021371e+01 -5.623996e+01 -1.007771e+01 -5.069981e-02 -8.415809e+01
2410000000 -1.484426e-01 -8.477077e+01 -5.500312e+01 -1.705916e+01 -5.562573e+01 -8.389025e+00 -6.210623e-02 -8.501580e+01
2420000000 -1.559342e-01 -8.521941e+01 -5.452075e+01 -1.453468e+01 -5.351625e+01 -1.100005e+01 -5.328360e-02 -8.540008e+01
2430000000 -1.448112e-01 -8.496711e+01 -5.389754e+01 -9.103553e+00 -5.452489e+01 -1.183004e+01 -5.457810e-02 -8.565302e+01
2440000000 -1.575854e-01 -8.588925e+01 -5.248410e+01 -1.159014e+01 -5.289040e+01 -1.370058e+01 -6.526414e-02 -8.660593e+01
2450000000 -1.574864e-01 -8.655999e+01 -5.179583e+01 -1.685248e+01 -5.212206e+01 -1.401921e+01 -6.206723e-02 -8.658681e+01
2460000000 -1.586116e-01 -8.622102e+01 -5.185639e+01 -1.041723e+01 -5.187857e+01 -1.047063e+01 -6.100611e-02 -8.669591e+01
2470000000 -1.716877e-01 -8.718753e+01 -5.070578e+01 -1.409457e+01 -5.052027e+01 -1.162094e+01 -6.941668e-02 -8.775158e+01
2480000000 -1.757805e-01 -8.773369e+01 -4.984853e+01 -1.035408e+01 -5.026347e+01 -1.196032e+01 -6.692395e-02 -8.792117e+01
2490000000 -1.712641e-01 -8.770625e+01 -4.879431e+01 -1.659441e+01 -4.952215e+01 -1.067810e+01 -7.702730e-02 -8.836154e+01
2500000000 -1.839916e-01 -8.871095e+01 -4.852682e+01 -1.596856e+01 -4.824648e+01 -1.671199e+01 -7.743762e-02 -8.944923e+01
2510000000 -1.930685e-01 -8.904948e+01 -4.787612e+01 -1.770624e+01 -4.791851e+01 -1.852622e+01 -7.698743e-02 -8.926182e+01
2520000000 -1.845677e-01 -8.883406e+01 -4.783741e+01 -1.609557e+01 -4.795931e+01 -1.528564e+01 -7.395900e-02 -8.953745e+01
2530000000 -1.829112e-01 -8.948785e+01 -4.695824e+01 -1.697455e+01 -4.682641e+01 -1.308080e+01 -8.399279e-02 -9.090872e+01
2540000000 -1.971313e-01 -9.020666e+01 -4.644244e+01 -1.935116e+01 -4.671649e+01 -1.731993e+01 -7.453015e-02 -9.069686e+01
2550000000 -1.952740e-01 -9.029202e+01 -4.611258e+01 -2.013906e+01 -4.603947e+01 -1.859915e+01 -8.367627e-02 -9.159923e+01
2560000000 -1.919345e-01 -9.071796e+01 -4.565116e+01 -2.039139e+01 -4.529498e+01 -1.969709e+01 -9.394819e-02 -9.231021e+01
2570000000 -1.880583e-01 -9.106391e+01 -4.507571e+01 -1.996535e+01 -4.546336e+01 -1.789224e+01 -9.249085e-02 -9.209122e+01
2580000000 -1.994711e-01 -9.173529e+01 -4.460234e+01 -2.089330e+01 -4.506329e+01 -1.887788e+01 -9.418439e-02 -9.309209e+01
2590000000 -2.039109e-01 -9.232954e+01 -4.424632e+01 -1.892259e+01 -4.423386e+01 -2.156745e+01 -9.587713e-02 -9.391481e+01
2600000000 -1.952496e-01 -9.252747e+01 -4.412778e+01 -1.822468e+01 -4.418801e+01 -1.917041e+01 -1.001681e-01 -9.390199e+01
2610000000 -2.108469e-01 -9.324420e+01 -4.366913e+01 -1.877274e+01 -4.348360e+01 -2.064279e+01 -1.059117e-01 -9.465733e+01
