!Agilent Technologies,N5227A,US51270477,A.10.00.00

!File generated by LCAF-GAM-UPV software
!josevmart@iteam.upv.es
!S2P File: Measurements: S11, S21, S12, S22:
# Hz S  dB   R 50
1000000000 -7.346623e-04 -3.120505e+01 -7.607626e+01 -1.659081e+02 -7.980622e+01 1.721853e+02 1.692059e-02 -3.167372e+01
1010000000 8.196454e-03 -3.147242e+01 -7.734142e+01 -1.102636e+02 -9.271538e+01 -8.769568e+01 1.618965e-02 -3.199070e+01
1020000000 3.313462e-03 -3.177114e+01 -7.680319e+01 -4.629992e+01 -7.669076e+01 -8.660012e+01 1.526165e-02 -3.238730e+01
1030000000 6.700710e-03 -3.209270e+01 -9.313672e+01 5.676651e+01 -8.402949e+01 8.408353e+00 1.598824e-02 -3.267129e+01
1040000000 1.539049e-03 -3.240589e+01 -7.738632e+01 -1.320039e+02 -7.646967e+01 1.752532e+02 1.891215e-02 -3.283880e+01
1050000000 -3.386839e-03 -3.271979e+01 -8.239632e+01 7.803173e+01 -7.493983e+01 -1.146139e+02 1.744594e-02 -3.325964e+01
1060000000 1.545912e-03 -3.301925e+01 -7.851672e+01 -5.459496e+01 -7.398459e+01 -1.482726e+02 1.672317e-02 -3.374195e+01
1070000000 -5.270721e-04 -3.335328e+01 -7.443578e+01 -1.515447e+02 -8.557462e+01 -4.634465e+01 1.885360e-02 -3.400883e+01
1080000000 1.248214e-03 -3.362493e+01 -7.713187e+01 -1.643067e+02 -7.669761e+01 -9.201723e+01 2.070354e-02 -3.426391e+01
1090000000 3.412771e-03 -3.393318e+01 -7.566418e+01 -1.409005e+02 -7.452637e+01 1.545282e+02 1.776667e-02 -3.440377e+01
1100000000 -3.899793e-03 -3.422835e+01 -8.012606e+01 -7.416091e+01 -7.870583e+01 -1.186988e+02 2.439037e-02 -3.494875e+01
1110000000 2.228255e-03 -3.456502e+01 -7.693203e+01 -1.294283e+02 -7.929553e+01 -1.133394e+02 2.166349e-02 -3.529055e+01
1120000000 1.892757e-03 -3.485525e+01 -9.006756e+01 -1.760792e+02 -8.006705e+01 2.237137e+01 1.945064e-02 -3.543544e+01
1130000000 -5.162519e-03 -3.519305e+01 -8.032880e+01 -8.043259e+01 -7.366111e+01 -1.287325e+02 1.934794e-02 -3.586877e+01
1140000000 -1.498362e-03 -3.551555e+01 -7.638982e+01 -1.219259e+02 -7.856000e+01 -5.663778e+01 1.755559e-02 -3.623400e+01
1150000000 2.332042e-03 -3.579563e+01 -7.400366e+01 -1.799989e+02 -7.669727e+01 -1.296465e+02 2.246027e-02 -3.647366e+01
1160000000 -3.098084e-04 -3.612159e+01 -7.692752e+01 -9.283698e+01 -6.808667e+01 -8.372925e+01 2.110290e-02 -3.688286e+01
1170000000 1.682269e-03 -3.640664e+01 -7.184323e+01 -9.228850e+01 -7.429608e+01 -1.043056e+02 2.328216e-02 -3.714375e+01
1180000000 -1.839602e-03 -3.672546e+01 -7.305145e+01 -1.119851e+02 -7.095747e+01 -1.023228e+02 2.275914e-02 -3.746922e+01
1190000000 -1.814786e-03 -3.704011e+01 -7.071085e+01 -1.154481e+02 -6.971844e+01 -1.195258e+02 2.224946e-02 -3.781771e+01
1200000000 2.316170e-04 -3.733264e+01 -7.707027e+01 -9.867686e+01 -6.964661e+01 -1.197192e+02 2.586208e-02 -3.827391e+01
1210000000 2.051786e-03 -3.763756e+01 -7.475906e+01 -1.500211e+02 -7.033849e+01 -1.122182e+02 2.760677e-02 -3.848799e+01
1220000000 4.335278e-03 -3.794688e+01 -7.095081e+01 -1.390216e+02 -7.401927e+01 -1.518963e+02 2.235801e-02 -3.884837e+01
1230000000 -2.269500e-05 -3.829123e+01 -7.301499e+01 -1.264429e+02 -7.276435e+01 1.660001e+02 2.751003e-02 -3.909853e+01
1240000000 -2.775985e-03 -3.858414e+01 -7.284368e+01 -1.504038e+02 -7.130718e+01 -1.415222e+02 2.468246e-02 -3.948577e+01
1250000000 -4.411412e-04 -3.889791e+01 -7.152143e+01 -1.676960e+02 -7.373406e+01 1.693976e+02 2.594598e-02 -3.979913e+01
1260000000 -3.360356e-03 -3.921370e+01 -7.322612e+01 -1.616096e+02 -6.966070e+01 -1.485519e+02 1.711181e-02 -4.008710e+01
1270000000 -1.378463e-03 -3.952310e+01 -7.572946e+01 1.597334e+02 -7.554037e+01 -1.638871e+02 2.259942e-02 -4.023749e+01
1280000000 -2.996125e-03 -3.981874e+01 -8.673275e+01 -1.018930e+02 -7.460703e+01 -1.522739e+02 2.082712e-02 -4.056218e+01
1290000000 -7.563063e-04 -4.012269e+01 -7.440525e+01 -9.437698e+01 -7.098087e+01 -1.549632e+02 2.064430e-02 -4.089280e+01
1300000000 2.498242e-03 -4.047400e+01 -7.621705e+01 -1.158766e+02 -7.267985e+01 -1.115192e+02 2.549103e-02 -4.128006e+01
1310000000 -5.492092e-03 -4.077865e+01 -7.392681e+01 -1.370244e+02 -6.893594e+01 -1.239169e+02 2.521730e-02 -4.152755e+01
1320000000 3.719209e-03 -4.109782e+01 -7.544291e+01 -1.525962e+02 -6.753225e+01 -1.167599e+02 2.848226e-02 -4.193941e+01
1330000000 -4.829390e-03 -4.140932e+01 -7.306251e+01 -1.398473e+02 -6.971149e+01 -1.494618e+02 2.460405e-02 -4.222326e+01
1340000000 -2.209527e-03 -4.172732e+01 -7.064989e+01 -1.486699e+02 -6.944642e+01 -1.223268e+02 2.863903e-02 -4.273224e+01
1350000000 -3.468360e-03 -4.204293e+01 -6.999028e+01 -1.525691e+02 -7.221124e+01 -1.255223e+02 2.685142e-02 -4.311920e+01
1360000000 1.101922e-03 -4.237233e+01 -7.006973e+01 -1.233393e+02 -6.875555e+01 -1.562859e+02 3.088978e-02 -4.332743e+01
1370000000 -9.742626e-04 -4.266766e+01 -6.865543e+01 -1.339516e+02 -7.259962e+01 -1.774885e+02 2.562387e-02 -4.358735e+01
1380000000 4.971723e-03 -4.298867e+01 -7.210629e+01 -1.675021e+02 -6.983330e+01 -1.501854e+02 3.212561e-02 -4.383723e+01
1390000000 -1.855004e-03 -4.330147e+01 -7.133041e+01 -1.645140e+02 -7.364581e+01 -1.604509e+02 2.602297e-02 -4.418527e+01
1400000000 1.707944e-03 -4.377946e+01 -7.630551e+01 -1.263647e+02 -7.038814e+01 -1.309708e+02 2.434754e-02 -4.439305e+01
1410000000 3.516772e-03 -4.414790e+01 -7.357824e+01 -1.543742e+02 -7.266594e+01 -1.432565e+02 2.593431e-02 -4.470755e+01
1420000000 -1.101010e-03 -4.445251e+01 -6.925647e+01 -1.295299e+02 -6.976010e+01 -1.550228e+02 3.056053e-02 -4.503420e+01
1430000000 -2.599594e-03 -4.473154e+01 -6.863288e+01 -1.108736e+02 -6.869189e+01 -1.382349e+02 3.020871e-02 -4.537716e+01
1440000000 -2.981055e-03 -4.514665e+01 -7.001278e+01 -1.183682e+02 -6.845729e+01 -1.312259e+02 3.166461e-02 -4.568383e+01
1450000000 -1.227500e-03 -4.537035e+01 -6.945857e+01 -1.285544e+02 -7.679699e+01 -1.507677e+02 2.559316e-02 -4.599696e+01
1460000000 -3.020045e-03 -4.565698e+01 -7.201367e+01 -1.184119e+02 -7.238448e+01 -8.687805e+01 2.585146e-02 -4.631549e+01
1470000000 3.023273e-04 -4.602480e+01 -6.884000e+01 -1.602481e+02 -6.958758e+01 -1.343004e+02 3.164327e-02 -4.661322e+01
1480000000 2.225084e-03 -4.650476e+01 -7.160980e+01 -1.287272e+02 -7.026578e+01 -1.220097e+02 3.271355e-02 -4.695333e+01
1490000000 -1.292039e-03 -4.666312e+01 -6.825645e+01 -1.199706e+02 -7.250687e+01 -1.442403e+02 3.059541e-02 -4.722349e+01
1500000000 9.133915e-04 -4.707827e+01 -7.291594e+01 -1.326891e+02 -6.840952e+01 -1.191081e+02 3.004559e-02 -4.754922e+01
1510000000 -1.715467e-03 -4.753305e+01 -6.808311e+01 -1.169771e+02 -7.248225e+01 -1.496267e+02 2.335215e-02 -4.787425e+01
1520000000 -2.813855e-05 -4.778733e+01 -7.312970e+01 -1.567823e+02 -7.282467e+01 -1.062074e+02 2.862501e-02 -4.820374e+01
1530000000 -2.627516e-03 -4.819615e+01 -6.647863e+01 -1.249089e+02 -7.054823e+01 1.793172e+02 2.740338e-02 -4.853393e+01
1540000000 -2.550323e-03 -4.852500e+01 -6.994700e+01 -1.309847e+02 -6.826170e+01 -1.490539e+02 3.178306e-02 -4.885686e+01
1550000000 2.831051e-03 -4.879320e+01 -6.808980e+01 -1.598524e+02 -7.071937e+01 -1.470023e+02 2.608025e-02 -4.916219e+01
1560000000 2.740115e-04 -4.919481e+01 -7.018297e+01 -1.420211e+02 -6.659541e+01 -1.498671e+02 2.846943e-02 -4.943064e+01
1570000000 -7.631651e-04 -4.947095e+01 -6.767876e+01 -1.418918e+02 -6.826051e+01 -1.263895e+02 2.891164e-02 -4.976289e+01
1580000000 -3.011582e-03 -4.982085e+01 -6.881346e+01 -1.304386e+02 -6.738243e+01 -1.227649e+02 2.973163e-02 -5.007245e+01
1590000000 -6.842667e-03 -4.950611e+01 -7.235432e+01 -1.428863e+02 -6.779808e+01 -1.387001e+02 2.517376e-02 -5.039497e+01
1600000000 -7.915624e-03 -5.030886e+01 -6.944720e+01 -1.371258e+02 -6.973663e+01 -1.111699e+02 3.321897e-02 -5.072791e+01
1610000000 -3.156426e-03 -5.096034e+01 -6.687595e+01 -1.353499e+02 -6.659599e+01 -1.204088e+02 2.929828e-02 -5.105796e+01
1620000000 -5.560025e-03 -5.112286e+01 -6.499345e+01 -1.238120e+02 -6.431618e+01 -1.380637e+02 3.050168e-02 -5.137198e+01
1630000000 -6.042103e-03 -5.139207e+01 -6.604852e+01 -1.359329e+02 -6.562272e+01 -1.316327e+02 3.035386e-02 -5.169543e+01
1640000000 -9.672067e-03 -5.182802e+01 -6.432864e+01 -1.407650e+02 -6.600768e+01 -1.380980e+02 3.822183e-02 -5.198748e+01
1650000000 -7.426220e-03 -5.217803e+01 -6.431149e+01 -1.568355e+02 -6.584955e+01 -1.561303e+02 2.960297e-02 -5.233275e+01
1660000000 -7.353457e-03 -5.245930e+01 -6.551327e+01 -1.423585e+02 -6.456519e+01 -1.562963e+02 2.752667e-02 -5.268370e+01
1670000000 -9.479790e-03 -5.274706e+01 -6.901075e+01 -1.590111e+02 -6.780788e+01 -1.640289e+02 3.065915e-02 -5.298814e+01
1680000000 -6.956779e-03 -5.327285e+01 -6.589834e+01 -1.568926e+02 -6.501751e+01 -1.651070e+02 3.071992e-02 -5.333328e+01
1690000000 -1.201066e-02 -5.355258e+01 -6.454647e+01 -1.490882e+02 -6.536887e+01 -1.703073e+02 3.439832e-02 -5.359821e+01
1700000000 -4.552338e-03 -5.382093e+01 -6.565866e+01 -1.284065e+02 -6.705796e+01 -1.539161e+02 3.478171e-02 -5.390468e+01
1710000000 -8.674629e-03 -5.411044e+01 -6.582286e+01 -1.513187e+02 -6.526895e+01 -1.550739e+02 3.204359e-02 -5.423516e+01
1720000000 -1.107970e-02 -5.433279e+01 -6.535618e+01 -1.654506e+02 -6.521201e+01 -1.394660e+02 3.384326e-02 -5.457838e+01
1730000000 -1.321703e-02 -5.473109e+01 -6.485618e+01 -1.433300e+02 -6.999667e+01 -1.465027e+02 2.745810e-02 -5.492017e+01
1740000000 -9.987287e-03 -5.504278e+01 -6.950544e+01 -1.289107e+02 -6.697714e+01 -1.361613e+02 2.995151e-02 -5.527235e+01
1750000000 -1.339566e-02 -5.548923e+01 -6.645280e+01 -1.512401e+02 -6.505296e+01 -1.485702e+02 3.026610e-02 -5.560962e+01
1760000000 -1.128282e-02 -5.548843e+01 -6.576262e+01 -1.426886e+02 -6.559429e+01 -1.366138e+02 3.309089e-02 -5.590898e+01
1770000000 -1.096758e-02 -5.608194e+01 -6.786782e+01 -1.382633e+02 -6.482916e+01 -1.302362e+02 2.863919e-02 -5.624879e+01
1780000000 -8.981343e-03 -5.641266e+01 -6.560554e+01 -1.454848e+02 -6.377214e+01 -1.366463e+02 3.246488e-02 -5.657335e+01
1790000000 -1.043290e-02 -5.653936e+01 -6.509297e+01 -1.401289e+02 -6.618367e+01 -1.327993e+02 3.448147e-02 -5.691227e+01
1800000000 -9.159503e-03 -5.696237e+01 -6.414521e+01 -1.452115e+02 -6.565313e+01 -1.440766e+02 2.976538e-02 -5.727157e+01
1810000000 -1.548283e-02 -5.723656e+01 -6.375320e+01 -1.556544e+02 -6.392688e+01 -1.511840e+02 3.290264e-02 -5.762687e+01
1820000000 -1.482827e-02 -5.750212e+01 -6.618919e+01 -1.413401e+02 -6.556298e+01 -1.575826e+02 2.956166e-02 -5.792653e+01
1830000000 -1.345071e-02 -5.795790e+01 -6.431968e+01 -1.603979e+02 -6.529662e+01 -1.339131e+02 3.295887e-02 -5.822799e+01
1840000000 -1.094287e-02 -5.811954e+01 -6.635355e+01 -1.520704e+02 -6.638241e+01 -1.361110e+02 3.289460e-02 -5.858075e+01
1850000000 -7.162229e-03 -5.837162e+01 -6.623376e+01 -1.465059e+02 -6.527074e+01 -1.299742e+02 2.982711e-02 -5.893855e+01
1860000000 -1.246273e-02 -5.881668e+01 -6.550378e+01 -1.415613e+02 -6.315846e+01 -1.570482e+02 3.015563e-02 -5.927431e+01
1870000000 -1.333616e-02 -5.904279e+01 -6.723724e+01 -1.481494e+02 -6.425064e+01 -1.487034e+02 3.236374e-02 -5.962656e+01
1880000000 -1.203711e-02 -5.942061e+01 -6.549741e+01 -1.408340e+02 -6.538042e+01 -1.332251e+02 3.423506e-02 -5.997829e+01
1890000000 -1.222107e-02 -5.979921e+01 -6.541001e+01 -1.574991e+02 -6.767227e+01 -1.590650e+02 3.258104e-02 -6.031427e+01
1900000000 -1.344477e-02 -6.018432e+01 -6.632242e+01 -1.542420e+02 -6.550569e+01 -1.270986e+02 3.187100e-02 -6.119856e+01
1910000000 -1.529997e-02 -6.050023e+01 -6.190812e+01 -1.439141e+02 -6.458318e+01 -1.368357e+02 3.052879e-02 -6.166964e+01
1920000000 -1.573067e-02 -6.093710e+01 -6.498605e+01 -1.487172e+02 -6.362424e+01 -1.490013e+02 3.484610e-02 -6.174790e+01
1930000000 -1.640386e-02 -6.130239e+01 -6.224571e+01 -1.506726e+02 -6.672081e+01 -1.449008e+02 3.413309e-02 -6.201623e+01
1940000000 -1.850045e-02 -6.164557e+01 -6.370533e+01 -1.403626e+02 -6.508924e+01 -1.568908e+02 2.668203e-02 -6.266533e+01
1950000000 -2.391049e-02 -6.261346e+01 -6.418977e+01 -1.594714e+02 -6.531031e+01 -1.487330e+02 3.088056e-02 -6.284058e+01
1960000000 -1.985624e-02 -6.256374e+01 -6.345318e+01 -1.444272e+02 -6.552652e+01 -1.409825e+02 3.217090e-02 -6.302325e+01
1970000000 -2.553200e-02 -6.303118e+01 -6.248991e+01 -1.529759e+02 -6.576634e+01 -1.639263e+02 3.156712e-02 -6.349790e+01
1980000000 -3.011289e-02 -6.352068e+01 -6.328103e+01 -1.606472e+02 -6.492382e+01 -1.574744e+02 3.518182e-02 -6.380473e+01
1990000000 -2.669852e-02 -6.385480e+01 -6.397724e+01 -1.616206e+02 -6.469113e+01 -1.466234e+02 2.370903e-02 -6.430708e+01
2000000000 -2.573362e-02 -6.440616e+01 -6.542443e+01 -1.637608e+02 -6.413437e+01 -1.576451e+02 2.310686e-02 -6.452339e+01
2010000000 -3.213181e-02 -6.485339e+01 -6.384930e+01 -1.503227e+02 -6.458032e+01 -1.552685e+02 2.715618e-02 -6.505251e+01
2020000000 -3.005636e-02 -6.437812e+01 -6.643777e+01 -1.604982e+02 -6.479510e+01 -1.550200e+02 3.139845e-02 -6.609064e+01
2030000000 -2.931117e-02 -6.473938e+01 -6.497670e+01 -1.490780e+02 -6.496836e+01 -1.547892e+02 2.588890e-02 -6.556465e+01
2040000000 -3.196574e-02 -6.530698e+01 -6.402034e+01 -1.519779e+02 -6.595008e+01 -1.495244e+02 2.943095e-02 -6.569167e+01
2050000000 -3.159938e-02 -6.546400e+01 -6.552229e+01 -1.573957e+02 -6.743332e+01 -1.281061e+02 2.608175e-02 -6.610579e+01
2060000000 -3.891464e-02 -6.645683e+01 -6.787696e+01 -1.346380e+02 -6.700306e+01 -1.349689e+02 2.646247e-02 -6.677309e+01
2070000000 -3.570107e-02 -6.675945e+01 -6.929519e+01 -1.339376e+02 -6.789663e+01 -1.171892e+02 2.196031e-02 -6.698215e+01
2080000000 -3.482649e-02 -6.669953e+01 -6.679774e+01 -1.107972e+02 -6.529078e+01 -1.223321e+02 2.058562e-02 -6.708255e+01
2090000000 -3.726479e-02 -6.730241e+01 -6.510283e+01 -1.026823e+02 -6.354789e+01 -1.032996e+02 1.931948e-02 -6.778218e+01
2100000000 -3.804647e-02 -6.762437e+01 -6.218555e+01 -1.036323e+02 -6.442239e+01 -1.051901e+02 2.547055e-02 -6.817417e+01
2110000000 -3.415611e-02 -6.758378e+01 -6.148992e+01 -1.179763e+02 -6.027921e+01 -1.235760e+02 1.822408e-02 -6.838762e+01
2120000000 -4.120180e-02 -6.816447e+01 -6.144019e+01 -1.259343e+02 -6.045171e+01 -1.292906e+02 2.206064e-02 -6.905914e+01
2130000000 -4.063578e-02 -6.845647e+01 -6.047641e+01 -1.238417e+02 -5.994527e+01 -1.268966e+02 1.790202e-02 -6.893692e+01
2140000000 -4.130643e-02 -6.865387e+01 -5.930477e+01 -1.342844e+02 -5.870775e+01 -1.233211e+02 2.037149e-02 -6.926953e+01
2150000000 -4.167462e-02 -6.920662e+01 -6.004805e+01 -1.318749e+02 -5.935642e+01 -1.352720e+02 1.494174e-02 -7.030571e+01
2160000000 -4.325110e-02 -6.953261e+01 -6.071051e+01 -1.439680e+02 -6.011754e+01 -1.378500e+02 2.036747e-02 -7.018740e+01
2170000000 -4.283400e-02 -6.977468e+01 -5.989301e+01 -1.388718e+02 -6.085633e+01 -1.372977e+02 1.295118e-02 -7.058914e+01
2180000000 -4.243471e-02 -7.058942e+01 -5.940481e+01 -1.399206e+02 -6.212788e+01 -1.493444e+02 2.196685e-02 -7.126544e+01
2190000000 -4.700941e-02 -7.066093e+01 -6.063315e+01 -1.553658e+02 -6.074852e+01 -1.625886e+02 2.279709e-02 -7.102740e+01
2200000000 -4.232588e-02 -7.100282e+01 -6.170823e+01 -1.511062e+02 -6.067480e+01 -1.459341e+02 1.824572e-02 -7.177296e+01
2210000000 -4.909943e-02 -7.161372e+01 -6.047505e+01 -1.492057e+02 -6.205598e+01 -1.541936e+02 1.386961e-02 -7.242542e+01
2220000000 -4.745867e-02 -7.151050e+01 -6.490689e+01 -1.530112e+02 -6.131835e+01 -1.414218e+02 2.041712e-02 -7.218915e+01
2230000000 -4.691781e-02 -7.189484e+01 -6.176924e+01 -1.598392e+02 -6.280014e+01 -1.501541e+02 1.453812e-02 -7.278151e+01
2240000000 -4.466470e-02 -7.237402e+01 -6.372662e+01 -1.438741e+02 -6.301967e+01 -1.451631e+02 1.624117e-02 -7.342087e+01
2250000000 -4.988451e-02 -7.255547e+01 -6.431532e+01 -1.484853e+02 -6.371914e+01 -1.416716e+02 1.707541e-02 -7.335944e+01
2260000000 -5.463086e-02 -7.293011e+01 -6.645910e+01 -1.504915e+02 -6.374980e+01 -1.378323e+02 5.218024e-03 -7.416920e+01
2270000000 -5.483712e-02 -7.332884e+01 -6.554609e+01 -1.501788e+02 -6.560654e+01 -1.335766e+02 5.379361e-03 -7.469369e+01
2280000000 -5.666730e-02 -7.336737e+01 -6.611231e+01 -1.336361e+02 -6.724683e+01 -1.517822e+02 7.588868e-03 -7.450652e+01
2290000000 -4.931090e-02 -7.384945e+01 -6.654063e+01 -1.482384e+02 -6.548670e+01 -1.507567e+02 4.136081e-03 -7.532649e+01
2300000000 -5.950506e-02 -7.461211e+01 -6.747830e+01 -1.408911e+02 -6.418507e+01 -1.171605e+02 5.332703e-03 -7.568850e+01
2310000000 -6.232978e-02 -7.452966e+01 -6.371309e+01 -1.331666e+02 -6.651146e+01 -1.438407e+02 4.594809e-03 -7.583881e+01
2320000000 -6.210711e-02 -7.501781e+01 -6.849165e+01 -1.577019e+02 -6.801768e+01 -1.369109e+02 -5.916106e-03 -7.677349e+01
2330000000 -6.773266e-02 -7.678786e+01 -6.807073e+01 -1.324008e+02 -6.602546e+01 -1.249488e+02 4.865508e-03 -7.648450e+01
2340000000 -5.713346e-02 -7.566849e+01 -7.049335e+01 -1.486032e+02 -6.646871e+01 -1.137750e+02 2.929639e-04 -7.669619e+01
2350000000 -6.192397e-02 -7.632466e+01 -6.941831e+01 -1.322665e+02 -6.846702e+01 -1.307467e+02 -4.362883e-03 -7.769957e+01
2360000000 -6.770418e-02 -7.661754e+01 -7.416339e+01 -1.109276e+02 -6.734541e+01 -1.271463e+02 -4.213877e-03 -7.782525e+01
2370000000 -6.611738e-02 -7.674688e+01 -7.479072e+01 -9.934433e+01 -7.462518e+01 -1.161215e+02 -2.834884e-03 -7.793453e+01
2380000000 -7.377889e-02 -7.779937e+01 -6.861118e+01 -1.239928e+02 -7.658004e+01 -1.316101e+02 -1.660830e-02 -7.898277e+01
2390000000 -6.993040e-02 -7.768548e+01 -7.028956e+01 -9.168499e+01 -7.743155e+01 -7.530235e+01 -1.022434e-02 -7.884930e+01
2400000000 -7.748139e-02 -7.821481e+01 -7.753497e+01 -7.035178e+01 -7.649715e+01 -7.232652e+01 -5.437083e-03 -7.923050e+01
2410000000 -7.542045e-02 -7.864961e+01 -7.892937e+01 -9.112551e+01 -7.056902e+01 -6.903916e+01 -2.177682e-02 -7.990832e+01
2420000000 -8.202264e-02 -7.901691e+01 -7.169656e+01 -7.132906e+01 -6.881738e+01 -6.223938e+01 -7.619952e-03 -8.017972e+01
2430000000 -7.804576e-02 -7.938862e+01 -6.987456e+01 -3.079254e+01 -6.720832e+01 -2.128610e+01 -1.303310e-02 -8.059480e+01
2440000000 -8.525366e-02 -7.979095e+01 -7.055034e+01 -1.626918e+01 -6.450535e+01 -2.189500e+01 -1.596008e-02 -8.108728e+01
2450000000 -8.373740e-02 -8.014745e+01 -6.503503e+01 -4.567283e+01 -6.468699e+01 -1.747085e+01 -1.849419e-02 -8.152184e+01
2460000000 -8.683433e-02 -8.054861e+01 -6.262198e+01 -2.434176e+01 -6.335517e+01 -2.063308e+01 -2.723478e-02 -8.306857e+01
2470000000 -9.235635e-02 -8.089568e+01 -6.139715e+01 -1.581727e+01 -6.360144e+01 -1.233710e+01 -3.161979e-02 -8.382286e+01
2480000000 -9.732687e-02 -8.125227e+01 -6.158340e+01 -1.436575e+01 -6.056910e+01 -1.622230e+01 -2.412637e-02 -8.308611e+01
2490000000 -9.552827e-02 -8.171416e+01 -6.031483e+01 -1.406547e+01 -5.905125e+01 -2.549980e+01 -3.132739e-02 -8.377996e+01
2500000000 -9.566300e-02 -8.207316e+01 -5.880309e+01 -2.330372e+01 -5.797303e+01 -1.985446e+01 -3.181702e-02 -8.476981e+01
2510000000 -1.079281e-01 -8.250458e+01 -5.782383e+01 -1.880182e+01 -5.884090e+01 -2.119477e+01 -3.236936e-02 -8.446610e+01
2520000000 -1.097677e-01 -8.290411e+01 -5.720072e+01 -1.795548e+01 -5.698884e+01 -1.374334e+01 -3.192387e-02 -8.526611e+01
2530000000 -1.059845e-01 -8.327348e+01 -5.530489e+01 -1.734522e+01 -5.440300e+01 -1.415872e+01 -3.859929e-02 -8.640450e+01
2540000000 -1.118757e-01 -8.366213e+01 -5.612521e+01 -2.351238e+01 -5.418258e+01 -1.915468e+01 -3.448471e-02 -8.598859e+01
2550000000 -1.096757e-01 -8.407511e+01 -5.415350e+01 -2.340615e+01 -5.399569e+01 -2.272952e+01 -3.773611e-02 -8.694017e+01
2560000000 -1.080732e-01 -8.444708e+01 -5.387046e+01 -2.288305e+01 -5.395264e+01 -2.817855e+01 -3.593101e-02 -8.704588e+01
2570000000 -1.076263e-01 -8.483759e+01 -5.387453e+01 -3.117540e+01 -5.485101e+01 -2.652474e+01 -3.810813e-02 -8.695792e+01
2580000000 -1.114112e-01 -8.527999e+01 -5.334755e+01 -2.427017e+01 -5.251084e+01 -2.349816e+01 -4.440278e-02 -8.850685e+01
2590000000 -1.071595e-01 -8.567245e+01 -5.321907e+01 -2.039946e+01 -5.232998e+01 -1.864017e+01 -4.351034e-02 -8.864561e+01
2600000000 -1.101876e-01 -8.610513e+01 -5.273150e+01 -1.744852e+01 -5.205096e+01 -2.141336e+01 -3.839946e-02 -8.824028e+01
2610000000 -1.146696e-01 -8.656978e+01 -5.216553e+01 -1.407538e+01 -5.139740e+01 -1.826602e+01 -5.105251e-02 -8.954116e+01
