!Rohde-Schwarz,ZNB20-2Port,1311601062101657,3.32
!File generated by LCAF-GAM-iTEAM-UPV software
!jdelpin@iteam.upv.es ; josevmart@iteam.upv.es
!S2P File: Measurements: S11, S21, S12, S22:
# Hz S  dB   R 50
2.000000e+09 -9.228895e-01 9.919951e+01 -5.258857e+01 1.693311e+02 -5.275824e+01 1.703650e+02 -8.989397e-01 1.000146e+02
2.020000e+09 -9.357441e-01 9.656690e+01 -5.168853e+01 1.685349e+02 -5.147936e+01 1.687250e+02 -9.219059e-01 9.730545e+01
2.040000e+09 -9.625295e-01 9.385921e+01 -5.063998e+01 1.632658e+02 -5.035685e+01 1.643574e+02 -9.458157e-01 9.462499e+01
2.060000e+09 -9.919262e-01 9.118156e+01 -4.926170e+01 1.606531e+02 -4.921658e+01 1.611708e+02 -9.653702e-01 9.186501e+01
2.080000e+09 -1.004314e+00 8.844592e+01 -4.841608e+01 1.592874e+02 -4.855799e+01 1.597071e+02 -9.869415e-01 8.918629e+01
2.100000e+09 -1.037646e+00 8.566282e+01 -4.731174e+01 1.566897e+02 -4.733401e+01 1.573680e+02 -1.011525e+00 8.644824e+01
2.120000e+09 -1.058207e+00 8.294247e+01 -4.637715e+01 1.540842e+02 -4.633572e+01 1.538212e+02 -1.036679e+00 8.369337e+01
2.140000e+09 -1.083387e+00 8.017899e+01 -4.530262e+01 1.516120e+02 -4.521240e+01 1.504923e+02 -1.066452e+00 8.092093e+01
2.160000e+09 -1.108434e+00 7.741061e+01 -4.423570e+01 1.479634e+02 -4.422645e+01 1.485221e+02 -1.087873e+00 7.810284e+01
2.180000e+09 -1.131182e+00 7.464716e+01 -4.335344e+01 1.459914e+02 -4.325315e+01 1.457963e+02 -1.106834e+00 7.532821e+01
2.200000e+09 -1.162612e+00 7.187838e+01 -4.242177e+01 1.418841e+02 -4.231531e+01 1.430679e+02 -1.132047e+00 7.252147e+01
2.220000e+09 -1.197209e+00 6.910368e+01 -4.162008e+01 1.398059e+02 -4.139270e+01 1.394931e+02 -1.165054e+00 6.962169e+01
2.240000e+09 -1.229609e+00 6.626128e+01 -4.042023e+01 1.372187e+02 -4.049965e+01 1.370975e+02 -1.198040e+00 6.676031e+01
2.260000e+09 -1.264242e+00 6.339680e+01 -3.938335e+01 1.343029e+02 -3.936743e+01 1.339708e+02 -1.226174e+00 6.374164e+01
2.280000e+09 -1.281973e+00 6.041450e+01 -3.835242e+01 1.313221e+02 -3.837034e+01 1.314381e+02 -1.259469e+00 6.071722e+01
2.300000e+09 -1.308728e+00 5.754443e+01 -3.742453e+01 1.285949e+02 -3.741982e+01 1.280537e+02 -1.293689e+00 5.801918e+01
2.320000e+09 -1.341617e+00 5.460533e+01 -3.643798e+01 1.253421e+02 -3.640434e+01 1.250777e+02 -1.322546e+00 5.520734e+01
2.340000e+09 -1.373702e+00 5.160087e+01 -3.545538e+01 1.218448e+02 -3.537308e+01 1.219380e+02 -1.342382e+00 5.211112e+01
2.360000e+09 -1.407331e+00 4.838098e+01 -3.439550e+01 1.185274e+02 -3.438401e+01 1.184802e+02 -1.386341e+00 4.887105e+01
2.380000e+09 -1.464217e+00 4.519244e+01 -3.339753e+01 1.152639e+02 -3.332565e+01 1.148742e+02 -1.425833e+00 4.574694e+01
2.400000e+09 -1.492788e+00 4.201962e+01 -3.240553e+01 1.116536e+02 -3.233451e+01 1.116913e+02 -1.473191e+00 4.256735e+01
2.420000e+09 -1.543983e+00 3.876382e+01 -3.132965e+01 1.081787e+02 -3.130851e+01 1.079368e+02 -1.506499e+00 3.932785e+01
2.440000e+09 -1.592383e+00 3.562034e+01 -3.026715e+01 1.045748e+02 -3.022459e+01 1.041593e+02 -1.551171e+00 3.601184e+01
2.460000e+09 -1.631818e+00 3.229228e+01 -2.920531e+01 1.009111e+02 -2.918171e+01 1.005177e+02 -1.600195e+00 3.269646e+01
2.480000e+09 -1.695599e+00 2.884985e+01 -2.814977e+01 9.727821e+01 -2.811338e+01 9.645283e+01 -1.663973e+00 2.929175e+01
2.500000e+09 -1.760744e+00 2.533474e+01 -2.702546e+01 9.307780e+01 -2.706190e+01 9.252800e+01 -1.719155e+00 2.579981e+01
2.520000e+09 -1.831484e+00 2.160081e+01 -2.592255e+01 8.823553e+01 -2.589310e+01 8.833332e+01 -1.792022e+00 2.197966e+01
2.540000e+09 -1.905053e+00 1.784924e+01 -2.480803e+01 8.400418e+01 -2.473144e+01 8.367235e+01 -1.863967e+00 1.819653e+01
2.560000e+09 -1.996015e+00 1.397496e+01 -2.369230e+01 7.918654e+01 -2.363247e+01 7.898672e+01 -1.953628e+00 1.439435e+01
2.580000e+09 -2.095083e+00 1.008545e+01 -2.253994e+01 7.452611e+01 -2.243915e+01 7.418744e+01 -2.052410e+00 1.035794e+01
2.600000e+09 -2.218958e+00 6.025297e+00 -2.133588e+01 6.920041e+01 -2.128303e+01 6.927683e+01 -2.169861e+00 6.236499e+00
2.620000e+09 -2.368174e+00 1.742274e+00 -2.013879e+01 6.395963e+01 -2.009779e+01 6.392304e+01 -2.316732e+00 1.977529e+00
2.640000e+09 -2.550436e+00 -2.697249e+00 -1.890847e+01 5.839001e+01 -1.887273e+01 5.820436e+01 -2.490427e+00 -2.486514e+00
2.660000e+09 -2.755809e+00 -7.388539e+00 -1.770717e+01 5.223780e+01 -1.762020e+01 5.200316e+01 -2.703302e+00 -7.222429e+00
2.680000e+09 -3.021113e+00 -1.232195e+01 -1.643971e+01 4.553655e+01 -1.638336e+01 4.526723e+01 -2.968561e+00 -1.210740e+01
2.700000e+09 -3.352385e+00 -1.730017e+01 -1.520289e+01 3.821860e+01 -1.512844e+01 3.806385e+01 -3.295546e+00 -1.723360e+01
2.720000e+09 -3.765530e+00 -2.258102e+01 -1.395092e+01 3.011906e+01 -1.387188e+01 3.030137e+01 -3.715496e+00 -2.257180e+01
2.740000e+09 -4.307193e+00 -2.789137e+01 -1.272437e+01 2.172521e+01 -1.265481e+01 2.191110e+01 -4.226263e+00 -2.808339e+01
2.760000e+09 -4.984629e+00 -3.323312e+01 -1.153818e+01 1.243822e+01 -1.146169e+01 1.270278e+01 -4.903810e+00 -3.339729e+01
2.780000e+09 -5.849271e+00 -3.819876e+01 -1.042423e+01 2.382147e+00 -1.033664e+01 2.699228e+00 -5.757030e+00 -3.844864e+01
2.800000e+09 -6.897355e+00 -4.242221e+01 -9.399755e+00 -8.379611e+00 -9.299936e+00 -7.802869e+00 -6.793649e+00 -4.266320e+01
2.820000e+09 -8.144211e+00 -4.502505e+01 -8.511744e+00 -1.947176e+01 -8.415848e+00 -1.906929e+01 -8.041602e+00 -4.542509e+01
2.840000e+09 -9.519938e+00 -4.514639e+01 -7.747447e+00 -3.079311e+01 -7.676350e+00 -3.075683e+01 -9.395756e+00 -4.581185e+01
2.860000e+09 -1.081462e+01 -4.205037e+01 -7.140387e+00 -4.235246e+01 -7.060255e+00 -4.241536e+01 -1.071297e+01 -4.305495e+01
2.880000e+09 -1.173142e+01 -3.600747e+01 -6.680716e+00 -5.372984e+01 -6.589901e+00 -5.392537e+01 -1.165744e+01 -3.754414e+01
2.900000e+09 -1.204706e+01 -2.940214e+01 -6.330057e+00 -6.488636e+01 -6.248638e+00 -6.506396e+01 -1.200188e+01 -3.134389e+01
2.920000e+09 -1.188652e+01 -2.428493e+01 -6.071482e+00 -7.554479e+01 -5.995914e+00 -7.583721e+01 -1.187511e+01 -2.666454e+01
2.940000e+09 -1.151062e+01 -2.212705e+01 -5.873632e+00 -8.567439e+01 -5.802964e+00 -8.610767e+01 -1.155740e+01 -2.423128e+01
2.960000e+09 -1.116248e+01 -2.184141e+01 -5.731420e+00 -9.544635e+01 -5.658980e+00 -9.591702e+01 -1.125013e+01 -2.412518e+01
2.980000e+09 -1.090471e+01 -2.309875e+01 -5.602060e+00 -1.047206e+02 -5.532330e+00 -1.053058e+02 -1.104544e+01 -2.538350e+01
3.000000e+09 -1.082726e+01 -2.490698e+01 -5.497366e+00 -1.138557e+02 -5.420637e+00 -1.142687e+02 -1.101104e+01 -2.756835e+01
3.020000e+09 -1.091257e+01 -2.723307e+01 -5.392349e+00 -1.225823e+02 -5.321193e+00 -1.232081e+02 -1.113907e+01 -3.025800e+01
3.040000e+09 -1.118817e+01 -2.947771e+01 -5.290523e+00 -1.312802e+02 -5.219168e+00 -1.318158e+02 -1.145014e+01 -3.276264e+01
3.060000e+09 -1.159826e+01 -3.141137e+01 -5.199365e+00 -1.397702e+02 -5.133947e+00 -1.403637e+02 -1.194074e+01 -3.491355e+01
3.080000e+09 -1.220098e+01 -3.238112e+01 -5.117869e+00 -1.481125e+02 -5.045918e+00 -1.488381e+02 -1.263910e+01 -3.594566e+01
3.100000e+09 -1.283783e+01 -3.202409e+01 -5.047020e+00 -1.564017e+02 -4.975011e+00 -1.573355e+02 -1.344576e+01 -3.544300e+01
3.120000e+09 -1.350739e+01 -2.972739e+01 -4.999428e+00 -1.647093e+02 -4.935238e+00 -1.659333e+02 -1.435031e+01 -3.270903e+01
3.140000e+09 -1.407751e+01 -2.489496e+01 -4.975112e+00 -1.729675e+02 -4.899771e+00 -1.744039e+02 -1.517007e+01 -2.733126e+01
3.160000e+09 -1.432341e+01 -1.794441e+01 -4.995525e+00 1.786619e+02 -4.915166e+00 1.772079e+02 -1.557712e+01 -1.858614e+01
3.180000e+09 -1.408409e+01 -1.068788e+01 -5.051779e+00 1.704059e+02 -4.952333e+00 1.690561e+02 -1.535504e+01 -9.223042e+00
3.200000e+09 -1.341955e+01 -4.569148e+00 -5.122065e+00 1.622542e+02 -5.023481e+00 1.610739e+02 -1.454022e+01 -1.100355e+00
3.220000e+09 -1.248737e+01 -4.693174e-01 -5.212985e+00 1.542363e+02 -5.133457e+00 1.529388e+02 -1.335021e+01 4.005457e+00
3.240000e+09 -1.143127e+01 1.451914e+00 -5.345304e+00 1.461933e+02 -5.261346e+00 1.451223e+02 -1.206558e+01 6.300383e+00
3.260000e+09 -1.038599e+01 1.422942e+00 -5.517762e+00 1.384990e+02 -5.428025e+00 1.374736e+02 -1.083802e+01 6.220880e+00
3.280000e+09 -9.401815e+00 -2.445863e-01 -5.703364e+00 1.309129e+02 -5.639362e+00 1.299108e+02 -9.743584e+00 4.717440e+00
3.300000e+09 -8.532796e+00 -2.817951e+00 -5.928299e+00 1.235114e+02 -5.859158e+00 1.227455e+02 -8.810543e+00 1.883726e+00
3.320000e+09 -7.765989e+00 -6.008536e+00 -6.160124e+00 1.164658e+02 -6.105460e+00 1.157159e+02 -7.975119e+00 -1.536137e+00
3.340000e+09 -7.105976e+00 -9.584134e+00 -6.432315e+00 1.096074e+02 -6.355693e+00 1.089708e+02 -7.280722e+00 -5.453172e+00
3.360000e+09 -6.535546e+00 -1.349603e+01 -6.701435e+00 1.029400e+02 -6.625628e+00 1.024703e+02 -6.660273e+00 -9.533876e+00
3.380000e+09 -6.061911e+00 -1.748149e+01 -6.978063e+00 9.664089e+01 -6.892301e+00 9.615912e+01 -6.143723e+00 -1.370932e+01
3.400000e+09 -5.643437e+00 -2.165284e+01 -7.259261e+00 9.054492e+01 -7.172719e+00 8.998511e+01 -5.698215e+00 -1.799817e+01
3.420000e+09 -5.277367e+00 -2.586217e+01 -7.529520e+00 8.465568e+01 -7.449893e+00 8.402592e+01 -5.316049e+00 -2.236356e+01
3.440000e+09 -4.956758e+00 -3.013697e+01 -7.805219e+00 7.886339e+01 -7.729576e+00 7.833858e+01 -4.991770e+00 -2.671955e+01
3.460000e+09 -4.684714e+00 -3.426302e+01 -8.071343e+00 7.338623e+01 -8.002966e+00 7.294579e+01 -4.702448e+00 -3.105198e+01
3.480000e+09 -4.440964e+00 -3.839847e+01 -8.327119e+00 6.821458e+01 -8.267382e+00 6.765870e+01 -4.444708e+00 -3.522875e+01
3.500000e+09 -4.232948e+00 -4.255524e+01 -8.576777e+00 6.298537e+01 -8.518152e+00 6.239970e+01 -4.232139e+00 -3.944790e+01
3.520000e+09 -4.056337e+00 -4.657839e+01 -8.828856e+00 5.815070e+01 -8.781651e+00 5.730309e+01 -4.042887e+00 -4.358554e+01
3.540000e+09 -3.901852e+00 -5.060052e+01 -9.074136e+00 5.326866e+01 -9.021950e+00 5.225653e+01 -3.877430e+00 -4.758575e+01
3.560000e+09 -3.768969e+00 -5.459228e+01 -9.307460e+00 4.852094e+01 -9.252465e+00 4.739752e+01 -3.736432e+00 -5.171787e+01
3.580000e+09 -3.641140e+00 -5.847244e+01 -9.528129e+00 4.382005e+01 -9.481627e+00 4.282338e+01 -3.616159e+00 -5.573674e+01
3.600000e+09 -3.535347e+00 -6.240787e+01 -9.736857e+00 3.896622e+01 -9.680545e+00 3.839835e+01 -3.502734e+00 -5.962716e+01
3.620000e+09 -3.424368e+00 -6.624859e+01 -9.930925e+00 3.459840e+01 -9.868825e+00 3.413944e+01 -3.400978e+00 -6.350198e+01
3.640000e+09 -3.348569e+00 -7.002089e+01 -1.010782e+01 3.006446e+01 -1.006012e+01 2.983804e+01 -3.322649e+00 -6.723382e+01
3.660000e+09 -3.281510e+00 -7.381205e+01 -1.029527e+01 2.559185e+01 -1.022857e+01 2.560530e+01 -3.235898e+00 -7.100761e+01
3.680000e+09 -3.213316e+00 -7.752280e+01 -1.045862e+01 2.121164e+01 -1.037587e+01 2.124294e+01 -3.166749e+00 -7.474596e+01
3.700000e+09 -3.151050e+00 -8.130436e+01 -1.061613e+01 1.688444e+01 -1.053582e+01 1.696794e+01 -3.107337e+00 -7.853605e+01
3.720000e+09 -3.107188e+00 -8.501039e+01 -1.074984e+01 1.281932e+01 -1.068819e+01 1.260366e+01 -3.062521e+00 -8.222902e+01
3.740000e+09 -3.072838e+00 -8.872845e+01 -1.089580e+01 8.536835e+00 -1.082716e+01 8.565610e+00 -3.017519e+00 -8.595290e+01
3.760000e+09 -3.041513e+00 -9.242417e+01 -1.102067e+01 4.322815e+00 -1.095311e+01 4.338933e+00 -2.975186e+00 -8.963169e+01
3.780000e+09 -3.021880e+00 -9.612642e+01 -1.113978e+01 1.034388e-01 -1.106978e+01 1.153097e-01 -2.945479e+00 -9.334291e+01
3.800000e+09 -3.006023e+00 -9.990858e+01 -1.126038e+01 -4.097491e+00 -1.120147e+01 -4.204212e+00 -2.935704e+00 -9.706644e+01
3.820000e+09 -3.005794e+00 -1.036928e+02 -1.137366e+01 -8.209042e+00 -1.131680e+01 -8.525262e+00 -2.927496e+00 -1.007800e+02
3.840000e+09 -3.013238e+00 -1.075190e+02 -1.147540e+01 -1.251511e+01 -1.141420e+01 -1.274235e+01 -2.931804e+00 -1.045045e+02
3.860000e+09 -3.044410e+00 -1.113713e+02 -1.158297e+01 -1.692794e+01 -1.153014e+01 -1.711392e+01 -2.942882e+00 -1.082323e+02
3.880000e+09 -3.115699e+00 -1.153526e+02 -1.169109e+01 -2.131814e+01 -1.164788e+01 -2.164004e+01 -2.957574e+00 -1.118797e+02
3.900000e+09 -3.262358e+00 -1.193907e+02 -1.182425e+01 -2.609098e+01 -1.177322e+01 -2.638808e+01 -3.005520e+00 -1.156754e+02
3.920000e+09 -3.526200e+00 -1.233655e+02 -1.201688e+01 -3.116498e+01 -1.194536e+01 -3.130234e+01 -3.098999e+00 -1.195268e+02
3.940000e+09 -3.973283e+00 -1.265019e+02 -1.231482e+01 -3.651173e+01 -1.225302e+01 -3.645439e+01 -3.251476e+00 -1.234997e+02
3.960000e+09 -4.478887e+00 -1.267768e+02 -1.283529e+01 -4.104799e+01 -1.276988e+01 -4.098575e+01 -3.517536e+00 -1.272821e+02
3.980000e+09 -4.433273e+00 -1.245380e+02 -1.340898e+01 -4.337704e+01 -1.333243e+01 -4.336383e+01 -3.952034e+00 -1.301784e+02
4.000000e+09 -3.828878e+00 -1.251617e+02 -1.375615e+01 -4.434132e+01 -1.369849e+01 -4.433546e+01 -4.421275e+00 -1.301302e+02
4.020000e+09 -3.337527e+00 -1.284369e+02 -1.387657e+01 -4.444044e+01 -1.382883e+01 -4.448095e+01 -4.284156e+00 -1.279875e+02
4.040000e+09 -3.061698e+00 -1.327337e+02 -1.370540e+01 -4.542020e+01 -1.364668e+01 -4.534993e+01 -3.710332e+00 -1.290023e+02
4.060000e+09 -2.914651e+00 -1.370709e+02 -1.346288e+01 -4.805621e+01 -1.339753e+01 -4.813187e+01 -3.256244e+00 -1.325961e+02
4.080000e+09 -2.828058e+00 -1.412431e+02 -1.325278e+01 -5.140549e+01 -1.320100e+01 -5.158431e+01 -3.010561e+00 -1.367445e+02
4.100000e+09 -2.791954e+00 -1.452935e+02 -1.312099e+01 -5.538010e+01 -1.306880e+01 -5.548387e+01 -2.875171e+00 -1.409263e+02
4.120000e+09 -2.748182e+00 -1.487331e+02 -1.302626e+01 -5.891683e+01 -1.297343e+01 -5.905460e+01 -2.788884e+00 -1.449255e+02
4.140000e+09 -2.739343e+00 -1.522926e+02 -1.298377e+01 -6.275787e+01 -1.290650e+01 -6.304010e+01 -2.752676e+00 -1.487654e+02
4.160000e+09 -2.732364e+00 -1.558888e+02 -1.294072e+01 -6.673022e+01 -1.286921e+01 -6.694862e+01 -2.730343e+00 -1.524782e+02
4.180000e+09 -2.741290e+00 -1.594875e+02 -1.292509e+01 -7.051896e+01 -1.287109e+01 -7.093182e+01 -2.730798e+00 -1.560730e+02
4.200000e+09 -2.750581e+00 -1.630746e+02 -1.291982e+01 -7.428445e+01 -1.285916e+01 -7.465508e+01 -2.738699e+00 -1.596530e+02
4.220000e+09 -2.744698e+00 -1.665898e+02 -1.289067e+01 -7.787272e+01 -1.284728e+01 -7.840964e+01 -2.735469e+00 -1.631465e+02
4.240000e+09 -2.753988e+00 -1.701191e+02 -1.290666e+01 -8.176894e+01 -1.282828e+01 -8.192156e+01 -2.730349e+00 -1.666956e+02
4.260000e+09 -2.755465e+00 -1.735410e+02 -1.286402e+01 -8.578287e+01 -1.279249e+01 -8.546771e+01 -2.733060e+00 -1.703588e+02
4.280000e+09 -2.767270e+00 -1.770256e+02 -1.283690e+01 -8.952975e+01 -1.275359e+01 -8.931078e+01 -2.741689e+00 -1.738956e+02
4.300000e+09 -2.796005e+00 1.795203e+02 -1.280662e+01 -9.338510e+01 -1.274375e+01 -9.307558e+01 -2.767816e+00 -1.773056e+02
4.320000e+09 -2.820563e+00 1.759934e+02 -1.276360e+01 -9.702298e+01 -1.271535e+01 -9.699327e+01 -2.782361e+00 1.792738e+02
4.340000e+09 -2.858175e+00 1.724402e+02 -1.275368e+01 -1.008508e+02 -1.267472e+01 -1.008431e+02 -2.812560e+00 1.757771e+02
4.360000e+09 -2.885481e+00 1.689529e+02 -1.271895e+01 -1.047957e+02 -1.266173e+01 -1.048829e+02 -2.853519e+00 1.722913e+02
4.380000e+09 -2.902412e+00 1.654342e+02 -1.269085e+01 -1.086849e+02 -1.261390e+01 -1.087640e+02 -2.885072e+00 1.688150e+02
4.400000e+09 -2.931075e+00 1.620196e+02 -1.268103e+01 -1.126216e+02 -1.260773e+01 -1.128269e+02 -2.918058e+00 1.653138e+02
4.420000e+09 -2.973236e+00 1.585570e+02 -1.264696e+01 -1.165017e+02 -1.256143e+01 -1.168188e+02 -2.941040e+00 1.619217e+02
4.440000e+09 -3.006572e+00 1.552101e+02 -1.261649e+01 -1.205643e+02 -1.255537e+01 -1.207985e+02 -2.987479e+00 1.585806e+02
4.460000e+09 -3.057024e+00 1.518667e+02 -1.261739e+01 -1.247008e+02 -1.255920e+01 -1.248842e+02 -3.032049e+00 1.553660e+02
4.480000e+09 -3.085991e+00 1.485602e+02 -1.268626e+01 -1.285190e+02 -1.261189e+01 -1.285541e+02 -3.054923e+00 1.521425e+02
4.500000e+09 -3.088768e+00 1.451814e+02 -1.266090e+01 -1.318219e+02 -1.261021e+01 -1.318593e+02 -3.066746e+00 1.487759e+02
4.520000e+09 -3.125703e+00 1.415883e+02 -1.259832e+01 -1.356742e+02 -1.252362e+01 -1.354144e+02 -3.100228e+00 1.452258e+02
4.540000e+09 -3.156423e+00 1.380569e+02 -1.253659e+01 -1.394446e+02 -1.246649e+01 -1.394136e+02 -3.134983e+00 1.416550e+02
4.560000e+09 -3.196432e+00 1.346927e+02 -1.247093e+01 -1.433155e+02 -1.240181e+01 -1.430488e+02 -3.176038e+00 1.382506e+02
4.580000e+09 -3.244101e+00 1.313151e+02 -1.240140e+01 -1.471236e+02 -1.235961e+01 -1.470266e+02 -3.225637e+00 1.348072e+02
4.600000e+09 -3.291225e+00 1.279419e+02 -1.235203e+01 -1.511990e+02 -1.227181e+01 -1.509266e+02 -3.279270e+00 1.313940e+02
4.620000e+09 -3.345532e+00 1.243537e+02 -1.227308e+01 -1.552778e+02 -1.222507e+01 -1.551133e+02 -3.341800e+00 1.280000e+02
4.640000e+09 -3.409891e+00 1.208642e+02 -1.224039e+01 -1.593891e+02 -1.217400e+01 -1.592589e+02 -3.411566e+00 1.245416e+02
4.660000e+09 -3.471106e+00 1.173405e+02 -1.216237e+01 -1.634047e+02 -1.210672e+01 -1.634376e+02 -3.477019e+00 1.211674e+02
4.680000e+09 -3.526240e+00 1.138879e+02 -1.211335e+01 -1.676111e+02 -1.205014e+01 -1.677831e+02 -3.552330e+00 1.177970e+02
4.700000e+09 -3.590989e+00 1.105645e+02 -1.206484e+01 -1.719106e+02 -1.199630e+01 -1.719617e+02 -3.632324e+00 1.144901e+02
4.720000e+09 -3.673206e+00 1.072829e+02 -1.201826e+01 -1.761816e+02 -1.196452e+01 -1.762333e+02 -3.713437e+00 1.112188e+02
4.740000e+09 -3.752686e+00 1.038937e+02 -1.195097e+01 1.793860e+02 -1.188984e+01 1.795266e+02 -3.797460e+00 1.078937e+02
4.760000e+09 -3.850991e+00 1.005499e+02 -1.189655e+01 1.749660e+02 -1.182685e+01 1.750199e+02 -3.882438e+00 1.045205e+02
4.780000e+09 -3.952086e+00 9.733321e+01 -1.186992e+01 1.701064e+02 -1.180307e+01 1.703669e+02 -3.994634e+00 1.013313e+02
4.800000e+09 -4.033964e+00 9.435307e+01 -1.192805e+01 1.653920e+02 -1.185992e+01 1.657070e+02 -4.090795e+00 9.845680e+01
4.820000e+09 -4.083868e+00 9.148265e+01 -1.202616e+01 1.613335e+02 -1.194786e+01 1.615790e+02 -4.146433e+00 9.559557e+01
4.840000e+09 -4.119174e+00 8.824089e+01 -1.203898e+01 1.577866e+02 -1.195978e+01 1.581129e+02 -4.191016e+00 9.239606e+01
4.860000e+09 -4.180177e+00 8.495730e+01 -1.197807e+01 1.540148e+02 -1.189459e+01 1.542412e+02 -4.245060e+00 8.907468e+01
4.880000e+09 -4.257118e+00 8.158802e+01 -1.188483e+01 1.499180e+02 -1.182118e+01 1.501302e+02 -4.337327e+00 8.566494e+01
4.900000e+09 -4.356815e+00 7.824928e+01 -1.181074e+01 1.455254e+02 -1.174614e+01 1.457280e+02 -4.452900e+00 8.244241e+01
4.920000e+09 -4.463625e+00 7.503997e+01 -1.177838e+01 1.411665e+02 -1.169995e+01 1.412046e+02 -4.548320e+00 7.951842e+01
4.940000e+09 -4.550961e+00 7.183135e+01 -1.171664e+01 1.370454e+02 -1.166940e+01 1.369680e+02 -4.628419e+00 7.641273e+01
4.960000e+09 -4.667932e+00 6.866122e+01 -1.163724e+01 1.325351e+02 -1.157765e+01 1.325404e+02 -4.732532e+00 7.312127e+01
4.980000e+09 -4.793694e+00 6.557829e+01 -1.155183e+01 1.279759e+02 -1.150593e+01 1.277529e+02 -4.870110e+00 7.000358e+01
5.000000e+09 -4.925412e+00 6.255960e+01 -1.149523e+01 1.230497e+02 -1.142900e+01 1.229685e+02 -5.005802e+00 6.688946e+01
5.020000e+09 -5.075073e+00 5.975623e+01 -1.145858e+01 1.183184e+02 -1.139344e+01 1.177167e+02 -5.167296e+00 6.400115e+01
5.040000e+09 -5.205926e+00 5.703780e+01 -1.145313e+01 1.133232e+02 -1.139879e+01 1.127665e+02 -5.302703e+00 6.127951e+01
5.060000e+09 -5.343196e+00 5.429426e+01 -1.143598e+01 1.081611e+02 -1.137428e+01 1.077900e+02 -5.458646e+00 5.853844e+01
5.080000e+09 -5.460490e+00 5.167813e+01 -1.146266e+01 1.029775e+02 -1.139953e+01 1.027822e+02 -5.592100e+00 5.597051e+01
5.100000e+09 -5.579017e+00 4.921441e+01 -1.149671e+01 9.792936e+01 -1.143409e+01 9.766871e+01 -5.713615e+00 5.352562e+01
5.120000e+09 -5.691765e+00 4.678312e+01 -1.153715e+01 9.273278e+01 -1.148623e+01 9.279066e+01 -5.823111e+00 5.117028e+01
5.140000e+09 -5.793137e+00 4.455008e+01 -1.162107e+01 8.762575e+01 -1.157896e+01 8.776813e+01 -5.933742e+00 4.892231e+01
5.160000e+09 -5.897573e+00 4.218276e+01 -1.168273e+01 8.262947e+01 -1.162036e+01 8.269183e+01 -6.035841e+00 4.667289e+01
5.180000e+09 -5.979834e+00 3.991817e+01 -1.176530e+01 7.763041e+01 -1.171109e+01 7.762757e+01 -6.133893e+00 4.441488e+01
5.200000e+09 -6.040770e+00 3.779918e+01 -1.190627e+01 7.268820e+01 -1.184737e+01 7.261810e+01 -6.183954e+00 4.235366e+01
