!Agilent Technologies,N5227A,US51270477,A.10.00.00

!File generated by LCAF-GAM-UPV software
!josevmart@iteam.upv.es
!S2P File: Measurements: S11, S21, S12, S22:
# Hz S  dB   R 50
1000000000 9.232332e-03 -2.664631e+01 -8.092412e+01 -3.379962e+01 -8.332469e+01 -1.146792e+02 1.859353e-02 -2.688585e+01
1010000000 1.460175e-02 -2.687279e+01 -8.488741e+01 2.434138e+01 -8.268130e+01 2.546264e+01 2.113161e-02 -2.731775e+01
1020000000 1.280547e-02 -2.713572e+01 -8.890247e+01 1.004576e+02 -9.192006e+01 1.053078e+02 2.110157e-02 -2.748440e+01
1030000000 1.503022e-02 -2.740932e+01 -7.741873e+01 6.991206e+01 -7.248811e+01 -2.164005e+01 2.311296e-02 -2.780190e+01
1040000000 1.026655e-02 -2.766941e+01 -8.024184e+01 -1.593907e+02 -9.354412e+01 -3.781065e+01 2.113565e-02 -2.805508e+01
1050000000 9.316572e-03 -2.793391e+01 -7.850574e+01 1.581233e+02 -7.692901e+01 -8.536705e+01 1.908280e-02 -2.838668e+01
1060000000 1.146005e-02 -2.819238e+01 -8.872491e+01 1.002726e+01 -8.674935e+01 -5.684171e+01 2.051566e-02 -2.859728e+01
1070000000 1.188201e-02 -2.846378e+01 -7.715786e+01 7.514008e+01 -7.164838e+01 1.360494e+01 2.290961e-02 -2.890497e+01
1080000000 8.890055e-03 -2.871924e+01 -7.893440e+01 4.797443e+01 -9.439142e+01 -5.083073e+01 2.214224e-02 -2.911614e+01
1090000000 1.393759e-02 -2.898537e+01 -8.521430e+01 8.649348e+01 -7.961072e+01 1.595872e+01 2.553560e-02 -2.942978e+01
1100000000 9.159710e-03 -2.921517e+01 -8.799609e+01 -7.101563e+01 -7.850996e+01 9.997732e-01 2.965346e-02 -2.961210e+01
1110000000 1.546953e-02 -2.952878e+01 -7.626069e+01 -5.066392e+01 -7.781918e+01 1.129596e+02 2.737123e-02 -2.983619e+01
1120000000 1.590420e-02 -2.976036e+01 -8.039373e+01 7.399837e+01 -8.261623e+01 -1.593093e+02 2.128835e-02 -3.013333e+01
1130000000 6.858549e-03 -3.007166e+01 -7.612450e+01 -8.837107e+01 -8.146276e+01 -9.404622e+01 2.391077e-02 -3.042936e+01
1140000000 9.246013e-03 -3.032302e+01 -7.612029e+01 2.256215e+01 -8.749579e+01 1.337191e+02 2.882690e-02 -3.070148e+01
1150000000 1.422199e-02 -3.057950e+01 -8.755369e+01 -9.277953e+00 -8.234400e+01 2.785751e+01 2.856063e-02 -3.105648e+01
1160000000 1.728330e-02 -3.084516e+01 -8.682230e+01 1.009895e+02 -8.219312e+01 -4.327874e+01 3.149036e-02 -3.124616e+01
1170000000 1.254556e-02 -3.108525e+01 -7.694506e+01 -7.014553e+01 -7.976990e+01 -8.029489e+01 3.048367e-02 -3.148479e+01
1180000000 1.285838e-02 -3.136477e+01 -7.733762e+01 -1.088657e+02 -8.848986e+01 8.466506e+00 3.168769e-02 -3.180914e+01
1190000000 8.775336e-03 -3.163818e+01 -7.762398e+01 -1.224779e+02 -7.821902e+01 -7.390668e+01 2.700661e-02 -3.206659e+01
1200000000 1.614776e-02 -3.191072e+01 -7.981030e+01 -1.467554e+02 -7.441280e+01 6.748603e+01 3.461817e-02 -3.227982e+01
1210000000 1.249632e-02 -3.213529e+01 -7.794150e+01 1.572368e+02 -8.476670e+01 -1.689840e+02 3.369250e-02 -3.255230e+01
1220000000 1.710519e-02 -3.240794e+01 -8.050484e+01 4.408061e+01 -9.155171e+01 -1.300335e+02 3.570475e-02 -3.291059e+01
1230000000 1.611009e-02 -3.269365e+01 -7.791317e+01 1.436902e+02 -8.029305e+01 1.788880e+02 3.391885e-02 -3.313562e+01
1240000000 1.222813e-02 -3.295171e+01 -7.644404e+01 -9.079818e+01 -7.975436e+01 1.461430e+02 3.234672e-02 -3.339509e+01
1250000000 1.555584e-02 -3.319533e+01 -7.821310e+01 1.522249e+02 -8.589958e+01 -2.634649e+01 3.354406e-02 -3.369010e+01
1260000000 1.117275e-02 -3.348633e+01 -8.077831e+01 -9.109044e+01 -8.493037e+01 6.727474e+01 2.837024e-02 -3.397650e+01
1270000000 1.366771e-02 -3.373941e+01 -7.709657e+01 3.904930e+01 -7.226334e+01 1.166714e+02 3.477211e-02 -3.417644e+01
1280000000 1.203773e-02 -3.399714e+01 -8.007755e+01 7.762818e+01 -8.688340e+01 1.038604e+01 3.157438e-02 -3.443324e+01
1290000000 1.932618e-02 -3.422757e+01 -7.659803e+01 6.628670e+01 -1.239734e+02 -9.482209e+01 3.219631e-02 -3.472603e+01
1300000000 2.147129e-02 -3.452159e+01 -8.890034e+01 -7.151157e+01 -9.007222e+01 9.510043e+01 3.702753e-02 -3.498040e+01
1310000000 1.184711e-02 -3.479531e+01 -7.461574e+01 1.227603e+02 -7.574841e+01 -8.661865e+01 3.318197e-02 -3.525859e+01
1320000000 1.985927e-02 -3.508247e+01 -8.100185e+01 -1.624076e+02 -7.594620e+01 8.274137e+01 3.461885e-02 -3.557973e+01
1330000000 1.213725e-02 -3.530233e+01 -7.777592e+01 -1.293887e+02 -7.594867e+01 -3.746722e+01 3.310845e-02 -3.579932e+01
1340000000 1.609885e-02 -3.559468e+01 -8.292348e+01 -4.953342e+01 -7.846429e+01 -8.598719e+01 3.760843e-02 -3.602049e+01
1350000000 1.953477e-02 -3.585536e+01 -7.561085e+01 -9.788018e+01 -7.595780e+01 -8.405345e+01 3.352204e-02 -3.635271e+01
1360000000 2.121851e-02 -3.612753e+01 -8.149703e+01 -1.276182e+02 -7.690184e+01 -1.332877e+02 4.022180e-02 -3.674032e+01
1370000000 2.065244e-02 -3.635615e+01 -7.635072e+01 -1.758000e+02 -8.342802e+01 -5.733500e+01 3.633991e-02 -3.706485e+01
1380000000 1.873020e-02 -3.663037e+01 -9.441350e+01 -2.295279e+00 -8.859969e+01 7.426398e+01 4.201234e-02 -3.716934e+01
1390000000 2.018694e-02 -3.690526e+01 -8.134083e+01 -1.774426e+02 -7.177655e+01 1.763398e+02 3.817287e-02 -3.741492e+01
1400000000 2.046819e-02 -3.716265e+01 -7.846356e+01 -1.534244e+02 -9.111261e+01 -8.918523e+01 4.025636e-02 -3.774274e+01
1410000000 1.907345e-02 -3.744831e+01 -7.695835e+01 1.168406e+02 -7.232306e+01 1.685188e+02 3.986642e-02 -3.794646e+01
1420000000 2.073288e-02 -3.768855e+01 -8.017423e+01 -1.514988e+02 -7.592846e+01 1.615192e+02 4.341514e-02 -3.816996e+01
1430000000 2.068910e-02 -3.808627e+01 -8.496456e+01 -1.139712e+02 -7.972948e+01 -1.607171e+02 4.220029e-02 -3.845316e+01
1440000000 1.988782e-02 -3.827222e+01 -8.097713e+01 -1.162660e+02 -8.257119e+01 1.097931e+01 4.057779e-02 -3.873637e+01
1450000000 2.213173e-02 -3.858158e+01 -8.559890e+01 -9.870213e+01 -7.107684e+01 1.718007e+02 4.005260e-02 -3.900614e+01
1460000000 2.032883e-02 -3.894154e+01 -7.860794e+01 -1.365910e+02 -8.143425e+01 -7.826048e+01 4.078875e-02 -3.927119e+01
1470000000 2.167046e-02 -3.908619e+01 -9.150658e+01 -5.372466e+01 -7.287846e+01 -1.732377e+02 4.558510e-02 -3.952117e+01
1480000000 2.472020e-02 -3.944530e+01 -8.102688e+01 1.749970e+02 -8.231816e+01 -1.127051e+02 4.605085e-02 -3.980324e+01
1490000000 2.386826e-02 -3.972604e+01 -7.952015e+01 -1.646646e+02 -7.533994e+01 -1.169992e+02 4.444962e-02 -4.003238e+01
1500000000 2.258075e-02 -3.998970e+01 -8.745287e+01 -6.505134e+01 -8.072047e+01 -3.485160e+01 4.694977e-02 -4.029675e+01
1510000000 2.297673e-02 -4.025036e+01 -8.772376e+01 -1.307233e+02 -7.275578e+01 -7.642262e+01 4.041422e-02 -4.056229e+01
1520000000 2.511580e-02 -4.053526e+01 -7.976035e+01 -1.671547e+02 -7.621182e+01 -1.406377e+02 4.077309e-02 -4.085963e+01
1530000000 2.437660e-02 -4.078827e+01 -7.920257e+01 -1.730182e+02 -9.436671e+01 5.516261e+01 4.440676e-02 -4.113931e+01
1540000000 2.070688e-02 -4.103829e+01 -7.187450e+01 -1.187454e+02 -8.294656e+01 9.558471e+01 4.766840e-02 -4.139798e+01
1550000000 2.534192e-02 -4.134791e+01 -8.485017e+01 1.891253e+01 -1.148698e+02 9.914421e+01 4.587290e-02 -4.164479e+01
1560000000 2.777750e-02 -4.162768e+01 -8.218372e+01 -1.421273e+02 -7.930518e+01 -1.308177e+02 4.885890e-02 -4.188066e+01
1570000000 2.838780e-02 -4.184033e+01 -8.092233e+01 -1.573533e+02 -8.689585e+01 -4.881000e+00 4.700983e-02 -4.214495e+01
1580000000 2.546768e-02 -4.210752e+01 -7.917352e+01 -1.216112e+02 -9.290256e+01 -1.600989e+02 4.847419e-02 -4.240142e+01
1590000000 1.902754e-02 -4.243325e+01 -7.802528e+01 -1.116034e+02 -7.805808e+01 -1.692478e+00 4.669868e-02 -4.267223e+01
1600000000 1.838128e-02 -4.257852e+01 -7.028342e+01 -7.279916e+01 -7.855386e+01 2.915075e+01 5.475989e-02 -4.295349e+01
1610000000 2.687919e-02 -4.280212e+01 -7.287502e+01 -9.102050e+01 -7.268533e+01 -9.186845e+01 4.684103e-02 -4.320651e+01
1620000000 2.325606e-02 -4.301260e+01 -7.020893e+01 -1.257686e+02 -7.501926e+01 -8.703233e+01 5.070981e-02 -4.349694e+01
1630000000 2.606520e-02 -4.349178e+01 -6.999874e+01 -1.548994e+02 -6.930190e+01 -1.200688e+02 5.370720e-02 -4.376635e+01
1640000000 2.341876e-02 -4.371243e+01 -7.441407e+01 -1.445120e+02 -7.105107e+01 -1.356331e+02 5.604672e-02 -4.400651e+01
1650000000 2.699350e-02 -4.396380e+01 -7.523724e+01 1.707597e+02 -7.287507e+01 1.655645e+02 4.930060e-02 -4.428136e+01
1660000000 2.491936e-02 -4.419810e+01 -7.172272e+01 -1.676365e+02 -8.352383e+01 2.418753e+01 4.828438e-02 -4.457695e+01
1670000000 2.456043e-02 -4.450495e+01 -8.838897e+01 1.218593e+02 -8.219941e+01 -1.465055e+02 4.995982e-02 -4.482370e+01
1680000000 2.903436e-02 -4.470713e+01 -7.893312e+01 1.234899e+02 -7.394969e+01 -1.108569e+02 5.676267e-02 -4.510656e+01
1690000000 2.518002e-02 -4.503892e+01 -9.041007e+01 -9.791331e+01 -7.421625e+01 -1.538557e+02 5.736203e-02 -4.534153e+01
1700000000 2.846328e-02 -4.530117e+01 -7.862014e+01 -1.105001e+02 -7.405226e+01 -1.041202e+02 5.752171e-02 -4.560202e+01
1710000000 2.933543e-02 -4.551164e+01 -8.868022e+01 -1.584133e+02 -7.567386e+01 -1.582321e+02 5.993223e-02 -4.583643e+01
1720000000 2.465265e-02 -4.582437e+01 -7.171590e+01 -1.616657e+02 -8.398102e+01 -1.135399e+02 5.500269e-02 -4.612073e+01
1730000000 2.598178e-02 -4.610730e+01 -7.423734e+01 1.527990e+02 -7.766000e+01 -1.642138e+02 5.426724e-02 -4.637463e+01
1740000000 2.920148e-02 -4.633139e+01 -7.988729e+01 -1.574012e+02 -7.769971e+01 5.208147e+01 5.089282e-02 -4.668088e+01
1750000000 2.803279e-02 -4.653439e+01 -7.762321e+01 -6.820327e+01 -7.954004e+01 -1.790341e+02 5.339800e-02 -4.695663e+01
1760000000 3.196649e-02 -4.688170e+01 -8.095073e+01 -1.383426e+02 -8.430793e+01 1.429282e+02 6.184487e-02 -4.719742e+01
1770000000 3.236120e-02 -4.708229e+01 -8.070952e+01 -1.180029e+02 -7.665679e+01 -1.320815e+02 5.382978e-02 -4.747711e+01
1780000000 3.091763e-02 -4.728144e+01 -7.493333e+01 -9.515468e+01 -7.854461e+01 -1.185881e+02 5.936722e-02 -4.774121e+01
1790000000 3.228426e-02 -4.759597e+01 -8.068923e+01 -1.167369e+02 -7.414474e+01 -1.682736e+02 6.139699e-02 -4.801184e+01
1800000000 3.109784e-02 -4.784856e+01 -7.148251e+01 -1.326330e+02 -7.242806e+01 -1.446961e+02 5.777384e-02 -4.830812e+01
1810000000 2.819778e-02 -4.807697e+01 -7.837354e+01 -1.459327e+02 -7.304135e+01 -1.338155e+02 6.171441e-02 -4.860440e+01
1820000000 2.907130e-02 -4.845089e+01 -7.571566e+01 -1.147039e+02 -7.514177e+01 -1.366121e+02 5.519554e-02 -4.884945e+01
1830000000 3.377198e-02 -4.860099e+01 -9.971703e+01 -1.023816e+02 -7.712481e+01 -1.193070e+02 5.970870e-02 -4.908806e+01
1840000000 3.943178e-02 -4.885753e+01 -8.742800e+01 1.577608e+02 -7.577001e+01 -1.475340e+02 6.214438e-02 -4.934325e+01
1850000000 3.503317e-02 -4.919327e+01 -7.942878e+01 -9.985536e+01 -7.627335e+01 -1.222068e+02 5.830111e-02 -4.964286e+01
1860000000 3.506868e-02 -4.943772e+01 -8.012534e+01 -9.967665e+01 -8.116739e+01 -1.519639e+02 6.328962e-02 -4.990183e+01
1870000000 3.367751e-02 -4.966050e+01 -7.556077e+01 -1.221073e+02 -7.546335e+01 -1.422913e+02 6.270381e-02 -5.021067e+01
1880000000 3.720740e-02 -4.994752e+01 -9.153535e+01 -1.230171e+02 -7.223798e+01 -1.679386e+02 6.329576e-02 -5.046358e+01
1890000000 3.640899e-02 -5.025441e+01 -8.136918e+01 -1.324154e+02 -7.537321e+01 -1.469041e+02 6.222821e-02 -5.073825e+01
1900000000 3.601722e-02 -5.055539e+01 -7.948043e+01 -1.539827e+02 -7.604684e+01 -4.278696e+01 6.618033e-02 -5.098756e+01
1910000000 3.251157e-02 -5.076412e+01 -7.126331e+01 -1.613777e+02 -7.542142e+01 -1.418519e+02 6.739932e-02 -5.126229e+01
1920000000 3.601516e-02 -5.109676e+01 -7.144169e+01 -1.019820e+02 -7.226342e+01 -1.124167e+02 6.850456e-02 -5.182323e+01
1930000000 3.363524e-02 -5.137392e+01 -7.742429e+01 -1.364399e+02 -7.322692e+01 -1.254307e+02 6.531265e-02 -5.203158e+01
1940000000 3.777895e-02 -5.160928e+01 -7.586029e+01 -1.362519e+02 -7.031606e+01 -1.555209e+02 6.382693e-02 -5.232975e+01
1950000000 3.412130e-02 -5.191882e+01 -7.348556e+01 -1.172410e+02 -7.192397e+01 -1.533030e+02 6.616080e-02 -5.264837e+01
1960000000 3.722918e-02 -5.220520e+01 -7.965031e+01 -1.273373e+02 -7.227702e+01 -1.287126e+02 6.962157e-02 -5.281756e+01
1970000000 3.319958e-02 -5.248796e+01 -7.938336e+01 1.558399e+02 -7.226600e+01 -1.347157e+02 7.029506e-02 -5.321557e+01
1980000000 2.936180e-02 -5.300443e+01 -8.122887e+01 -1.172332e+02 -7.657894e+01 -1.487920e+02 7.600570e-02 -5.349631e+01
1990000000 3.530924e-02 -5.326678e+01 -8.035217e+01 -1.543753e+02 -7.593263e+01 1.389300e+02 6.723738e-02 -5.369186e+01
2000000000 3.611466e-02 -5.362000e+01 -7.564467e+01 -1.627992e+02 -7.254049e+01 -1.045573e+02 6.367848e-02 -5.384252e+01
2010000000 3.307029e-02 -5.377131e+01 -7.952585e+01 -1.129434e+02 -8.054579e+01 -1.506880e+02 7.019364e-02 -5.407545e+01
2020000000 2.894954e-02 -5.404281e+01 -7.410045e+01 -1.548712e+02 -7.304906e+01 -8.081041e+01 7.355598e-02 -5.432421e+01
2030000000 3.344162e-02 -5.425270e+01 -7.755076e+01 -1.408665e+02 -7.799413e+01 -1.675146e+02 7.126743e-02 -5.479941e+01
2040000000 3.591858e-02 -5.460748e+01 -7.678598e+01 -9.351810e+01 -8.165352e+01 -1.100578e+02 7.463980e-02 -5.484803e+01
2050000000 3.543388e-02 -5.458866e+01 -7.177486e+01 -1.288872e+02 -7.259533e+01 -1.227595e+02 6.992525e-02 -5.585809e+01
2060000000 3.030611e-02 -5.504958e+01 -7.067062e+01 -1.026613e+02 -7.440321e+01 -1.460868e+02 6.869289e-02 -5.553644e+01
2070000000 3.453607e-02 -5.533895e+01 -7.149336e+01 -7.691792e+01 -7.441177e+01 -3.356809e+01 6.889477e-02 -5.576704e+01
2080000000 3.714460e-02 -5.543336e+01 -7.801289e+01 -1.073910e+02 -7.782375e+01 -5.997752e+01 6.962214e-02 -5.630465e+01
2090000000 3.765292e-02 -5.578654e+01 -7.151102e+01 -5.726031e+01 -6.907755e+01 -6.526070e+01 6.549859e-02 -5.633612e+01
2100000000 3.403974e-02 -5.620674e+01 -7.000012e+01 -1.129318e+02 -6.849753e+01 -5.171596e+01 7.294539e-02 -5.657485e+01
2110000000 3.834259e-02 -5.635636e+01 -6.982478e+01 -9.523897e+01 -6.718947e+01 -9.622411e+01 7.097222e-02 -5.700333e+01
2120000000 3.141627e-02 -5.666821e+01 -6.548469e+01 -9.515128e+01 -6.936751e+01 -8.429138e+01 7.898341e-02 -5.698061e+01
2130000000 3.627925e-02 -5.706348e+01 -6.555170e+01 -9.953985e+01 -6.538522e+01 -1.143471e+02 7.143740e-02 -5.742343e+01
2140000000 3.546948e-02 -5.708167e+01 -6.612876e+01 -1.149223e+02 -6.359845e+01 -1.256919e+02 7.127028e-02 -5.796481e+01
2150000000 3.689822e-02 -5.731902e+01 -6.316638e+01 -1.253866e+02 -6.464538e+01 -1.311207e+02 7.805805e-02 -5.792514e+01
2160000000 3.694027e-02 -5.776223e+01 -6.542561e+01 -1.193022e+02 -6.783852e+01 -1.248761e+02 8.015071e-02 -5.827576e+01
2170000000 3.573420e-02 -5.782204e+01 -6.648593e+01 -1.219414e+02 -6.543229e+01 -1.293699e+02 7.234404e-02 -5.865367e+01
2180000000 3.972534e-02 -5.822477e+01 -6.577905e+01 -1.346802e+02 -6.665498e+01 -1.351097e+02 7.850230e-02 -5.872357e+01
2190000000 3.808027e-02 -5.862224e+01 -6.486084e+01 -1.274785e+02 -6.447311e+01 -1.390989e+02 7.933483e-02 -5.923061e+01
2200000000 4.194873e-02 -5.858580e+01 -6.554297e+01 -1.332198e+02 -6.774164e+01 -1.370352e+02 7.774685e-02 -5.956816e+01
2210000000 3.979633e-02 -5.906142e+01 -6.349753e+01 -1.277137e+02 -6.826047e+01 -1.347549e+02 8.010410e-02 -5.952932e+01
2220000000 3.843670e-02 -5.931384e+01 -6.413259e+01 -1.292301e+02 -6.597228e+01 -1.430036e+02 8.138483e-02 -5.990156e+01
2230000000 4.379964e-02 -5.945678e+01 -6.392418e+01 -1.428081e+02 -6.686137e+01 -1.517304e+02 7.570446e-02 -6.033352e+01
2240000000 4.395559e-02 -5.998211e+01 -6.628169e+01 -1.281276e+02 -6.575456e+01 -1.363144e+02 8.131097e-02 -6.055940e+01
2250000000 3.753660e-02 -5.997979e+01 -6.659397e+01 -1.420714e+02 -6.536565e+01 -1.390146e+02 7.940903e-02 -6.092939e+01
2260000000 3.769853e-02 -6.023771e+01 -6.732690e+01 -1.391554e+02 -6.378040e+01 -1.394677e+02 7.413455e-02 -6.115363e+01
2270000000 3.873967e-02 -6.054749e+01 -6.668928e+01 -1.382101e+02 -6.979031e+01 -1.390436e+02 8.032370e-02 -6.115889e+01
2280000000 3.623276e-02 -6.083934e+01 -6.790815e+01 -1.357710e+02 -6.886974e+01 -1.492735e+02 7.691570e-02 -6.172417e+01
2290000000 4.384080e-02 -6.104879e+01 -6.643074e+01 -1.431726e+02 -6.826743e+01 -1.395932e+02 7.783789e-02 -6.199618e+01
2300000000 3.503492e-02 -6.146716e+01 -6.606364e+01 -1.294165e+02 -6.482723e+01 -1.601782e+02 8.047831e-02 -6.212233e+01
2310000000 3.810778e-02 -6.151492e+01 -6.409133e+01 -1.420605e+02 -6.443053e+01 -1.443607e+02 7.927724e-02 -6.257004e+01
2320000000 3.864620e-02 -6.185179e+01 -6.434128e+01 -1.381196e+02 -6.546090e+01 -1.279019e+02 7.629352e-02 -6.273269e+01
2330000000 5.024921e-02 -6.243686e+01 -6.614361e+01 -1.372896e+02 -6.891598e+01 -1.432134e+02 8.080062e-02 -6.294472e+01
2340000000 4.815479e-02 -6.226423e+01 -6.686134e+01 -1.480719e+02 -6.366529e+01 -1.423428e+02 7.687126e-02 -6.349545e+01
2350000000 4.333202e-02 -6.256301e+01 -6.824579e+01 -1.453494e+02 -6.424306e+01 -1.538892e+02 7.857670e-02 -6.344936e+01
2360000000 4.025703e-02 -6.271256e+01 -6.707977e+01 -1.507873e+02 -7.011311e+01 -1.449147e+02 8.033533e-02 -6.366328e+01
2370000000 4.443054e-02 -6.314409e+01 -6.836645e+01 -1.439628e+02 -6.649003e+01 -1.413446e+02 7.362075e-02 -6.422779e+01
2380000000 4.436422e-02 -6.363635e+01 -6.460365e+01 -1.613051e+02 -6.472562e+01 -1.594138e+02 7.737136e-02 -6.433082e+01
2390000000 4.099607e-02 -6.378252e+01 -6.588643e+01 -1.460051e+02 -6.671422e+01 -1.568841e+02 7.707118e-02 -6.460729e+01
2400000000 4.226451e-02 -6.384434e+01 -6.450562e+01 -1.475058e+02 -6.417563e+01 -1.613313e+02 7.734818e-02 -6.503356e+01
2410000000 4.181709e-02 -6.444394e+01 -6.663670e+01 -1.446101e+02 -6.610568e+01 -1.492376e+02 7.213987e-02 -6.515041e+01
2420000000 3.871370e-02 -6.458642e+01 -6.533312e+01 -1.575288e+02 -6.334700e+01 -1.506030e+02 8.297773e-02 -6.545823e+01
2430000000 3.966970e-02 -6.486071e+01 -6.669726e+01 -1.407836e+02 -6.309392e+01 -1.665726e+02 8.119261e-02 -6.580004e+01
2440000000 4.304823e-02 -6.519032e+01 -6.571201e+01 -1.586169e+02 -6.433466e+01 -1.515271e+02 8.094146e-02 -6.608006e+01
2450000000 4.463070e-02 -6.541079e+01 -6.389214e+01 -1.579242e+02 -6.548164e+01 -1.580091e+02 8.059887e-02 -6.638225e+01
2460000000 4.377938e-02 -6.572117e+01 -6.499323e+01 -1.539243e+02 -6.561859e+01 -1.354604e+02 8.451298e-02 -6.665575e+01
2470000000 3.558142e-02 -6.595798e+01 -6.811765e+01 -1.467524e+02 -6.488815e+01 -1.581488e+02 8.283587e-02 -6.691386e+01
2480000000 4.100000e-02 -6.621526e+01 -6.505933e+01 -1.567000e+02 -6.883534e+01 -1.645031e+02 8.492512e-02 -6.721915e+01
2490000000 4.422168e-02 -6.653156e+01 -6.413590e+01 -1.222518e+02 -6.424967e+01 -1.573928e+02 7.862588e-02 -6.780719e+01
2500000000 3.750049e-02 -6.678725e+01 -6.724567e+01 -1.657103e+02 -6.741265e+01 -1.608835e+02 9.006431e-02 -6.794270e+01
2510000000 3.728838e-02 -6.707358e+01 -6.751993e+01 -1.627931e+02 -6.571375e+01 -1.221301e+02 8.176333e-02 -6.816183e+01
2520000000 3.428660e-02 -6.735823e+01 -6.691158e+01 -1.527769e+02 -6.534366e+01 -1.345288e+02 8.791561e-02 -6.863818e+01
2530000000 3.871072e-02 -6.760989e+01 -6.335003e+01 -1.398800e+02 -6.586395e+01 -1.559999e+02 9.065294e-02 -6.908799e+01
2540000000 3.838554e-02 -6.786929e+01 -6.409303e+01 -1.440802e+02 -6.700535e+01 -1.372410e+02 9.339198e-02 -6.918112e+01
2550000000 4.185452e-02 -6.814813e+01 -6.524133e+01 -1.255709e+02 -6.185702e+01 -1.369109e+02 9.553867e-02 -6.933112e+01
2560000000 4.445701e-02 -6.836936e+01 -6.556966e+01 -1.465789e+02 -6.474825e+01 -1.318597e+02 9.615062e-02 -6.968146e+01
2570000000 4.777621e-02 -6.862573e+01 -6.206217e+01 -1.181683e+02 -6.337159e+01 -1.194881e+02 9.153067e-02 -7.017800e+01
2580000000 4.662928e-02 -6.895303e+01 -6.110705e+01 -1.443550e+02 -6.248935e+01 -1.490117e+02 9.659176e-02 -7.053970e+01
2590000000 5.079971e-02 -6.918773e+01 -6.248683e+01 -1.374462e+02 -6.409270e+01 -1.522355e+02 9.939311e-02 -7.074605e+01
2600000000 5.217489e-02 -6.945220e+01 -6.074251e+01 -1.286436e+02 -6.124924e+01 -1.464945e+02 1.003316e-01 -7.093773e+01
2610000000 5.620600e-02 -6.977925e+01 -6.154409e+01 -1.506913e+02 -6.493721e+01 -1.566938e+02 9.902274e-02 -7.121724e+01
2620000000 5.297475e-02 -7.004383e+01 -6.393335e+01 -1.435821e+02 -6.146867e+01 -1.530025e+02 9.448746e-02 -7.166023e+01
2630000000 5.329246e-02 -7.035335e+01 -6.179728e+01 -1.585432e+02 -6.353924e+01 -1.475576e+02 1.022938e-01 -7.206223e+01
