!Agilent Technologies,N5227A,US51270477,A.10.00.00

!File generated by LCAF-GAM-UPV software
!josevmart@iteam.upv.es
!S2P File: Measurements: S11, S21, S12, S22:
# Hz S  dB   R 50
1000000000 6.204509e-03 -2.814726e+01 -8.862335e+01 4.265606e+01 -8.870438e+01 3.367924e+01 1.758783e-02 -2.844588e+01
1010000000 1.533387e-02 -2.839869e+01 -7.657042e+01 -1.332148e+02 -7.580073e+01 1.719687e+01 2.059606e-02 -2.887163e+01
1020000000 1.263090e-02 -2.866145e+01 -7.842946e+01 -1.664346e+02 -7.608356e+01 -3.819004e+01 2.131671e-02 -2.919178e+01
1030000000 1.241307e-02 -2.896112e+01 -7.310060e+01 -1.398768e+02 -8.717595e+01 4.341380e+01 2.163685e-02 -2.936954e+01
1040000000 4.997851e-03 -2.923921e+01 -8.249428e+01 -9.656759e+01 -8.039071e+01 -1.501988e+02 1.993530e-02 -2.973384e+01
1050000000 7.368105e-03 -2.953180e+01 -8.237817e+01 5.092798e+01 -7.970522e+01 1.673055e+02 2.288014e-02 -3.006785e+01
1060000000 7.737563e-03 -2.976764e+01 -7.438042e+01 -9.892274e+01 -8.188090e+01 2.324614e+01 1.883207e-02 -3.033807e+01
1070000000 8.350057e-03 -3.006970e+01 -7.908253e+01 -3.790833e+01 -7.686410e+01 1.746086e+02 2.188556e-02 -3.052419e+01
1080000000 1.036424e-02 -3.034177e+01 -7.917899e+01 1.304179e+02 -8.014438e+01 -4.946787e+01 2.067073e-02 -3.088516e+01
1090000000 7.756564e-03 -3.062259e+01 -7.688658e+01 -1.671577e+02 -7.945811e+01 -7.531778e+01 2.301412e-02 -3.115349e+01
1100000000 5.816525e-03 -3.088802e+01 -8.956059e+01 1.294856e+02 -8.192205e+01 -1.380002e+02 2.802174e-02 -3.135011e+01
1110000000 1.016471e-02 -3.118256e+01 -8.139153e+01 -1.392635e+02 -8.804007e+01 -1.015983e+02 2.747119e-02 -3.209448e+01
1120000000 7.815683e-03 -3.145639e+01 -8.546075e+01 1.354789e+02 -7.979680e+01 3.022242e+01 2.235874e-02 -3.202697e+01
1130000000 5.964786e-03 -3.176225e+01 -7.593732e+01 -1.049292e+02 -7.454432e+01 -2.632283e+01 2.433116e-02 -3.212839e+01
1140000000 5.460746e-03 -3.202145e+01 -7.385303e+01 -7.606182e+01 -7.526681e+01 -4.167885e+01 2.691262e-02 -3.262007e+01
1150000000 7.094786e-03 -3.230553e+01 -7.725954e+01 -7.838636e+01 -7.629950e+01 -4.729342e+01 2.843903e-02 -3.281087e+01
1160000000 9.521469e-03 -3.259089e+01 -8.188025e+01 -9.503430e+01 -7.946750e+01 -1.409410e+02 2.894206e-02 -3.301965e+01
1170000000 9.665423e-03 -3.285461e+01 -7.969564e+01 -1.063530e+02 -8.029690e+01 -7.968395e+01 2.945778e-02 -3.335603e+01
1180000000 4.990139e-03 -3.313655e+01 -7.448634e+01 -1.235039e+02 -7.523638e+01 -7.439252e+01 2.886931e-02 -3.368271e+01
1190000000 7.380274e-03 -3.342789e+01 -7.420670e+01 -1.298794e+02 -8.732951e+01 -6.973830e+01 2.802075e-02 -3.398343e+01
1200000000 8.887785e-03 -3.369665e+01 -8.872374e+01 1.049393e+02 -7.230592e+01 -1.413424e+02 3.099715e-02 -3.413294e+01
1210000000 1.036708e-02 -3.395615e+01 -7.167371e+01 -1.422067e+02 -8.521241e+01 -1.451779e+02 2.987865e-02 -3.452558e+01
1220000000 1.332997e-02 -3.423167e+01 -7.598931e+01 -9.553230e+01 -7.373541e+01 -1.669554e+02 3.369767e-02 -3.486377e+01
1230000000 1.130458e-02 -3.454471e+01 -9.423088e+01 -1.662189e+01 -7.979589e+01 -1.371591e+02 3.009254e-02 -3.504005e+01
1240000000 9.117262e-03 -3.480172e+01 -7.246516e+01 1.434765e+02 -8.052774e+01 1.542270e+02 2.787249e-02 -3.535204e+01
1250000000 9.558012e-03 -3.506639e+01 -9.082714e+01 -6.839906e+01 -7.983350e+01 -1.564668e+02 3.267268e-02 -3.562861e+01
1260000000 9.279575e-03 -3.537130e+01 -7.640910e+01 -1.707986e+02 -8.088155e+01 -1.344713e+02 2.422906e-02 -3.595093e+01
1270000000 1.095228e-02 -3.565710e+01 -7.736842e+01 1.486997e+02 -7.425382e+01 1.221870e+02 3.099105e-02 -3.618571e+01
1280000000 7.325741e-03 -3.594642e+01 -7.706666e+01 -1.752254e+02 -8.038354e+01 -1.367741e+01 2.845206e-02 -3.643926e+01
1290000000 1.260875e-02 -3.615614e+01 -7.846202e+01 -7.262962e+01 -7.473328e+01 -1.288331e+02 3.070020e-02 -3.671188e+01
1300000000 1.491824e-02 -3.647210e+01 -8.540361e+01 -8.319669e+01 -8.285406e+01 -6.177689e+01 3.458738e-02 -3.701919e+01
1310000000 6.306668e-03 -3.678222e+01 -8.020132e+01 -6.287579e+01 -7.056205e+01 -8.903466e+01 2.880228e-02 -3.729948e+01
1320000000 1.338130e-02 -3.707355e+01 -7.920086e+01 4.930611e+01 -7.127538e+01 -1.348276e+02 3.599297e-02 -3.748550e+01
1330000000 7.763177e-03 -3.732290e+01 -8.355931e+01 -1.256814e+02 -7.603809e+01 -1.661308e+02 3.237645e-02 -3.798458e+01
1340000000 1.147784e-02 -3.761283e+01 -8.645406e+01 1.701806e+02 -7.906522e+01 -9.034009e+01 3.444197e-02 -3.820711e+01
1350000000 1.309307e-02 -3.789385e+01 -7.699831e+01 -1.175259e+02 -7.333220e+01 -1.613247e+02 3.095472e-02 -3.848818e+01
1360000000 1.745770e-02 -3.818051e+01 -7.439787e+01 -1.754381e+02 -7.725970e+01 1.553073e+02 3.942377e-02 -3.821984e+01
1370000000 1.292834e-02 -3.843293e+01 -7.561324e+01 -9.777796e+01 -9.598711e+01 -2.304721e+00 3.464851e-02 -3.897259e+01
1380000000 1.632595e-02 -3.870841e+01 -7.655370e+01 1.522814e+02 -7.213176e+01 6.483819e+00 3.775133e-02 -3.931642e+01
1390000000 1.326080e-02 -3.900117e+01 -9.266277e+01 -1.481339e+02 -7.480215e+01 -1.437226e+02 3.636055e-02 -3.958006e+01
1400000000 1.654583e-02 -3.926978e+01 -8.222549e+01 1.225360e+02 -7.540530e+01 -1.253055e+02 3.821236e-02 -4.001217e+01
1410000000 1.628063e-02 -3.957644e+01 -8.091196e+01 -1.196838e+02 -7.231956e+01 1.739605e+02 3.938827e-02 -4.016602e+01
1420000000 1.418390e-02 -4.005684e+01 -8.799220e+01 1.334947e+02 -8.082127e+01 -8.355035e+01 4.175833e-02 -4.042444e+01
1430000000 1.427542e-02 -4.021980e+01 -8.722282e+01 -6.373981e+01 -7.488575e+01 -1.456861e+02 4.138845e-02 -4.072112e+01
1440000000 1.785358e-02 -4.052757e+01 -7.409531e+01 -1.646151e+02 -8.168044e+01 -1.020463e+02 4.183242e-02 -4.102226e+01
1450000000 1.501667e-02 -4.086020e+01 -8.014904e+01 -1.077594e+02 -9.056013e+01 -2.847379e+01 3.653729e-02 -4.130310e+01
1460000000 1.507108e-02 -4.108814e+01 -7.526490e+01 -1.512704e+02 -7.693041e+01 -1.567598e+02 3.805479e-02 -4.158788e+01
1470000000 1.467156e-02 -4.137306e+01 -7.360439e+01 -1.328150e+02 -7.335136e+01 -1.175264e+02 4.067392e-02 -4.184476e+01
1480000000 1.504365e-02 -4.175497e+01 -7.733577e+01 -1.635876e+02 -8.692867e+01 -1.680954e+02 4.382458e-02 -4.214943e+01
1490000000 1.952219e-02 -4.192551e+01 -9.386382e+01 -1.772096e+02 -7.805967e+01 -1.547759e+02 4.244783e-02 -4.240206e+01
1500000000 1.818791e-02 -4.228097e+01 -7.819627e+01 -1.126870e+02 -7.653020e+01 1.709636e+02 4.314059e-02 -4.268818e+01
1510000000 1.734894e-02 -4.259542e+01 -7.842448e+01 -1.574803e+02 -7.481870e+01 -1.222327e+02 3.824777e-02 -4.295788e+01
1520000000 1.735669e-02 -4.288879e+01 -7.597050e+01 -1.617585e+02 -7.161422e+01 -1.375101e+02 3.984561e-02 -4.327582e+01
1530000000 1.548320e-02 -4.307647e+01 -7.209855e+01 -1.485922e+02 -7.326427e+01 -1.423055e+02 3.725382e-02 -4.357355e+01
1540000000 1.556948e-02 -4.348503e+01 -7.649526e+01 -1.571662e+02 -8.712413e+01 -1.613782e+02 4.439135e-02 -4.383991e+01
1550000000 2.017232e-02 -4.379956e+01 -7.146820e+01 -8.607640e+01 -7.750783e+01 -1.272311e+02 3.994329e-02 -4.410629e+01
1560000000 2.117378e-02 -4.406976e+01 -7.290886e+01 -9.894559e+01 -7.719815e+01 -1.603803e+02 4.568783e-02 -4.434826e+01
1570000000 2.253445e-02 -4.432069e+01 -7.323925e+01 -9.954939e+01 -8.335734e+01 -1.143703e+02 4.257226e-02 -4.463223e+01
1580000000 1.782205e-02 -4.464340e+01 -7.537205e+01 -1.725652e+02 -8.192611e+01 -1.441670e+02 4.116501e-02 -4.491454e+01
1590000000 1.398432e-02 -4.486288e+01 -7.584365e+01 -1.260118e+02 -7.240429e+01 -1.371665e+02 4.264388e-02 -4.519760e+01
1600000000 1.483501e-02 -4.532598e+01 -7.625644e+01 -1.363865e+02 -7.438105e+01 -1.368417e+02 4.813259e-02 -4.550492e+01
1610000000 1.986373e-02 -4.483746e+01 -7.332319e+01 -9.469118e+01 -7.182065e+01 -8.455213e+01 4.150237e-02 -4.578867e+01
1620000000 1.678403e-02 -4.568650e+01 -6.922408e+01 -1.271539e+02 -7.095202e+01 -1.048846e+02 4.417509e-02 -4.607129e+01
1630000000 1.854851e-02 -4.609801e+01 -6.920055e+01 -1.319198e+02 -6.818638e+01 -1.210215e+02 4.714831e-02 -4.636039e+01
1640000000 1.502784e-02 -4.644012e+01 -6.928487e+01 -1.459979e+02 -7.311205e+01 -1.621505e+02 4.975911e-02 -4.661069e+01
1650000000 1.760435e-02 -4.659518e+01 -7.230517e+01 -1.556293e+02 -7.666225e+01 -1.556196e+02 4.863316e-02 -4.690107e+01
1660000000 1.462614e-02 -4.683314e+01 -7.559836e+01 -1.272481e+02 -7.024064e+01 -1.458812e+02 4.375177e-02 -4.721388e+01
1670000000 1.851184e-02 -4.727195e+01 -7.059835e+01 -1.482891e+02 -7.120004e+01 -1.300116e+02 4.391750e-02 -4.749351e+01
1680000000 2.106382e-02 -4.747778e+01 -7.250821e+01 -1.604352e+02 -8.552230e+01 1.724907e+02 5.001223e-02 -4.777884e+01
1690000000 1.647294e-02 -4.785700e+01 -7.208280e+01 -1.528320e+02 -7.040793e+01 -1.401570e+02 5.151801e-02 -4.802118e+01
1700000000 1.963503e-02 -4.815442e+01 -7.140543e+01 -1.697660e+02 -6.940350e+01 -1.314180e+02 5.415168e-02 -4.830260e+01
1710000000 1.863873e-02 -4.832600e+01 -8.048037e+01 -1.280518e+02 -7.538566e+01 -1.558135e+02 5.224719e-02 -4.858723e+01
1720000000 1.309636e-02 -4.867292e+01 -7.519125e+01 -1.731602e+02 -7.111896e+01 -1.064551e+02 5.219083e-02 -4.887109e+01
1730000000 1.846626e-02 -4.897002e+01 -7.424588e+01 -1.230899e+02 -6.824584e+01 -1.480793e+02 4.961235e-02 -4.914373e+01
1740000000 1.799512e-02 -4.919769e+01 -7.554407e+01 -1.322300e+02 -7.268071e+01 -1.554473e+02 4.905727e-02 -4.947699e+01
1750000000 1.821119e-02 -4.946532e+01 -7.246784e+01 -1.154084e+02 -7.382322e+01 -1.230884e+02 5.076830e-02 -4.976109e+01
1760000000 1.752289e-02 -4.967479e+01 -7.230506e+01 -1.200906e+02 -7.410436e+01 -1.347079e+02 5.182081e-02 -5.002745e+01
1770000000 2.369063e-02 -5.011183e+01 -7.211141e+01 -1.500231e+02 -7.733243e+01 -1.564017e+02 5.040123e-02 -5.030883e+01
1780000000 2.156875e-02 -5.025634e+01 -6.752060e+01 -1.358996e+02 -6.854719e+01 -1.158395e+02 5.423821e-02 -5.059526e+01
1790000000 2.216466e-02 -5.055953e+01 -6.951718e+01 -1.374374e+02 -7.554849e+01 -1.517684e+02 5.630761e-02 -5.089677e+01
1800000000 2.443325e-02 -5.081930e+01 -7.254032e+01 -1.470093e+02 -7.320245e+01 -1.022186e+02 5.332205e-02 -5.120977e+01
1810000000 1.814972e-02 -5.108789e+01 -7.061980e+01 -1.790242e+02 -8.061950e+01 1.548977e+02 5.399379e-02 -5.151384e+01
1820000000 1.836153e-02 -5.145938e+01 -7.415292e+01 -1.197470e+02 -7.198184e+01 -1.570916e+02 5.036706e-02 -5.176907e+01
1830000000 2.111933e-02 -5.170576e+01 -7.115210e+01 -1.326416e+02 -7.330003e+01 -1.383116e+02 5.000757e-02 -5.204953e+01
1840000000 2.498191e-02 -5.193677e+01 -7.287428e+01 -1.481619e+02 -6.799758e+01 -1.371245e+02 5.791684e-02 -5.234772e+01
1850000000 2.354090e-02 -5.217260e+01 -7.352612e+01 -1.690680e+02 -8.012514e+01 -8.229756e+01 5.319254e-02 -5.265423e+01
1860000000 2.112005e-02 -5.248059e+01 -7.099270e+01 -1.324365e+02 -7.045464e+01 -9.911189e+01 5.914797e-02 -5.291827e+01
1870000000 1.986569e-02 -5.266015e+01 -7.208695e+01 -1.252432e+02 -7.615753e+01 -1.089411e+02 5.526553e-02 -5.323661e+01
1880000000 2.617832e-02 -5.298049e+01 -7.512579e+01 -1.680951e+02 -7.162483e+01 -1.380592e+02 5.435649e-02 -5.351895e+01
1890000000 2.587640e-02 -5.329399e+01 -6.862111e+01 -1.108864e+02 -6.801733e+01 -1.381779e+02 5.755758e-02 -5.382654e+01
1900000000 2.547671e-02 -5.358689e+01 -7.066666e+01 -1.588636e+02 -7.000435e+01 -1.378500e+02 5.955306e-02 -5.410663e+01
1910000000 2.265567e-02 -5.389631e+01 -6.937115e+01 -1.443817e+02 -7.213728e+01 -1.468961e+02 5.939745e-02 -5.440377e+01
1920000000 2.488552e-02 -5.423442e+01 -6.952744e+01 -1.436957e+02 -7.726357e+01 -1.242788e+02 5.958089e-02 -5.505050e+01
1930000000 2.299518e-02 -5.451171e+01 -6.695731e+01 -1.402890e+02 -6.952828e+01 -1.192304e+02 6.069388e-02 -5.532349e+01
1940000000 2.436765e-02 -5.482924e+01 -6.856451e+01 -1.389768e+02 -6.993365e+01 -1.403077e+02 5.612938e-02 -5.563262e+01
1950000000 2.067450e-02 -5.515214e+01 -7.081641e+01 -1.362169e+02 -7.196090e+01 -1.456996e+02 5.640980e-02 -5.590593e+01
1960000000 2.513422e-02 -5.545180e+01 -6.950526e+01 -1.461931e+02 -6.690717e+01 -1.460149e+02 6.642961e-02 -5.615128e+01
1970000000 2.147084e-02 -5.589089e+01 -7.017526e+01 -1.246802e+02 -6.727258e+01 -1.443074e+02 6.209691e-02 -5.676296e+01
1980000000 1.684026e-02 -5.627893e+01 -7.309544e+01 -1.614603e+02 -7.176515e+01 -1.278648e+02 6.594322e-02 -5.676107e+01
1990000000 2.113585e-02 -5.668772e+01 -7.183823e+01 -1.240643e+02 -6.647424e+01 -1.346402e+02 5.533445e-02 -5.707957e+01
2000000000 2.222555e-02 -5.712638e+01 -6.550523e+01 -1.505794e+02 -7.108173e+01 -1.331918e+02 5.049325e-02 -5.716014e+01
2010000000 2.038389e-02 -5.721835e+01 -6.964754e+01 -1.344366e+02 -6.873347e+01 -1.620065e+02 5.865187e-02 -5.742886e+01
2020000000 1.707626e-02 -5.742945e+01 -6.707294e+01 -1.510137e+02 -7.146078e+01 -1.437589e+02 6.390663e-02 -5.787920e+01
2030000000 1.816224e-02 -5.787080e+01 -6.762666e+01 -1.613043e+02 -6.898170e+01 -1.276334e+02 6.001711e-02 -5.829358e+01
2040000000 1.920349e-02 -5.816250e+01 -6.828835e+01 -1.309972e+02 -6.967402e+01 -1.449537e+02 6.512318e-02 -5.823556e+01
2050000000 2.061896e-02 -5.799277e+01 -7.083767e+01 -1.469644e+02 -6.935873e+01 -1.469942e+02 5.958659e-02 -5.934708e+01
2060000000 1.405632e-02 -5.879736e+01 -7.359579e+01 -1.400777e+02 -6.995917e+01 -1.158082e+02 5.889867e-02 -5.921335e+01
2070000000 1.587915e-02 -5.899950e+01 -7.251709e+01 -1.243825e+02 -6.967950e+01 -1.292506e+02 5.756747e-02 -5.937809e+01
2080000000 2.113782e-02 -5.902283e+01 -7.300882e+01 -1.088525e+02 -7.211864e+01 -1.073587e+02 5.971460e-02 -5.993796e+01
2090000000 1.719278e-02 -5.962543e+01 -6.469005e+01 -1.073691e+02 -6.763109e+01 -1.060622e+02 5.870021e-02 -6.010478e+01
2100000000 1.764125e-02 -5.972257e+01 -6.697319e+01 -8.186208e+01 -6.717840e+01 -9.910010e+01 6.636792e-02 -6.013731e+01
2110000000 1.968560e-02 -5.978051e+01 -6.628162e+01 -9.309872e+01 -6.507015e+01 -1.032850e+02 6.032977e-02 -6.075798e+01
2120000000 1.135527e-02 -6.031811e+01 -6.284296e+01 -1.008770e+02 -6.286375e+01 -1.147190e+02 6.518243e-02 -6.087093e+01
2130000000 2.045329e-02 -6.051473e+01 -6.453107e+01 -1.068098e+02 -6.520419e+01 -1.062137e+02 6.164556e-02 -6.100610e+01
2140000000 1.677318e-02 -6.068777e+01 -6.347227e+01 -1.102934e+02 -6.258025e+01 -1.201581e+02 6.313494e-02 -6.172527e+01
2150000000 1.680796e-02 -6.120463e+01 -6.229039e+01 -1.394925e+02 -6.250990e+01 -1.229656e+02 6.429642e-02 -6.171462e+01
2160000000 2.105941e-02 -6.134282e+01 -6.188766e+01 -1.345632e+02 -6.327149e+01 -1.310866e+02 6.545792e-02 -6.186013e+01
2170000000 1.769812e-02 -6.175766e+01 -6.286890e+01 -1.507052e+02 -6.092830e+01 -1.344105e+02 5.834760e-02 -6.265660e+01
2180000000 1.818750e-02 -6.233540e+01 -6.292558e+01 -1.433619e+02 -6.326757e+01 -1.316035e+02 6.581292e-02 -6.259696e+01
2190000000 1.834574e-02 -6.237756e+01 -6.135340e+01 -1.501530e+02 -6.181936e+01 -1.393531e+02 6.874434e-02 -6.293860e+01
2200000000 1.890627e-02 -6.264310e+01 -6.268655e+01 -1.337823e+02 -6.224110e+01 -1.489218e+02 6.303830e-02 -6.359847e+01
2210000000 1.521443e-02 -6.304548e+01 -6.403915e+01 -1.467343e+02 -6.234356e+01 -1.452055e+02 6.443427e-02 -6.339745e+01
2220000000 1.630088e-02 -6.322400e+01 -6.203976e+01 -1.459323e+02 -6.232357e+01 -1.432998e+02 5.987809e-02 -6.386686e+01
2230000000 1.932680e-02 -6.346526e+01 -6.365798e+01 -1.443565e+02 -6.180055e+01 -1.397320e+02 6.045120e-02 -6.440182e+01
2240000000 2.245280e-02 -6.392969e+01 -6.256207e+01 -1.475736e+02 -6.383393e+01 -1.443638e+02 6.744001e-02 -6.422958e+01
2250000000 1.774143e-02 -6.387877e+01 -6.369414e+01 -1.516969e+02 -6.308236e+01 -1.512627e+02 6.353346e-02 -6.482919e+01
2260000000 1.524196e-02 -6.430138e+01 -6.376859e+01 -1.519440e+02 -6.150680e+01 -1.423598e+02 5.979655e-02 -6.521690e+01
2270000000 1.864773e-02 -6.447151e+01 -6.404678e+01 -1.611646e+02 -6.296674e+01 -1.537813e+02 6.539717e-02 -6.510804e+01
2280000000 1.487221e-02 -6.478264e+01 -6.574545e+01 -1.415333e+02 -6.364288e+01 -1.502245e+02 6.104416e-02 -6.578389e+01
2290000000 1.937262e-02 -6.522775e+01 -6.592432e+01 -1.518475e+02 -6.443682e+01 -1.579451e+02 6.083877e-02 -6.617734e+01
2300000000 1.494952e-02 -6.530797e+01 -6.331790e+01 -1.397019e+02 -6.427342e+01 -1.398574e+02 6.305337e-02 -6.606606e+01
2310000000 1.351059e-02 -6.541039e+01 -6.277629e+01 -1.411083e+02 -6.306817e+01 -1.464732e+02 6.258146e-02 -6.682931e+01
2320000000 1.596638e-02 -6.599712e+01 -6.335064e+01 -1.439387e+02 -6.166633e+01 -1.452013e+02 5.604884e-02 -6.699419e+01
2330000000 2.344837e-02 -6.630845e+01 -6.313337e+01 -1.502453e+02 -6.200380e+01 -1.532121e+02 6.511083e-02 -6.698768e+01
2340000000 2.312559e-02 -6.641896e+01 -6.132129e+01 -1.510804e+02 -6.124441e+01 -1.456743e+02 5.949613e-02 -6.769471e+01
2350000000 2.598022e-02 -6.649537e+01 -6.316235e+01 -1.466828e+02 -6.269306e+01 -1.555227e+02 6.190980e-02 -6.765954e+01
2360000000 1.707895e-02 -6.731493e+01 -6.272260e+01 -1.582682e+02 -6.103217e+01 -1.553099e+02 5.856324e-02 -6.796268e+01
2370000000 1.886516e-02 -6.712617e+01 -6.274970e+01 -1.467685e+02 -6.085464e+01 -1.500285e+02 5.679729e-02 -6.873489e+01
2380000000 1.534976e-02 -6.790428e+01 -6.091353e+01 -1.538105e+02 -6.281218e+01 -1.517264e+02 5.449855e-02 -6.872052e+01
2390000000 1.469490e-02 -6.808227e+01 -6.403628e+01 -1.519498e+02 -6.476779e+01 -1.514202e+02 5.763375e-02 -6.895080e+01
2400000000 1.269632e-02 -6.820194e+01 -6.346765e+01 -1.547649e+02 -6.296882e+01 -1.601827e+02 5.609515e-02 -6.967014e+01
2410000000 1.282266e-02 -6.900583e+01 -6.304211e+01 -1.506825e+02 -6.162764e+01 -1.475131e+02 5.304836e-02 -6.963993e+01
2420000000 1.276904e-02 -6.888762e+01 -6.292346e+01 -1.674273e+02 -6.348871e+01 -1.472165e+02 6.181682e-02 -6.994465e+01
2430000000 1.446744e-02 -6.932466e+01 -6.194731e+01 -1.549529e+02 -6.509776e+01 -1.643551e+02 6.005491e-02 -7.043334e+01
2440000000 1.387504e-02 -6.964848e+01 -6.360762e+01 -1.598439e+02 -6.217553e+01 -1.589574e+02 6.359798e-02 -7.063088e+01
2450000000 1.708527e-02 -6.977430e+01 -6.310598e+01 -1.518010e+02 -6.363839e+01 -1.502867e+02 6.116060e-02 -7.094742e+01
2460000000 1.357893e-02 -7.024770e+01 -6.509477e+01 -1.485728e+02 -6.254385e+01 -1.532926e+02 5.862771e-02 -7.133353e+01
2470000000 8.160676e-03 -7.053857e+01 -6.539976e+01 -1.473343e+02 -6.314036e+01 -1.648145e+02 6.481728e-02 -7.160375e+01
2480000000 8.428740e-03 -7.081344e+01 -6.539196e+01 -1.508966e+02 -6.590860e+01 -1.465568e+02 5.895927e-02 -7.230402e+01
2490000000 1.277926e-02 -7.116176e+01 -6.174277e+01 -1.436232e+02 -6.779189e+01 -1.556614e+02 5.885372e-02 -7.271018e+01
2500000000 9.591224e-03 -7.142695e+01 -6.429972e+01 -1.423579e+02 -6.507273e+01 -1.442110e+02 6.095742e-02 -7.268823e+01
2510000000 1.993277e-03 -7.175164e+01 -6.529529e+01 -1.419498e+02 -6.622024e+01 -1.510238e+02 5.751208e-02 -7.343736e+01
2520000000 -7.992553e-04 -7.207239e+01 -6.498287e+01 -1.489863e+02 -6.229657e+01 -1.701376e+02 6.392635e-02 -7.386964e+01
2530000000 9.129422e-03 -7.232788e+01 -6.454334e+01 -1.451710e+02 -6.632717e+01 -1.299582e+02 6.538287e-02 -7.390859e+01
2540000000 4.373870e-03 -7.263295e+01 -6.599377e+01 -1.450938e+02 -6.002860e+01 -1.537573e+02 6.354784e-02 -7.450842e+01
2550000000 1.206598e-02 -7.292307e+01 -6.443085e+01 -1.494533e+02 -6.448553e+01 -1.339619e+02 6.752069e-02 -7.455222e+01
2560000000 1.202532e-02 -7.320911e+01 -6.431157e+01 -1.387440e+02 -6.366208e+01 -1.336566e+02 6.898412e-02 -7.495844e+01
2570000000 1.384195e-02 -7.348064e+01 -6.164299e+01 -1.436443e+02 -5.983097e+01 -1.373031e+02 5.825494e-02 -7.567081e+01
2580000000 1.292669e-02 -7.383875e+01 -6.155350e+01 -1.468321e+02 -6.057825e+01 -1.522793e+02 6.838387e-02 -7.579207e+01
2590000000 1.616372e-02 -7.410213e+01 -6.066721e+01 -1.419340e+02 -6.144708e+01 -1.462078e+02 7.702737e-02 -7.575076e+01
2600000000 1.936750e-02 -7.441320e+01 -6.066614e+01 -1.506740e+02 -6.226817e+01 -1.351756e+02 6.952658e-02 -7.637984e+01
2610000000 2.024696e-02 -7.474651e+01 -6.157781e+01 -1.453629e+02 -6.040349e+01 -1.490635e+02 6.559167e-02 -7.658028e+01
2620000000 1.618912e-02 -7.506410e+01 -6.177577e+01 -1.598469e+02 -6.114393e+01 -1.670943e+02 7.044925e-02 -7.688235e+01
2630000000 1.688294e-02 -7.539713e+01 -6.293212e+01 -1.410049e+02 -6.137238e+01 -1.441756e+02 7.379563e-02 -7.741891e+01
