!Agilent Technologies,N5227A,US51270477,A.10.00.00

!File generated by LCAF-GAM-UPV software
!josevmart@iteam.upv.es
!S2P File: Measurements: S11, S21, S12, S22:
# Hz S  dB   R 50
1000000000 4.796735e-03 -2.835628e+01 -8.342603e+01 -1.044105e+01 -7.621803e+01 -3.610361e+01 1.879043e-02 -2.892732e+01
1010000000 1.244644e-02 -2.859423e+01 -8.549854e+01 -1.000877e+02 -7.817876e+01 1.912486e+01 1.698978e-02 -2.918436e+01
1020000000 5.885325e-03 -2.887759e+01 -7.466885e+01 -7.561611e+01 -8.079739e+01 1.383447e+02 1.783499e-02 -2.955163e+01
1030000000 1.248599e-02 -2.917922e+01 -8.908241e+01 -6.976159e+01 -9.212178e+01 -1.062046e+02 2.031741e-02 -2.955143e+01
1040000000 7.447576e-03 -2.946339e+01 -8.556320e+01 -1.322612e+02 -8.136613e+01 1.229961e+02 2.057398e-02 -3.004066e+01
1050000000 2.731767e-03 -2.972262e+01 -9.260363e+01 5.827684e+01 -7.822411e+01 3.457134e+01 2.206315e-02 -3.029078e+01
1060000000 8.952133e-03 -3.000783e+01 -8.024560e+01 6.354014e+00 -8.309850e+01 -6.158166e+01 1.501025e-02 -3.063323e+01
1070000000 6.736969e-03 -3.031553e+01 -8.475981e+01 1.239188e+02 -8.361755e+01 6.777496e+01 2.111410e-02 -3.086460e+01
1080000000 6.557595e-03 -3.054562e+01 -8.621471e+01 2.699807e+01 -7.430743e+01 -7.287756e+01 1.973231e-02 -3.104070e+01
1090000000 8.704131e-03 -3.084791e+01 -8.197676e+01 2.588362e+01 -8.881528e+01 -8.089036e+01 2.134560e-02 -3.145527e+01
1100000000 4.585465e-03 -3.111074e+01 -8.781835e+01 -1.647602e+02 -8.360915e+01 -4.096521e+01 2.735514e-02 -3.162622e+01
1110000000 1.144845e-02 -3.141035e+01 -7.854398e+01 1.469868e+02 -8.885059e+01 1.303754e+02 2.963910e-02 -3.194506e+01
1120000000 9.950445e-03 -3.168748e+01 -7.995850e+01 -5.672715e+00 -8.031300e+01 -8.479845e+01 1.734211e-02 -3.228827e+01
1130000000 7.437722e-03 -3.198736e+01 -9.134328e+01 1.748831e+02 -7.737716e+01 -5.451352e+01 2.375344e-02 -3.249831e+01
1140000000 2.683132e-03 -3.227232e+01 -8.115936e+01 -7.124832e+01 -7.560065e+01 -1.963422e+01 2.460517e-02 -3.278477e+01
1150000000 8.210038e-03 -3.254082e+01 -8.033748e+01 -8.978077e+01 -7.348526e+01 -6.667590e+01 3.065056e-02 -3.310423e+01
1160000000 8.596318e-03 -3.283743e+01 -8.367538e+01 -1.177074e+02 -8.287596e+01 -4.103637e+01 2.819666e-02 -3.335568e+01
1170000000 8.019668e-03 -3.310158e+01 -8.548631e+01 -1.452390e+02 -8.004028e+01 -7.387225e+01 2.533337e-02 -3.357136e+01
1180000000 8.471770e-03 -3.339568e+01 -7.616687e+01 -6.099337e+01 -7.824855e+01 -1.309228e+02 2.764059e-02 -3.390334e+01
1190000000 4.663531e-03 -3.369729e+01 -7.760166e+01 -1.450746e+02 -6.926897e+01 -1.216318e+02 2.411291e-02 -3.418742e+01
1200000000 8.135895e-03 -3.397255e+01 -7.824762e+01 -1.351403e+02 -9.294944e+01 1.755498e+02 2.960313e-02 -3.443167e+01
1210000000 7.843290e-03 -3.424338e+01 -8.420917e+01 -1.333387e+02 -7.872076e+01 -1.229127e+02 2.740681e-02 -3.475270e+01
1220000000 1.383581e-02 -3.451437e+01 -7.962208e+01 -1.121410e+02 -8.178615e+01 -1.602611e+02 3.160711e-02 -3.501312e+01
1230000000 8.252704e-03 -3.483313e+01 -8.187557e+01 1.607551e+02 -7.227228e+01 -1.178914e+02 2.832304e-02 -3.529290e+01
1240000000 7.000281e-03 -3.507466e+01 -7.684944e+01 -1.293694e+02 -8.020345e+01 -1.128770e+02 3.176071e-02 -3.553588e+01
1250000000 1.114788e-02 -3.537366e+01 -8.265305e+01 -1.045892e+02 -7.459747e+01 -7.599192e+01 3.180161e-02 -3.578274e+01
1260000000 6.416316e-03 -3.566431e+01 -7.881875e+01 -1.105796e+02 -8.791265e+01 -1.139104e+02 2.516471e-02 -3.612213e+01
1270000000 6.646440e-03 -3.594676e+01 -8.100668e+01 1.788657e+02 -7.574935e+01 -1.501766e+02 3.082513e-02 -3.639407e+01
1280000000 7.173423e-03 -3.623634e+01 -9.231735e+01 6.481359e+00 -9.196913e+01 1.198585e+02 2.667555e-02 -3.686334e+01
1290000000 1.253795e-02 -3.648145e+01 -7.656575e+01 -1.243730e+02 -8.870842e+01 1.374074e+02 2.774652e-02 -3.694392e+01
1300000000 1.228158e-02 -3.678735e+01 -7.033405e+01 -1.082531e+02 -7.309016e+01 -1.628613e+02 3.168992e-02 -3.725513e+01
1310000000 6.528937e-03 -3.709787e+01 -7.685441e+01 -9.565695e+01 -8.011507e+01 -1.325017e+02 2.814324e-02 -3.747717e+01
1320000000 1.527807e-02 -3.736761e+01 -8.170214e+01 -1.085826e+02 -7.491021e+01 1.791460e+02 3.286084e-02 -3.784286e+01
1330000000 8.422500e-03 -3.770139e+01 -7.330224e+01 -1.391824e+02 -7.435884e+01 -1.658692e+02 2.974674e-02 -3.806181e+01
1340000000 1.247405e-02 -3.798048e+01 -7.530720e+01 -8.399840e+01 -7.774527e+01 -1.370529e+02 3.582799e-02 -3.840627e+01
1350000000 6.670899e-03 -3.837455e+01 -7.781506e+01 -1.213495e+02 -7.860706e+01 -1.588211e+02 3.422626e-02 -3.866155e+01
1360000000 1.506966e-02 -3.859265e+01 -7.533497e+01 -1.611745e+02 -7.782613e+01 -1.409996e+02 3.585295e-02 -3.904266e+01
1370000000 1.162083e-02 -3.892166e+01 -8.713145e+01 -1.407893e+02 -7.440166e+01 -1.713024e+02 3.376547e-02 -3.930283e+01
1380000000 1.458902e-02 -3.913341e+01 -7.741016e+01 -1.295887e+02 -7.812997e+01 -1.578601e+02 3.702718e-02 -3.960989e+01
1390000000 1.340366e-02 -3.941303e+01 -8.880788e+01 1.222583e+02 -8.122414e+01 -1.596006e+02 3.537095e-02 -3.988182e+01
1400000000 1.444658e-02 -3.974493e+01 -7.346033e+01 -1.252782e+02 -7.093994e+01 -8.438479e+01 3.642721e-02 -4.016166e+01
1410000000 1.477429e-02 -3.999765e+01 -8.500901e+01 -1.137699e+02 -7.310854e+01 -4.502610e+01 3.454930e-02 -4.045931e+01
1420000000 1.419478e-02 -4.028138e+01 -7.757748e+01 -1.592955e+02 -7.996834e+01 -1.088406e+02 3.669395e-02 -4.076223e+01
1430000000 1.475491e-02 -4.056655e+01 -7.367668e+01 -1.220412e+02 -8.732750e+01 -2.971817e+01 4.021818e-02 -4.103562e+01
1440000000 1.699635e-02 -4.081736e+01 -7.716460e+01 -1.252868e+02 -7.431802e+01 -1.443310e+02 3.745851e-02 -4.132705e+01
1450000000 1.067851e-02 -4.114124e+01 -7.893990e+01 -1.156144e+02 -8.237301e+01 -9.655519e+01 3.541163e-02 -4.161090e+01
1460000000 1.076954e-02 -4.142224e+01 -7.812930e+01 -1.576939e+02 -7.465875e+01 -1.132641e+02 3.679917e-02 -4.188834e+01
1470000000 1.632370e-02 -4.168903e+01 -8.082984e+01 -1.075245e+02 -8.628101e+01 5.167393e+01 4.024970e-02 -4.216515e+01
1480000000 1.670841e-02 -4.206596e+01 -7.355914e+01 -1.205963e+02 -7.678271e+01 -1.397369e+02 4.349747e-02 -4.245235e+01
1490000000 1.544527e-02 -4.229467e+01 -7.677857e+01 -1.151103e+02 -7.562135e+01 -1.199856e+02 3.960642e-02 -4.272091e+01
1500000000 1.646559e-02 -4.260535e+01 -7.948253e+01 1.727871e+02 -7.604305e+01 -1.312051e+02 4.123796e-02 -4.301303e+01
1510000000 1.596253e-02 -4.284713e+01 -7.280423e+01 -1.294078e+02 -7.278036e+01 -1.226438e+02 3.702209e-02 -4.330057e+01
1520000000 1.668075e-02 -4.279075e+01 -7.459914e+01 -1.434790e+02 -7.872218e+01 -1.669806e+02 4.072705e-02 -4.359111e+01
1530000000 1.429411e-02 -4.349846e+01 -8.524267e+01 -6.327879e+01 -7.106567e+01 -1.090471e+02 3.567084e-02 -4.390647e+01
1540000000 1.572855e-02 -4.380396e+01 -8.215921e+01 -1.461668e+02 -7.948952e+01 -1.367852e+02 4.425652e-02 -4.418443e+01
1550000000 1.542502e-02 -4.403256e+01 -7.135233e+01 -1.475177e+02 -7.647465e+01 -1.661917e+02 3.845375e-02 -4.446592e+01
1560000000 1.708855e-02 -4.436114e+01 -8.220679e+01 -2.998649e+01 -7.983450e+01 -7.318605e+01 4.285958e-02 -4.470694e+01
1570000000 1.878417e-02 -4.463512e+01 -7.981999e+01 1.734262e+02 -8.416209e+01 -1.202947e+02 4.010680e-02 -4.499020e+01
1580000000 1.457388e-02 -4.499368e+01 -7.766454e+01 -1.627334e+02 -7.549960e+01 -1.409722e+02 4.377615e-02 -4.527019e+01
1590000000 8.427056e-03 -4.528708e+01 -7.147345e+01 -1.783945e+02 -6.979471e+01 -9.154848e+01 4.088273e-02 -4.555386e+01
1600000000 1.060765e-02 -4.547612e+01 -7.589536e+01 -7.887220e+01 -7.206255e+01 -9.373650e+01 4.591748e-02 -4.586110e+01
1610000000 1.525801e-02 -4.580418e+01 -7.503646e+01 -1.275756e+02 -7.184439e+01 -6.195919e+01 4.263434e-02 -4.614929e+01
1620000000 1.155610e-02 -4.617566e+01 -7.111271e+01 -1.068799e+02 -6.989179e+01 -1.247896e+02 4.311999e-02 -4.641807e+01
1630000000 1.235306e-02 -4.646252e+01 -6.679088e+01 -1.344260e+02 -7.026680e+01 -1.652586e+02 4.540939e-02 -4.670935e+01
1640000000 1.003221e-02 -4.672801e+01 -6.868825e+01 -1.604688e+02 -6.858657e+01 -1.627790e+02 4.351696e-02 -4.700834e+01
1650000000 1.615833e-02 -4.696090e+01 -6.924776e+01 -1.468920e+02 -7.986717e+01 -1.072827e+02 4.850747e-02 -4.726945e+01
1660000000 1.532635e-02 -4.725512e+01 -7.714742e+01 -1.152441e+02 -6.782378e+01 -1.534013e+02 3.982069e-02 -4.759805e+01
1670000000 1.283624e-02 -4.766977e+01 -7.125955e+01 -1.505920e+02 -6.894025e+01 -1.554551e+02 4.339463e-02 -4.786485e+01
1680000000 1.841124e-02 -4.794455e+01 -7.432567e+01 -1.558913e+02 -7.364449e+01 1.606777e+02 4.794098e-02 -4.818448e+01
1690000000 1.563644e-02 -4.819822e+01 -7.244624e+01 -1.394894e+02 -7.074111e+01 -1.428955e+02 5.045700e-02 -4.844603e+01
1700000000 1.754862e-02 -4.853112e+01 -7.330228e+01 -1.555907e+02 -6.930229e+01 -1.659672e+02 5.147798e-02 -4.872799e+01
1710000000 1.441315e-02 -4.872873e+01 -7.259853e+01 -1.568451e+02 -7.079238e+01 -1.024839e+02 5.105601e-02 -4.899730e+01
1720000000 1.240664e-02 -4.914790e+01 -7.227042e+01 -1.455411e+02 -7.162857e+01 -1.499225e+02 4.920758e-02 -4.930169e+01
1730000000 1.369205e-02 -4.941471e+01 -7.314943e+01 1.777556e+02 -7.201612e+01 -1.047300e+02 4.400361e-02 -4.959401e+01
1740000000 1.604734e-02 -4.963776e+01 -7.531413e+01 -1.404092e+02 -7.573347e+01 -1.432759e+02 4.636766e-02 -4.992075e+01
1750000000 1.655282e-02 -4.995454e+01 -7.344743e+01 -1.034715e+02 -7.253751e+01 -1.387893e+02 4.909089e-02 -5.023018e+01
1760000000 1.706232e-02 -5.032030e+01 -7.292480e+01 -1.302537e+02 -6.869943e+01 -1.309055e+02 5.232077e-02 -5.048553e+01
1770000000 1.887590e-02 -5.056804e+01 -7.486637e+01 -1.486080e+02 -6.917661e+01 -1.432329e+02 4.862989e-02 -5.079038e+01
1780000000 1.957235e-02 -5.075697e+01 -6.930928e+01 -1.386113e+02 -7.127886e+01 -1.090241e+02 5.392007e-02 -5.107740e+01
1790000000 1.893152e-02 -5.120079e+01 -6.721996e+01 -1.311359e+02 -6.881132e+01 -1.191329e+02 5.417458e-02 -5.138105e+01
1800000000 1.626788e-02 -5.144735e+01 -7.029144e+01 -1.261154e+02 -7.015740e+01 -1.275239e+02 4.949948e-02 -5.169228e+01
1810000000 1.812517e-02 -5.176734e+01 -6.973251e+01 -1.505944e+02 -6.978076e+01 -1.362739e+02 5.276776e-02 -5.198886e+01
1820000000 1.566094e-02 -5.192170e+01 -7.156770e+01 -1.483298e+02 -7.245758e+01 -1.355023e+02 5.076259e-02 -5.228366e+01
1830000000 1.791693e-02 -5.211444e+01 -7.143342e+01 -1.256326e+02 -7.188962e+01 -1.642518e+02 5.145954e-02 -5.265648e+01
1840000000 2.370502e-02 -5.247879e+01 -7.067712e+01 -1.153885e+02 -7.047680e+01 -1.491080e+02 5.292316e-02 -5.291981e+01
1850000000 1.955493e-02 -5.270581e+01 -7.184795e+01 -1.463933e+02 -6.821907e+01 -1.515188e+02 4.769216e-02 -5.341523e+01
1860000000 2.222090e-02 -5.302353e+01 -6.981293e+01 -1.413898e+02 -6.750413e+01 -1.437635e+02 5.396355e-02 -5.352907e+01
1870000000 1.721946e-02 -5.336693e+01 -6.997036e+01 -1.480016e+02 -6.897668e+01 -1.578992e+02 5.168313e-02 -5.395172e+01
1880000000 1.856795e-02 -5.390932e+01 -7.093508e+01 -1.251916e+02 -6.733327e+01 -1.520015e+02 5.341067e-02 -5.426759e+01
1890000000 1.936399e-02 -5.423691e+01 -6.997025e+01 -1.445919e+02 -6.568527e+01 -1.194225e+02 5.415555e-02 -5.463020e+01
1900000000 2.275912e-02 -5.431412e+01 -7.313824e+01 -1.539329e+02 -7.529091e+01 -1.374261e+02 5.836055e-02 -5.500602e+01
1910000000 1.880402e-02 -5.467997e+01 -7.038623e+01 -1.562124e+02 -6.875429e+01 -1.491751e+02 5.800357e-02 -5.518292e+01
1920000000 2.095747e-02 -5.507963e+01 -6.934468e+01 -1.310695e+02 -6.824218e+01 -1.336902e+02 5.497592e-02 -5.557482e+01
1930000000 1.792980e-02 -5.546487e+01 -6.781584e+01 -1.489578e+02 -6.775751e+01 -1.519196e+02 5.490060e-02 -5.582554e+01
1940000000 1.968495e-02 -5.558971e+01 -7.105705e+01 -1.517740e+02 -7.031117e+01 -1.150577e+02 5.227745e-02 -5.618187e+01
1950000000 1.542334e-02 -5.589245e+01 -6.980180e+01 -1.456727e+02 -7.062327e+01 -1.630652e+02 5.678339e-02 -5.636622e+01
1960000000 2.269115e-02 -5.625010e+01 -6.861423e+01 -1.282264e+02 -6.841113e+01 -1.492085e+02 6.027120e-02 -5.677594e+01
1970000000 1.881843e-02 -5.647275e+01 -6.571940e+01 -1.513062e+02 -6.768634e+01 -1.180465e+02 5.475889e-02 -5.711722e+01
1980000000 1.436045e-02 -5.678886e+01 -6.721604e+01 -1.431153e+02 -7.131714e+01 -1.474115e+02 6.066138e-02 -5.736098e+01
1990000000 2.030362e-02 -5.692551e+01 -6.998563e+01 -1.671296e+02 -7.280951e+01 -1.471795e+02 5.059720e-02 -5.771106e+01
2000000000 1.838655e-02 -5.749749e+01 -6.611682e+01 -1.601359e+02 -6.877837e+01 -1.415558e+02 5.123102e-02 -5.780411e+01
2010000000 1.302963e-02 -5.784468e+01 -6.984373e+01 -1.480329e+02 -6.885940e+01 -1.404444e+02 5.562443e-02 -5.802009e+01
2020000000 1.240890e-02 -5.789062e+01 -6.874106e+01 -1.428500e+02 -6.983957e+01 -1.306944e+02 6.020734e-02 -5.866050e+01
2030000000 1.404146e-02 -5.827054e+01 -6.820797e+01 -1.322762e+02 -7.059351e+01 -1.510167e+02 5.646601e-02 -5.879380e+01
2040000000 1.537766e-02 -5.857840e+01 -6.753723e+01 -1.587275e+02 -6.866908e+01 -1.292020e+02 6.366868e-02 -5.898242e+01
2050000000 1.567450e-02 -5.871881e+01 -7.077304e+01 -1.248069e+02 -6.824088e+01 -1.518940e+02 5.812519e-02 -5.952158e+01
2060000000 1.055797e-02 -5.916690e+01 -6.990241e+01 -1.416785e+02 -6.902706e+01 -1.243139e+02 6.028235e-02 -5.956134e+01
2070000000 1.404076e-02 -5.942072e+01 -6.998264e+01 -1.103842e+02 -6.887735e+01 -8.686955e+01 5.560211e-02 -5.984468e+01
2080000000 1.625421e-02 -5.960384e+01 -6.782996e+01 -9.847169e+01 -6.858350e+01 -1.021071e+02 5.709310e-02 -6.044786e+01
2090000000 1.198665e-02 -6.022218e+01 -6.626985e+01 -9.604538e+01 -6.542365e+01 -1.061403e+02 5.695007e-02 -6.045644e+01
2100000000 1.264858e-02 -6.028294e+01 -6.693277e+01 -1.094276e+02 -6.666544e+01 -1.109730e+02 6.014718e-02 -6.084424e+01
2110000000 1.618989e-02 -6.051286e+01 -6.410207e+01 -1.081803e+02 -6.248373e+01 -9.466093e+01 5.596310e-02 -6.138070e+01
2120000000 8.938854e-03 -6.107256e+01 -6.258854e+01 -1.196537e+02 -6.168362e+01 -1.101711e+02 6.365762e-02 -6.128130e+01
2130000000 1.467597e-02 -6.101599e+01 -6.236534e+01 -1.218529e+02 -6.204482e+01 -1.131872e+02 5.757217e-02 -6.180526e+01
2140000000 1.188916e-02 -6.127411e+01 -6.311259e+01 -1.256308e+02 -6.156711e+01 -1.223762e+02 5.619058e-02 -6.234221e+01
2150000000 1.078191e-02 -6.171205e+01 -6.161594e+01 -1.341148e+02 -6.267359e+01 -1.187128e+02 6.088421e-02 -6.228816e+01
2160000000 1.219363e-02 -6.199961e+01 -6.132339e+01 -1.356575e+02 -6.151671e+01 -1.422585e+02 6.159596e-02 -6.277150e+01
2170000000 1.248450e-02 -6.217321e+01 -6.217205e+01 -1.388525e+02 -6.269937e+01 -1.369584e+02 5.324012e-02 -6.320381e+01
2180000000 1.580109e-02 -6.248420e+01 -6.227357e+01 -1.342066e+02 -6.064666e+01 -1.395038e+02 6.299783e-02 -6.332922e+01
2190000000 1.200890e-02 -6.281973e+01 -6.251289e+01 -1.460458e+02 -6.183413e+01 -1.467950e+02 5.880272e-02 -6.381084e+01
2200000000 1.382846e-02 -6.304998e+01 -6.215461e+01 -1.359228e+02 -6.269368e+01 -1.340974e+02 5.655729e-02 -6.419016e+01
2210000000 1.312527e-02 -6.352490e+01 -6.049399e+01 -1.494554e+02 -6.204215e+01 -1.402489e+02 5.970804e-02 -6.423698e+01
2220000000 1.495554e-02 -6.370846e+01 -6.194544e+01 -1.484349e+02 -6.320649e+01 -1.332888e+02 5.835977e-02 -6.472092e+01
2230000000 1.553261e-02 -6.392148e+01 -6.288700e+01 -1.439065e+02 -6.296819e+01 -1.514545e+02 5.973215e-02 -6.498712e+01
2240000000 1.448890e-02 -6.445682e+01 -6.096698e+01 -1.274368e+02 -6.215311e+01 -1.416958e+02 6.104177e-02 -6.513894e+01
2250000000 1.495439e-02 -6.439010e+01 -6.237875e+01 -1.455650e+02 -6.126688e+01 -1.635571e+02 6.129443e-02 -6.566596e+01
2260000000 8.879250e-03 -6.513636e+01 -6.245495e+01 -1.532767e+02 -6.192570e+01 -1.395839e+02 5.614153e-02 -6.581646e+01
2270000000 1.328342e-02 -6.511193e+01 -6.322427e+01 -1.477230e+02 -6.207642e+01 -1.456034e+02 5.971935e-02 -6.591816e+01
2280000000 9.991687e-03 -6.531235e+01 -6.308825e+01 -1.460263e+02 -6.156874e+01 -1.575299e+02 5.778223e-02 -6.654071e+01
2290000000 1.638605e-02 -6.586257e+01 -6.137786e+01 -1.508451e+02 -6.286109e+01 -1.454361e+02 5.810095e-02 -6.667535e+01
2300000000 8.428345e-03 -6.606389e+01 -6.255449e+01 -1.491421e+02 -6.287631e+01 -1.477551e+02 5.634016e-02 -6.696080e+01
2310000000 8.242391e-03 -6.629673e+01 -6.145097e+01 -1.504178e+02 -6.035672e+01 -1.511588e+02 5.747704e-02 -6.755723e+01
2320000000 9.841935e-03 -6.672387e+01 -6.276267e+01 -1.564974e+02 -6.469784e+01 -1.448724e+02 4.880348e-02 -6.764890e+01
2330000000 1.858780e-02 -6.692473e+01 -6.155602e+01 -1.576865e+02 -6.241485e+01 -1.487602e+02 5.961640e-02 -6.793641e+01
2340000000 1.716099e-02 -6.727284e+01 -6.079379e+01 -1.621520e+02 -6.060528e+01 -1.607873e+02 5.554185e-02 -6.836232e+01
2350000000 1.685660e-02 -6.759562e+01 -6.189970e+01 -1.493462e+02 -6.216422e+01 -1.596039e+02 5.687416e-02 -6.862458e+01
2360000000 1.208347e-02 -6.790691e+01 -6.206241e+01 -1.501224e+02 -6.221801e+01 -1.508240e+02 5.214819e-02 -6.893189e+01
2370000000 1.072476e-02 -6.822918e+01 -5.970471e+01 -1.566029e+02 -6.128432e+01 -1.496542e+02 5.231312e-02 -6.930977e+01
2380000000 1.346664e-02 -6.853426e+01 -6.048143e+01 -1.512567e+02 -6.242629e+01 -1.558849e+02 4.454039e-02 -7.032773e+01
2390000000 1.370577e-02 -6.883659e+01 -6.287105e+01 -1.558978e+02 -6.265986e+01 -1.396938e+02 5.339723e-02 -7.021980e+01
2400000000 5.072650e-03 -6.914009e+01 -6.328001e+01 -1.623520e+02 -6.156326e+01 -1.582842e+02 4.942375e-02 -7.069986e+01
2410000000 8.581857e-03 -6.944564e+01 -6.253735e+01 -1.563340e+02 -6.125938e+01 -1.555513e+02 4.446566e-02 -7.103290e+01
2420000000 1.012847e-02 -6.976311e+01 -6.050775e+01 -1.480594e+02 -6.353755e+01 -1.497595e+02 5.976883e-02 -7.114526e+01
2430000000 5.417133e-03 -7.002905e+01 -6.152966e+01 -1.507680e+02 -6.285934e+01 -1.565305e+02 5.135886e-02 -7.170637e+01
2440000000 7.005018e-03 -7.034017e+01 -6.276896e+01 -1.482007e+02 -6.170440e+01 -1.527304e+02 5.519483e-02 -7.192119e+01
2450000000 7.045242e-03 -7.064197e+01 -6.330966e+01 -1.622521e+02 -6.000048e+01 -1.518242e+02 5.421450e-02 -7.221889e+01
2460000000 5.901858e-03 -7.094956e+01 -6.163149e+01 -1.566747e+02 -6.274336e+01 -1.562334e+02 5.124727e-02 -7.267080e+01
2470000000 2.401193e-03 -7.121471e+01 -6.339130e+01 -1.559914e+02 -6.454091e+01 -1.631847e+02 5.564823e-02 -7.286084e+01
2480000000 2.320612e-05 -7.152716e+01 -6.426770e+01 -1.521304e+02 -6.443137e+01 -1.476062e+02 4.989621e-02 -7.308227e+01
2490000000 3.944132e-03 -7.186749e+01 -6.441031e+01 -1.466225e+02 -6.278539e+01 -1.690824e+02 5.013497e-02 -7.336858e+01
2500000000 3.745719e-04 -7.214462e+01 -6.480054e+01 -1.559000e+02 -6.314743e+01 -1.475338e+02 5.798491e-02 -7.374937e+01
2510000000 -2.651034e-03 -7.249038e+01 -6.333766e+01 -1.432191e+02 -6.198882e+01 -1.339966e+02 5.121519e-02 -7.403591e+01
2520000000 -6.635613e-03 -7.281553e+01 -6.354717e+01 -1.399236e+02 -6.922009e+01 -1.774150e+02 5.614480e-02 -7.462660e+01
2530000000 2.605857e-03 -7.306802e+01 -6.258310e+01 -1.340269e+02 -6.489001e+01 -1.364758e+02 5.669470e-02 -7.481452e+01
2540000000 -4.766375e-03 -7.337913e+01 -6.326717e+01 -1.373605e+02 -6.160221e+01 -1.532369e+02 5.058468e-02 -7.658076e+01
2550000000 -8.418383e-05 -7.372644e+01 -6.331466e+01 -1.333264e+02 -6.410513e+01 -1.399765e+02 5.850077e-02 -7.586875e+01
2560000000 3.483793e-03 -7.397310e+01 -6.228621e+01 -1.422401e+02 -6.100722e+01 -1.372822e+02 5.851123e-02 -7.585947e+01
2570000000 8.080712e-03 -7.427773e+01 -6.159435e+01 -1.314467e+02 -6.196707e+01 -1.432653e+02 5.385510e-02 -7.625271e+01
2580000000 6.501492e-03 -7.464679e+01 -6.180204e+01 -1.397558e+02 -6.137525e+01 -1.491408e+02 5.897103e-02 -7.648220e+01
2590000000 8.628702e-03 -7.491810e+01 -6.185551e+01 -1.474892e+02 -6.240350e+01 -1.473244e+02 6.664673e-02 -7.677734e+01
2600000000 6.649704e-03 -7.524007e+01 -6.144802e+01 -1.458034e+02 -6.240015e+01 -1.412750e+02 6.528389e-02 -7.715614e+01
2610000000 6.617523e-03 -7.558711e+01 -6.225591e+01 -1.503150e+02 -6.095532e+01 -1.502072e+02 5.813367e-02 -7.761176e+01
2620000000 1.066209e-02 -7.588836e+01 -6.088113e+01 -1.639606e+02 -6.080487e+01 -1.569411e+02 6.028114e-02 -7.774740e+01
