!Agilent Technologies,N5227A,US51270477,A.10.00.00

!File generated by LCAF-GAM-UPV software
!josevmart@iteam.upv.es
!S2P File: Measurements: S11, S21, S12, S22:
# Hz S  dB   R 50
1000000000 3.241455e-03 -3.013122e+01 -7.880726e+01 -1.538340e+01 -8.928600e+01 5.956416e-01 1.638579e-02 -3.054787e+01
1010000000 8.175825e-03 -3.052960e+01 -8.337711e+01 -1.231141e+02 -8.073230e+01 1.722780e+02 1.587509e-02 -3.115524e+01
1020000000 4.862918e-03 -3.083776e+01 -8.558927e+01 8.897141e+01 -7.903954e+01 -6.695985e+01 1.825275e-02 -3.144930e+01
1030000000 8.055869e-03 -3.116128e+01 -8.687897e+01 8.712702e+01 -7.617702e+01 2.020986e+00 1.719207e-02 -3.176605e+01
1040000000 1.659572e-03 -3.144299e+01 -7.972700e+01 -9.369846e+01 -8.173777e+01 1.099436e+02 1.770244e-02 -3.209486e+01
1050000000 -5.183295e-04 -3.177125e+01 -8.030740e+01 -3.041884e+01 -8.325850e+01 -1.769554e+02 1.640439e-02 -3.229755e+01
1060000000 4.456060e-03 -3.204819e+01 -7.596024e+01 -1.261943e+02 -7.632403e+01 1.496841e+02 1.842301e-02 -3.279662e+01
1070000000 5.116411e-04 -3.233672e+01 -9.507228e+01 -1.520813e+02 -7.838912e+01 -9.398543e+01 1.860779e-02 -3.306360e+01
1080000000 5.281351e-03 -3.261510e+01 -8.176804e+01 1.431065e+02 -8.726386e+01 8.117261e+01 1.600097e-02 -3.324899e+01
1090000000 3.348948e-03 -3.295795e+01 -9.194253e+01 -1.731551e+02 -8.239177e+01 -8.755895e+01 2.188832e-02 -3.367052e+01
1100000000 -1.547275e-03 -3.320506e+01 -7.318880e+01 -8.279944e+01 -9.159076e+01 -5.700646e+01 2.065030e-02 -3.392724e+01
1110000000 7.223902e-03 -3.351995e+01 -7.885384e+01 -9.386281e+00 -8.180805e+01 -4.521203e+01 2.050523e-02 -3.439727e+01
1120000000 5.931510e-03 -3.381480e+01 -7.566402e+01 -7.050815e+01 -7.808056e+01 -1.195543e+02 1.726309e-02 -3.455433e+01
1130000000 2.338596e-03 -3.413755e+01 -7.737171e+01 -3.364678e+01 -7.248512e+01 -5.950124e+01 1.692835e-02 -3.492867e+01
1140000000 -3.698999e-03 -3.445170e+01 -7.399491e+01 -1.000431e+02 -8.125237e+01 1.170361e+02 2.069579e-02 -3.490351e+01
1150000000 -5.494385e-04 -3.472110e+01 -8.312432e+01 -6.828837e+01 -8.065759e+01 -9.523190e+01 2.628517e-02 -3.562927e+01
1160000000 -3.773993e-05 -3.503815e+01 -7.405076e+01 -1.192810e+02 -7.726090e+01 -1.702247e+02 2.631353e-02 -3.579514e+01
1170000000 2.996593e-03 -3.533928e+01 -7.515447e+01 -1.103517e+02 -7.380665e+01 -4.604851e+01 2.453424e-02 -3.618260e+01
1180000000 -6.117693e-05 -3.563006e+01 -7.148526e+01 -6.565697e+01 -7.338658e+01 -9.140181e+01 2.498195e-02 -3.648447e+01
1190000000 1.380014e-03 -3.593906e+01 -7.487103e+01 -1.511471e+02 -7.066680e+01 -1.053821e+02 2.333948e-02 -3.678121e+01
1200000000 2.239863e-03 -3.622368e+01 -7.447453e+01 -1.368108e+02 -7.307303e+01 -9.553201e+01 2.468194e-02 -3.696898e+01
1210000000 2.776080e-03 -3.651886e+01 -7.524731e+01 -1.772050e+02 -8.068800e+01 -1.535083e+02 2.354857e-02 -3.747071e+01
1220000000 3.494927e-03 -3.683248e+01 -7.803470e+01 -1.747843e+02 -7.620852e+01 -1.557130e+02 2.622382e-02 -3.750103e+01
1230000000 5.089053e-03 -3.713363e+01 -7.493945e+01 -1.796527e+02 -6.843685e+01 -1.681493e+02 2.256855e-02 -3.801136e+01
1240000000 -5.171736e-04 -3.741135e+01 -7.317736e+01 1.775775e+02 -7.091557e+01 1.775537e+02 2.252390e-02 -3.832817e+01
1250000000 1.688596e-03 -3.771763e+01 -7.270713e+01 -1.432940e+02 -7.876899e+01 -1.056282e+02 2.733714e-02 -3.861157e+01
1260000000 -1.024538e-03 -3.801811e+01 -7.462991e+01 1.765992e+02 -7.302666e+01 -1.709776e+02 1.941378e-02 -3.901109e+01
1270000000 7.889980e-04 -3.832804e+01 -7.839309e+01 1.630674e+02 -7.921655e+01 -8.607082e+01 2.313621e-02 -3.911673e+01
1280000000 3.032249e-03 -3.862429e+01 -8.043523e+01 -9.288193e+01 -8.111990e+01 1.486964e+02 1.969603e-02 -3.959572e+01
1290000000 4.727879e-03 -3.890190e+01 -7.379910e+01 -1.626174e+02 -7.980550e+01 -1.560351e+02 2.342666e-02 -3.975946e+01
1300000000 7.626304e-03 -3.922733e+01 -7.361280e+01 -1.549230e+02 -7.617825e+01 -1.146786e+02 2.818514e-02 -3.991319e+01
1310000000 -2.281723e-03 -3.953097e+01 -8.070007e+01 -7.342513e+01 -7.326613e+01 -1.368904e+02 2.555892e-02 -4.027321e+01
1320000000 5.660906e-03 -3.985272e+01 -7.804616e+01 -9.320863e+01 -6.968210e+01 -1.305327e+02 2.920338e-02 -4.050756e+01
1330000000 8.287758e-04 -4.012740e+01 -7.149746e+01 -1.112905e+02 -7.171884e+01 -1.126778e+02 2.444784e-02 -4.089959e+01
1340000000 1.977072e-03 -4.044140e+01 -7.505697e+01 -1.408421e+02 -6.876199e+01 -1.335903e+02 2.789420e-02 -4.111747e+01
1350000000 1.932703e-03 -4.075834e+01 -7.463021e+01 -1.481659e+02 -7.102148e+01 -1.352329e+02 2.811029e-02 -4.140584e+01
1360000000 9.468528e-03 -4.105782e+01 -7.242141e+01 -1.351239e+02 -7.050311e+01 -1.300811e+02 3.300996e-02 -4.153364e+01
1370000000 2.850134e-03 -4.133338e+01 -7.007633e+01 1.711985e+02 -6.945605e+01 -1.428801e+02 2.931796e-02 -4.205617e+01
1380000000 6.964636e-03 -4.164763e+01 -7.770394e+01 -1.312626e+02 -8.133423e+01 -1.333942e+02 3.064131e-02 -4.221852e+01
1390000000 1.344663e-03 -4.195434e+01 -7.322852e+01 -1.217678e+02 -7.904609e+01 -1.657025e+02 2.727237e-02 -4.205320e+01
1400000000 6.337109e-03 -4.224706e+01 -6.680689e+01 -1.508139e+02 -7.277193e+01 -1.236486e+02 3.184950e-02 -4.290069e+01
1410000000 5.656619e-03 -4.258997e+01 -7.572874e+01 -1.276006e+02 -7.208124e+01 -1.439370e+02 3.154586e-02 -4.306730e+01
1420000000 2.099336e-03 -4.289396e+01 -7.289825e+01 -1.326842e+02 -7.504208e+01 -1.160636e+02 3.374812e-02 -4.344410e+01
1430000000 2.535345e-03 -4.317982e+01 -7.250656e+01 -1.252988e+02 -7.338653e+01 -1.110724e+02 3.428505e-02 -4.377961e+01
1440000000 3.529114e-03 -4.352438e+01 -7.411455e+01 -1.777022e+02 -6.924653e+01 -1.372515e+02 3.393249e-02 -4.402066e+01
1450000000 2.710840e-03 -4.406657e+01 -7.281488e+01 -1.441918e+02 -7.786450e+01 -1.384093e+02 2.739440e-02 -4.453505e+01
1460000000 1.988443e-03 -4.464338e+01 -7.511255e+01 -1.195269e+02 -7.531126e+01 -1.157511e+02 2.954426e-02 -4.483099e+01
1470000000 1.839690e-03 -4.486057e+01 -6.986162e+01 -1.450037e+02 -7.013029e+01 -1.420043e+02 3.312058e-02 -4.512205e+01
1480000000 3.968864e-03 -4.499061e+01 -7.287990e+01 -1.284312e+02 -6.673683e+01 -1.575042e+02 3.782316e-02 -4.548457e+01
1490000000 2.761609e-03 -4.556410e+01 -7.213988e+01 -1.413104e+02 -7.286443e+01 -1.274459e+02 3.248173e-02 -4.575201e+01
1500000000 5.583357e-03 -4.578123e+01 -7.114848e+01 -1.534183e+02 -7.327139e+01 -1.725001e+02 3.305003e-02 -4.606981e+01
1510000000 3.501507e-03 -4.593835e+01 -7.064068e+01 -1.512963e+02 -7.515319e+01 -1.350154e+02 2.777108e-02 -4.637741e+01
1520000000 3.517792e-03 -4.639239e+01 -7.426546e+01 -1.393503e+02 -6.910982e+01 -1.509203e+02 3.222040e-02 -4.669822e+01
1530000000 -1.363654e-03 -4.659944e+01 -6.960984e+01 -1.501844e+02 -6.770355e+01 -1.443345e+02 3.095720e-02 -4.703075e+01
1540000000 5.531878e-03 -4.695265e+01 -7.031875e+01 -1.480016e+02 -7.127917e+01 -1.389590e+02 3.555373e-02 -4.732469e+01
1550000000 4.489023e-03 -4.726527e+01 -6.964029e+01 -1.725752e+02 -7.013437e+01 -1.290661e+02 3.169151e-02 -4.762421e+01
1560000000 3.346572e-03 -4.761309e+01 -6.996057e+01 -1.434213e+02 -7.009167e+01 -1.078259e+02 3.445069e-02 -4.789288e+01
1570000000 3.999147e-03 -4.777118e+01 -6.747540e+01 -1.281341e+02 -7.051424e+01 -1.406238e+02 3.252447e-02 -4.818966e+01
1580000000 3.806113e-04 -4.822100e+01 -6.849149e+01 -1.223049e+02 -7.223554e+01 -1.367327e+02 3.561016e-02 -4.849980e+01
1590000000 -2.967239e-03 -4.844933e+01 -7.359127e+01 -1.247231e+02 -6.974593e+01 -1.271485e+02 2.909156e-02 -4.880153e+01
1600000000 -1.205372e-03 -4.861396e+01 -7.164513e+01 -1.241241e+02 -7.175996e+01 -1.423368e+02 3.661306e-02 -4.911590e+01
1610000000 3.721192e-03 -4.901851e+01 -6.603310e+01 -1.199551e+02 -6.626725e+01 -1.040622e+02 3.174822e-02 -4.944711e+01
1620000000 -2.286627e-03 -4.927475e+01 -6.780908e+01 -1.225051e+02 -6.360738e+01 -1.263463e+02 3.441556e-02 -4.974933e+01
1630000000 3.997835e-04 -4.938885e+01 -6.527048e+01 -1.341309e+02 -6.494376e+01 -1.463713e+02 3.300671e-02 -5.006258e+01
1640000000 7.258939e-04 -4.986145e+01 -6.649796e+01 -1.641476e+02 -6.641235e+01 -1.414351e+02 3.751867e-02 -5.036930e+01
1650000000 -1.415894e-03 -5.008126e+01 -6.705533e+01 -1.673037e+02 -6.551152e+01 -1.748065e+02 4.057657e-02 -5.066563e+01
1660000000 1.550360e-03 -5.044058e+01 -6.770235e+01 -1.555332e+02 -6.574606e+01 -1.529553e+02 3.249997e-02 -5.100555e+01
1670000000 5.194612e-04 -5.083107e+01 -6.685212e+01 -1.583852e+02 -6.761433e+01 -1.430048e+02 3.209299e-02 -5.130284e+01
1680000000 4.179617e-03 -5.124316e+01 -6.803705e+01 -1.439783e+02 -6.767273e+01 -1.377672e+02 3.730824e-02 -5.162883e+01
1690000000 -3.101401e-04 -5.147931e+01 -6.570569e+01 -1.400851e+02 -6.712833e+01 -1.623653e+02 4.172485e-02 -5.188621e+01
1700000000 5.017820e-03 -5.164534e+01 -6.741016e+01 -1.741838e+02 -6.679381e+01 -1.483119e+02 3.806818e-02 -5.219315e+01
1710000000 2.513657e-03 -5.198319e+01 -6.795184e+01 -1.441243e+02 -7.255813e+01 -1.543370e+02 4.128353e-02 -5.247088e+01
1720000000 -1.467546e-03 -5.225717e+01 -6.870900e+01 -1.515293e+02 -6.845504e+01 -1.426518e+02 3.907360e-02 -5.279703e+01
1730000000 -2.531448e-03 -5.280182e+01 -6.892871e+01 -1.531375e+02 -6.674860e+01 -1.361565e+02 3.126953e-02 -5.311663e+01
1740000000 3.431958e-03 -5.283362e+01 -6.870293e+01 -1.406897e+02 -7.073276e+01 -1.387453e+02 3.633542e-02 -5.346582e+01
1750000000 5.605798e-04 -5.313303e+01 -6.440054e+01 -1.195782e+02 -6.953177e+01 -1.358190e+02 3.461227e-02 -5.378790e+01
1760000000 2.170164e-03 -5.357350e+01 -6.590235e+01 -1.415197e+02 -7.353487e+01 -1.172049e+02 4.156711e-02 -5.406355e+01
1770000000 2.139051e-03 -5.381576e+01 -6.506660e+01 -1.461789e+02 -6.842454e+01 -1.368916e+02 3.625318e-02 -5.437831e+01
1780000000 5.040983e-03 -5.405365e+01 -6.814655e+01 -1.433481e+02 -6.532052e+01 -1.414585e+02 3.936154e-02 -5.470645e+01
1790000000 3.475234e-03 -5.447491e+01 -6.583894e+01 -1.361849e+02 -6.802306e+01 -1.192240e+02 4.215497e-02 -5.500777e+01
1800000000 3.800718e-05 -5.474493e+01 -6.595168e+01 -1.488584e+02 -6.534322e+01 -1.390686e+02 4.008018e-02 -5.535956e+01
1810000000 -7.836633e-04 -5.521066e+01 -6.575058e+01 -1.360680e+02 -6.519071e+01 -1.496961e+02 3.965073e-02 -5.570453e+01
1820000000 -1.686601e-03 -5.542028e+01 -6.549185e+01 -1.564352e+02 -6.654916e+01 -1.664547e+02 3.631297e-02 -5.600026e+01
1830000000 -1.471222e-03 -5.580074e+01 -6.682982e+01 -1.561769e+02 -6.820248e+01 -1.407540e+02 3.778958e-02 -5.627921e+01
1840000000 4.244368e-03 -5.602702e+01 -6.751557e+01 -1.574891e+02 -6.923123e+01 -1.486489e+02 3.915307e-02 -5.659263e+01
1850000000 3.686939e-03 -5.653931e+01 -7.161024e+01 -1.444290e+02 -6.538375e+01 -1.590891e+02 3.304135e-02 -5.693622e+01
1860000000 -1.020683e-03 -5.689196e+01 -6.672961e+01 -1.509426e+02 -7.140091e+01 -1.439232e+02 4.006789e-02 -5.723793e+01
1870000000 -4.145610e-03 -5.720376e+01 -6.563561e+01 -1.556320e+02 -6.574287e+01 -1.360091e+02 4.003544e-02 -5.760394e+01
1880000000 -5.275226e-04 -5.745252e+01 -6.860141e+01 -1.591261e+02 -6.412872e+01 -1.418560e+02 4.151472e-02 -5.792305e+01
1890000000 -2.322610e-04 -5.778062e+01 -6.690537e+01 -1.376109e+02 -6.613683e+01 -1.482440e+02 4.033354e-02 -5.824246e+01
1900000000 -1.959720e-03 -5.816120e+01 -6.617187e+01 -1.552062e+02 -6.541656e+01 -1.249769e+02 4.445955e-02 -5.856643e+01
1910000000 -2.747869e-03 -5.837740e+01 -6.529465e+01 -1.439150e+02 -6.382730e+01 -1.448869e+02 4.421473e-02 -5.888354e+01
1920000000 -4.121867e-03 -5.878264e+01 -6.684142e+01 -1.474951e+02 -6.618545e+01 -1.417775e+02 4.280670e-02 -5.920907e+01
1930000000 -3.348801e-03 -5.908327e+01 -6.628976e+01 -1.559852e+02 -6.638839e+01 -1.426533e+02 4.151136e-02 -5.956887e+01
1940000000 -2.994111e-03 -5.943178e+01 -6.383770e+01 -1.584142e+02 -6.757011e+01 -1.522010e+02 3.682110e-02 -5.988394e+01
1950000000 -5.346303e-03 -5.977773e+01 -6.344456e+01 -1.549690e+02 -6.631714e+01 -1.426865e+02 4.114073e-02 -6.026247e+01
1960000000 -1.804986e-03 -6.007487e+01 -6.489417e+01 -1.405827e+02 -6.448814e+01 -1.493194e+02 4.438838e-02 -6.071184e+01
1970000000 -9.828784e-03 -6.048947e+01 -6.489675e+01 -1.441133e+02 -6.476423e+01 -1.387440e+02 3.801770e-02 -6.098933e+01
1980000000 -1.127523e-02 -6.078093e+01 -6.361016e+01 -1.562085e+02 -6.549435e+01 -1.491850e+02 4.543374e-02 -6.135577e+01
1990000000 -8.239939e-03 -6.113140e+01 -6.709893e+01 -1.496165e+02 -6.469338e+01 -1.507160e+02 3.654837e-02 -6.170887e+01
2000000000 -8.073583e-03 -6.187333e+01 -6.449548e+01 -1.371759e+02 -6.411460e+01 -1.508259e+02 3.275593e-02 -6.239558e+01
2010000000 -1.233065e-02 -6.214885e+01 -6.501805e+01 -1.544201e+02 -6.500500e+01 -1.530167e+02 3.490959e-02 -6.283659e+01
2020000000 -2.335665e-02 -6.298820e+01 -6.433907e+01 -1.415050e+02 -6.482782e+01 -1.291469e+02 4.431514e-02 -6.278770e+01
2030000000 -1.808603e-02 -6.274716e+01 -6.483420e+01 -1.411612e+02 -6.680061e+01 -1.348096e+02 3.702512e-02 -6.299743e+01
2040000000 -1.106426e-02 -6.291336e+01 -6.778238e+01 -1.507044e+02 -6.545669e+01 -1.397880e+02 4.264582e-02 -6.379207e+01
2050000000 -1.723254e-02 -6.352872e+01 -6.654884e+01 -1.364861e+02 -6.687462e+01 -1.423608e+02 3.563587e-02 -6.369569e+01
2060000000 -1.717523e-02 -6.359936e+01 -6.483128e+01 -1.331811e+02 -6.955380e+01 -1.371568e+02 4.062512e-02 -6.398846e+01
2070000000 -1.890815e-02 -6.446564e+01 -6.576373e+01 -1.402750e+02 -6.511846e+01 -1.374513e+02 3.525110e-02 -6.466673e+01
2080000000 -1.561157e-02 -6.441735e+01 -6.598320e+01 -1.070592e+02 -6.547758e+01 -1.101616e+02 3.414036e-02 -6.523328e+01
2090000000 -1.994611e-02 -6.496455e+01 -6.592223e+01 -1.111599e+02 -6.642459e+01 -1.173605e+02 3.137334e-02 -6.535851e+01
2100000000 -2.181079e-02 -6.550005e+01 -6.215272e+01 -1.076899e+02 -6.433482e+01 -1.135957e+02 3.667105e-02 -6.557588e+01
2110000000 -1.650395e-02 -6.540099e+01 -6.030183e+01 -1.206403e+02 -6.061610e+01 -1.127517e+02 3.331568e-02 -6.552493e+01
2120000000 -2.315137e-02 -6.568824e+01 -6.095415e+01 -1.206338e+02 -6.064580e+01 -1.242108e+02 3.624400e-02 -6.639473e+01
2130000000 -2.183412e-02 -6.662965e+01 -5.949081e+01 -1.290529e+02 -5.915586e+01 -1.192307e+02 3.181510e-02 -6.700851e+01
2140000000 -2.267785e-02 -6.656613e+01 -6.060392e+01 -1.269123e+02 -5.950986e+01 -1.345234e+02 3.435408e-02 -6.670458e+01
2150000000 -2.122414e-02 -6.633822e+01 -6.106172e+01 -1.343638e+02 -5.847127e+01 -1.427713e+02 3.186735e-02 -6.750471e+01
2160000000 -2.794557e-02 -6.760281e+01 -5.934770e+01 -1.396724e+02 -5.918466e+01 -1.326231e+02 3.159804e-02 -6.800980e+01
2170000000 -2.569753e-02 -6.749562e+01 -5.944849e+01 -1.464472e+02 -6.066426e+01 -1.462228e+02 3.017022e-02 -6.773267e+01
2180000000 -1.803059e-02 -6.746293e+01 -5.894432e+01 -1.447160e+02 -5.945850e+01 -1.414353e+02 3.416818e-02 -6.875243e+01
2190000000 -2.323081e-02 -6.836054e+01 -5.998307e+01 -1.525303e+02 -6.063875e+01 -1.528220e+02 3.699993e-02 -6.886988e+01
2200000000 -2.051390e-02 -6.816861e+01 -5.963025e+01 -1.442364e+02 -6.270189e+01 -1.466621e+02 3.289395e-02 -6.874725e+01
2210000000 -2.309618e-02 -6.851736e+01 -5.995643e+01 -1.523029e+02 -6.013271e+01 -1.512790e+02 3.080738e-02 -6.963635e+01
2220000000 -2.956865e-02 -6.947229e+01 -5.887149e+01 -1.500434e+02 -6.184328e+01 -1.449111e+02 3.113685e-02 -6.964728e+01
2230000000 -2.461810e-02 -6.941843e+01 -6.016246e+01 -1.514708e+02 -6.113627e+01 -1.607602e+02 2.976904e-02 -6.988595e+01
2240000000 -1.953947e-02 -6.964362e+01 -6.136642e+01 -1.511770e+02 -6.054158e+01 -1.605197e+02 2.836557e-02 -7.070629e+01
2250000000 -3.134171e-02 -7.016230e+01 -6.100183e+01 -1.569670e+02 -5.980864e+01 -1.508174e+02 3.290972e-02 -7.068138e+01
2260000000 -2.885465e-02 -7.009747e+01 -6.216756e+01 -1.528766e+02 -6.177410e+01 -1.490906e+02 3.053430e-02 -7.080988e+01
2270000000 -3.166803e-02 -7.084250e+01 -6.195902e+01 -1.601113e+02 -6.208654e+01 -1.493474e+02 2.812758e-02 -7.143147e+01
2280000000 -3.461242e-02 -7.101607e+01 -6.242303e+01 -1.425366e+02 -6.262017e+01 -1.612763e+02 2.593658e-02 -7.151580e+01
2290000000 -2.775818e-02 -7.106013e+01 -6.271229e+01 -1.636142e+02 -6.123160e+01 -1.486354e+02 2.750392e-02 -7.217921e+01
2300000000 -2.969433e-02 -7.165581e+01 -6.129654e+01 -1.534023e+02 -6.293676e+01 -1.571428e+02 2.363159e-02 -7.280995e+01
2310000000 -3.549911e-02 -7.178993e+01 -6.074592e+01 -1.585097e+02 -6.500523e+01 -1.476393e+02 2.476968e-02 -7.254711e+01
2320000000 -3.376836e-02 -7.212901e+01 -6.146602e+01 -1.576421e+02 -6.375395e+01 -1.467592e+02 1.766252e-02 -7.330679e+01
2330000000 -2.552222e-02 -7.275336e+01 -6.066882e+01 -1.448656e+02 -6.247589e+01 -1.588228e+02 2.283446e-02 -7.381152e+01
2340000000 -3.219059e-02 -7.291328e+01 -6.120043e+01 -1.574247e+02 -6.109372e+01 -1.634095e+02 2.459541e-02 -7.379543e+01
2350000000 -2.553558e-02 -7.259508e+01 -6.236720e+01 -1.627114e+02 -5.892816e+01 -1.557048e+02 2.282398e-02 -7.437194e+01
2360000000 -3.517016e-02 -7.363178e+01 -6.156655e+01 -1.688209e+02 -6.151955e+01 -1.623968e+02 1.607875e-02 -7.484838e+01
2370000000 -3.810989e-02 -7.397177e+01 -6.331887e+01 -1.448912e+02 -6.291815e+01 -1.597881e+02 2.011855e-02 -7.460851e+01
2380000000 -3.582191e-02 -7.390282e+01 -6.313200e+01 -1.577942e+02 -6.241435e+01 -1.636353e+02 1.132945e-02 -7.570635e+01
2390000000 -2.730615e-02 -7.339472e+01 -6.605041e+01 -1.427793e+02 -6.313499e+01 -1.643096e+02 1.809962e-02 -7.559695e+01
2400000000 -4.565938e-02 -7.487829e+01 -6.346218e+01 -1.406552e+02 -6.422914e+01 -1.588032e+02 1.943763e-02 -7.576187e+01
2410000000 -3.843955e-02 -7.505831e+01 -6.429821e+01 -1.586017e+02 -6.219979e+01 -1.477735e+02 8.203732e-03 -7.665205e+01
2420000000 -4.826411e-02 -7.598775e+01 -6.297967e+01 -1.483689e+02 -6.372787e+01 -1.681985e+02 1.865060e-02 -7.670164e+01
2430000000 -4.449817e-02 -7.581096e+01 -6.476184e+01 -1.563186e+02 -6.500661e+01 -1.447986e+02 1.770647e-02 -7.701582e+01
2440000000 -4.079140e-02 -7.596507e+01 -6.904676e+01 -1.494424e+02 -6.315923e+01 -1.482337e+02 1.511023e-02 -7.785156e+01
2450000000 -4.670550e-02 -7.689074e+01 -6.447785e+01 -1.500549e+02 -6.729284e+01 -1.529818e+02 1.385458e-02 -7.798599e+01
2460000000 -4.428319e-02 -7.675967e+01 -6.875062e+01 -1.513117e+02 -6.505520e+01 -1.421909e+02 1.357080e-02 -7.817460e+01
2470000000 -5.485624e-02 -7.748497e+01 -7.170866e+01 -1.531900e+02 -6.845146e+01 -1.456645e+02 1.052174e-02 -7.874760e+01
2480000000 -5.813833e-02 -7.785696e+01 -6.821597e+01 -1.317567e+02 -7.241072e+01 -1.569185e+02 9.734064e-03 -7.909215e+01
2490000000 -5.358887e-02 -7.823903e+01 -6.654839e+01 -1.025617e+02 -7.172395e+01 -1.408926e+02 6.622799e-03 -7.939877e+01
2500000000 -5.715856e-02 -7.859261e+01 -6.873316e+01 -1.004516e+02 -6.787068e+01 -1.378546e+02 1.022404e-02 -7.983564e+01
2510000000 -6.185544e-02 -7.898801e+01 -7.547630e+01 -8.840693e+01 -7.250298e+01 -1.147648e+02 6.666528e-03 -8.024773e+01
2520000000 -6.622971e-02 -7.933223e+01 -6.957564e+01 -8.993896e+01 -6.632639e+01 -1.049735e+02 1.308410e-03 -8.161095e+01
2530000000 -5.883718e-02 -7.965335e+01 -6.594765e+01 -8.534919e+01 -6.608002e+01 -7.312113e+01 6.682212e-04 -8.245521e+01
2540000000 -6.778383e-02 -8.001856e+01 -6.761007e+01 -6.974216e+01 -6.698401e+01 -5.157399e+01 7.674093e-03 -8.201579e+01
2550000000 -6.507333e-02 -8.040232e+01 -6.499438e+01 -7.120571e+01 -6.537340e+01 -7.781318e+01 7.329945e-03 -8.233073e+01
2560000000 -6.430276e-02 -8.073471e+01 -6.703115e+01 -7.439548e+01 -6.194520e+01 -6.562204e+01 -2.583265e-03 -8.343494e+01
2570000000 -6.132766e-02 -8.107835e+01 -6.297095e+01 -7.671422e+01 -6.477603e+01 -9.214028e+01 6.925132e-04 -8.325043e+01
2580000000 -6.300529e-02 -8.143201e+01 -6.713553e+01 -1.001234e+02 -6.330220e+01 -9.135634e+01 2.777387e-03 -8.392000e+01
2590000000 -6.258347e-02 -8.182451e+01 -6.926318e+01 -7.497319e+01 -6.965034e+01 -9.260471e+01 2.132106e-03 -8.441956e+01
2600000000 -5.943169e-02 -8.217596e+01 -6.589515e+01 -6.666402e+01 -6.801197e+01 -1.041086e+02 8.052832e-03 -8.385397e+01
2610000000 -6.300519e-02 -8.255548e+01 -6.694384e+01 -3.112549e+01 -6.282281e+01 -6.132147e+01 -4.636831e-03 -8.513081e+01
2620000000 -6.495611e-02 -8.295519e+01 -6.583136e+01 -2.035927e+01 -6.538413e+01 -5.275703e+01 -8.795099e-03 -8.593489e+01
