!Agilent Technologies,N5227A,US51270477,A.10.00.00

!File generated by LCAF-GAM-UPV software
!josevmart@iteam.upv.es
!S2P File: Measurements: S11, S21, S12, S22:
# Hz S  dB   R 50
1000000000 8.425488e-03 -2.742362e+01 -8.628430e+01 -5.917774e+00 -7.836929e+01 -1.396791e+02 1.840045e-02 -2.795348e+01
1010000000 1.460984e-02 -2.768772e+01 -7.822257e+01 -7.920838e+00 -8.013062e+01 1.022057e+02 2.015928e-02 -2.805774e+01
1020000000 1.373303e-02 -2.796446e+01 -7.463519e+01 1.068523e+02 -8.514168e+01 -2.297034e+01 2.334345e-02 -2.840974e+01
1030000000 1.359106e-02 -2.824210e+01 -8.797854e+01 9.492117e+01 -8.301682e+01 8.699377e+01 2.066548e-02 -2.862040e+01
1040000000 1.163445e-02 -2.853978e+01 -8.239172e+01 -1.403209e+02 -7.471397e+01 5.985591e+01 2.339787e-02 -2.890684e+01
1050000000 7.868980e-03 -2.880171e+01 -8.411774e+01 5.244336e+00 -8.519884e+01 7.048241e+01 2.263075e-02 -2.885366e+01
1060000000 1.054303e-02 -2.906775e+01 -7.833068e+01 -1.070485e+02 -7.893142e+01 4.154792e+01 2.082738e-02 -2.945998e+01
1070000000 1.099132e-02 -2.936473e+01 -7.728941e+01 4.639231e+01 -8.203659e+01 -6.724265e+01 2.170191e-02 -2.981697e+01
1080000000 7.776397e-03 -2.961094e+01 -7.800758e+01 5.754899e+01 -8.162237e+01 1.641611e+02 2.244696e-02 -3.001787e+01
1090000000 1.119859e-02 -2.987750e+01 -8.958794e+01 -3.850901e+01 -8.296077e+01 1.727759e+02 2.717908e-02 -3.027782e+01
1100000000 7.702952e-03 -3.013081e+01 -8.235684e+01 -1.743602e+02 -8.053866e+01 -1.331543e+02 2.752249e-02 -3.051394e+01
1110000000 1.067480e-02 -3.065961e+01 -7.816541e+01 1.242205e+02 -8.367976e+01 1.236457e+01 2.471377e-02 -3.086350e+01
1120000000 1.143655e-02 -3.084414e+01 -8.878797e+01 -7.911003e+01 -7.757288e+01 -1.418625e+02 1.980837e-02 -3.114600e+01
1130000000 6.097760e-03 -3.118925e+01 -8.494759e+01 3.376713e+01 -7.772222e+01 2.953416e+01 2.158070e-02 -3.141139e+01
1140000000 3.591819e-03 -3.151707e+01 -7.886491e+01 2.113271e+01 -7.291265e+01 -8.890141e+01 2.528166e-02 -3.170888e+01
1150000000 9.271973e-03 -3.172442e+01 -7.391541e+01 -1.045157e+02 -7.953445e+01 -1.492233e+01 2.706453e-02 -3.197491e+01
1160000000 1.093184e-02 -3.202070e+01 -8.868819e+01 1.694644e+02 -8.071707e+01 -9.063762e+01 3.149742e-02 -3.225571e+01
1170000000 1.310790e-02 -3.222843e+01 -7.605208e+01 -5.527705e+01 -7.315409e+01 -8.280348e+01 3.064455e-02 -3.250514e+01
1180000000 8.951403e-03 -3.259423e+01 -7.403530e+01 -1.260821e+02 -8.982314e+01 2.074358e+00 3.077956e-02 -3.279909e+01
1190000000 6.484249e-03 -3.278926e+01 -8.547208e+01 -5.901100e+01 -8.016084e+01 -7.438441e+01 2.644309e-02 -3.307109e+01
1200000000 1.153087e-02 -3.306415e+01 -7.523824e+01 -9.235447e+01 -8.103060e+01 -4.360476e+01 3.297321e-02 -3.333284e+01
1210000000 9.435988e-03 -3.332262e+01 -7.709510e+01 -5.378449e+01 -8.038003e+01 -9.348599e+01 2.834836e-02 -3.360214e+01
1220000000 1.288819e-02 -3.363762e+01 -8.051516e+01 1.152612e+02 -7.836655e+01 1.791777e+02 3.292763e-02 -3.388888e+01
1230000000 1.056991e-02 -3.388440e+01 -8.116264e+01 -8.504128e+01 -8.215685e+01 -1.779995e+02 3.325500e-02 -3.412209e+01
1240000000 6.165121e-03 -3.418676e+01 -8.272123e+01 1.345198e+02 -8.098878e+01 -1.395656e+02 3.121802e-02 -3.439357e+01
1250000000 1.006573e-02 -3.437450e+01 -8.639917e+01 -9.417512e+01 -7.246035e+01 1.435751e+02 3.334706e-02 -3.467312e+01
1260000000 6.000099e-03 -3.471078e+01 -8.304199e+01 -1.785235e+02 -8.176471e+01 -1.032966e+02 2.745405e-02 -3.496905e+01
1270000000 1.116001e-02 -3.495949e+01 -8.134862e+01 1.347531e+02 -9.440682e+01 -1.545543e+01 2.838399e-02 -3.522591e+01
1280000000 1.214244e-02 -3.519218e+01 -9.456480e+01 -1.037823e+02 -7.201448e+01 1.639901e+02 2.742544e-02 -3.550394e+01
1290000000 1.620955e-02 -3.539325e+01 -8.252343e+01 1.364137e+02 -7.919767e+01 -3.736699e+01 3.044098e-02 -3.579975e+01
1300000000 1.837585e-02 -3.577039e+01 -8.083123e+01 -9.139520e+01 -8.496184e+01 1.709910e+02 3.495071e-02 -3.608628e+01
1310000000 8.658838e-03 -3.602154e+01 -7.470517e+01 1.464646e+02 -8.714544e+01 -7.159319e+01 3.267832e-02 -3.634628e+01
1320000000 1.495384e-02 -3.635336e+01 -7.645803e+01 -1.750139e+02 -8.313335e+01 -1.342306e+02 3.496889e-02 -3.662265e+01
1330000000 6.878482e-03 -3.660197e+01 -8.136520e+01 -9.093954e+01 -8.111323e+01 -5.331269e+01 3.334327e-02 -3.690120e+01
1340000000 1.428376e-02 -3.679315e+01 -8.186419e+01 1.658144e+02 -7.845029e+01 -3.490850e+01 3.680976e-02 -3.716934e+01
1350000000 1.122527e-02 -3.714594e+01 -7.896246e+01 -1.359925e+02 -7.847202e+01 1.285448e+02 3.289302e-02 -3.741061e+01
1360000000 1.747274e-02 -3.741972e+01 -8.549559e+01 1.561118e+02 -7.977311e+01 -1.428542e+02 3.962549e-02 -3.770216e+01
1370000000 1.762795e-02 -3.763637e+01 -7.737807e+01 1.600942e+02 -8.253657e+01 -1.513851e+02 3.754503e-02 -3.797812e+01
1380000000 1.892613e-02 -3.792363e+01 -8.427244e+01 -1.560068e+02 -7.489760e+01 -1.050477e+02 4.032123e-02 -3.827284e+01
1390000000 1.797678e-02 -3.819308e+01 -8.069608e+01 -1.013583e+02 -7.991023e+01 6.006399e+00 3.728132e-02 -3.852774e+01
1400000000 1.795910e-02 -3.846420e+01 -7.648948e+01 -8.394282e+01 -8.131608e+01 -1.283025e+02 4.089230e-02 -3.879296e+01
1410000000 1.943970e-02 -3.880289e+01 -8.676475e+01 -4.356461e+01 -8.003683e+01 -1.436450e+02 3.857286e-02 -3.907221e+01
1420000000 1.530844e-02 -3.900387e+01 -9.080896e+01 -1.350648e+02 -7.848361e+01 -1.389696e+02 4.111258e-02 -3.934151e+01
1430000000 1.622097e-02 -3.927057e+01 -7.480048e+01 -1.463676e+02 -7.415971e+01 -1.079007e+02 4.007613e-02 -3.962899e+01
1440000000 1.506321e-02 -3.956650e+01 -8.246117e+01 1.713976e+02 -7.354097e+01 -1.598489e+02 4.219661e-02 -3.993372e+01
1450000000 1.540808e-02 -3.984331e+01 -9.853918e+01 1.258824e+02 -7.676125e+01 1.627910e+02 3.933102e-02 -4.021951e+01
1460000000 1.724794e-02 -4.021343e+01 -7.997242e+01 5.807637e+01 -7.330547e+01 1.531144e+02 3.818369e-02 -4.048510e+01
1470000000 1.881961e-02 -4.036885e+01 -8.125914e+01 -5.716894e+01 -8.145040e+01 1.323249e+02 4.355194e-02 -4.074722e+01
1480000000 1.803811e-02 -4.069785e+01 -7.758437e+01 -1.451468e+02 -7.535156e+01 -1.415898e+02 4.746225e-02 -4.103525e+01
1490000000 2.181984e-02 -4.100346e+01 -7.533276e+01 7.252292e+01 -8.216525e+01 -1.152611e+02 4.278092e-02 -4.128582e+01
1500000000 2.032285e-02 -4.126031e+01 -7.917880e+01 -1.598234e+02 -7.508574e+01 -8.391217e+01 4.378720e-02 -4.156977e+01
1510000000 1.920667e-02 -4.159053e+01 -7.632594e+01 -1.338569e+02 -8.377024e+01 -3.202572e+01 3.938122e-02 -4.184533e+01
1520000000 1.943107e-02 -4.185319e+01 -7.976202e+01 1.405154e+02 -7.082903e+01 -6.396147e+01 4.395007e-02 -4.215300e+01
1530000000 1.670257e-02 -4.214738e+01 -7.564435e+01 -1.104411e+02 -7.493913e+01 -1.523480e+02 3.866698e-02 -4.243604e+01
1540000000 1.913474e-02 -4.246137e+01 -9.258184e+01 1.458876e+02 -7.949988e+01 -9.259043e+01 4.504791e-02 -4.275512e+01
1550000000 2.530385e-02 -4.276508e+01 -7.577267e+01 -6.561623e+01 -8.468816e+01 -1.167176e+02 4.482182e-02 -4.301293e+01
1560000000 2.256314e-02 -4.294833e+01 -8.129181e+01 1.871156e+01 -8.448329e+01 4.812039e+01 4.490698e-02 -4.323120e+01
1570000000 2.386709e-02 -4.317215e+01 -8.688049e+01 -1.573379e+02 -7.231226e+01 -1.249287e+02 4.024797e-02 -4.351955e+01
1580000000 1.874870e-02 -4.349110e+01 -1.116884e+02 -1.615747e+02 -7.616518e+01 -1.079768e+02 4.117168e-02 -4.379617e+01
1590000000 1.665127e-02 -4.375356e+01 -7.662620e+01 -1.089533e+02 -8.659019e+01 3.193410e+01 4.417104e-02 -4.408976e+01
1600000000 1.450843e-02 -4.406861e+01 -7.009251e+01 -1.091592e+02 -7.436874e+01 -1.255041e+02 4.981981e-02 -4.436917e+01
1610000000 2.433434e-02 -4.428728e+01 -7.529029e+01 -1.028531e+02 -7.324902e+01 -6.945594e+01 4.402218e-02 -4.490973e+01
1620000000 1.750640e-02 -4.463839e+01 -6.831074e+01 -1.009519e+02 -7.932649e+01 -1.277892e+02 4.705453e-02 -4.504190e+01
1630000000 1.895144e-02 -4.491192e+01 -7.006340e+01 -1.278686e+02 -7.242883e+01 -1.543156e+02 4.895954e-02 -4.539079e+01
1640000000 1.849142e-02 -4.516515e+01 -6.936042e+01 -1.577629e+02 -7.287566e+01 -1.475670e+02 5.121582e-02 -4.569165e+01
1650000000 2.029289e-02 -4.544576e+01 -7.335723e+01 -1.400946e+02 -7.314526e+01 1.736834e+02 5.045439e-02 -4.582097e+01
1660000000 1.823801e-02 -4.600494e+01 -6.989619e+01 -1.783635e+02 -7.419032e+01 -1.410063e+02 4.664866e-02 -4.627031e+01
1670000000 1.901192e-02 -4.625870e+01 -7.370470e+01 -1.510634e+02 -7.475864e+01 1.780771e+02 4.848709e-02 -4.642706e+01
1680000000 2.426832e-02 -4.662401e+01 -7.215512e+01 -1.565145e+02 -7.722871e+01 -1.556887e+02 5.237080e-02 -4.680132e+01
1690000000 1.663179e-02 -4.682436e+01 -7.550352e+01 1.480365e+02 -6.940546e+01 -1.661120e+02 5.207973e-02 -4.698692e+01
1700000000 2.456267e-02 -4.711057e+01 -7.946629e+01 -1.260242e+02 -7.414095e+01 1.762208e+02 5.434758e-02 -4.716418e+01
1710000000 2.423143e-02 -4.745749e+01 -7.820593e+01 -1.088914e+02 -8.431344e+01 -1.296042e+02 5.410916e-02 -4.754352e+01
1720000000 1.955499e-02 -4.764938e+01 -7.428503e+01 -1.714955e+02 -7.123907e+01 -1.533736e+02 5.422151e-02 -4.783475e+01
1730000000 2.099665e-02 -4.779708e+01 -7.197501e+01 -1.587634e+02 -7.784174e+01 -1.078513e+02 4.818813e-02 -4.804972e+01
1740000000 2.099507e-02 -4.818155e+01 -7.313247e+01 -1.352996e+02 -7.583241e+01 -1.236295e+02 4.976251e-02 -4.842139e+01
1750000000 2.078688e-02 -4.848186e+01 -7.214101e+01 -1.212876e+02 -7.576849e+01 -1.237079e+02 5.081319e-02 -4.869185e+01
1760000000 2.331304e-02 -4.868745e+01 -7.594402e+01 -1.009878e+02 -7.206909e+01 -1.404413e+02 5.545578e-02 -4.893145e+01
1770000000 2.491239e-02 -4.897832e+01 -7.244541e+01 -9.052850e+01 -7.887821e+01 -1.378474e+02 5.064531e-02 -4.924920e+01
1780000000 2.531635e-02 -4.932012e+01 -7.390844e+01 -1.612701e+02 -7.278758e+01 -1.347013e+02 5.493908e-02 -4.953202e+01
1790000000 2.771939e-02 -4.932065e+01 -7.130759e+01 -1.270880e+02 -7.380686e+01 -1.640658e+02 5.717652e-02 -4.965017e+01
1800000000 2.780862e-02 -4.969758e+01 -7.132290e+01 -1.222616e+02 -7.390726e+01 -1.098858e+02 5.478878e-02 -5.010468e+01
1810000000 2.186325e-02 -5.004979e+01 -7.281760e+01 -1.626364e+02 -7.462409e+01 -1.671328e+02 5.720595e-02 -5.032993e+01
1820000000 2.566619e-02 -5.029768e+01 -7.504892e+01 -1.739043e+02 -7.367510e+01 -1.376546e+02 5.408680e-02 -5.062714e+01
1830000000 2.414590e-02 -5.064951e+01 -6.889836e+01 -1.235882e+02 -6.984855e+01 -1.703186e+02 5.364743e-02 -5.091653e+01
1840000000 3.131156e-02 -5.076025e+01 -7.023639e+01 -1.613773e+02 -7.350622e+01 -1.467706e+02 5.854675e-02 -5.123619e+01
1850000000 2.649479e-02 -5.110014e+01 -7.364696e+01 -1.355179e+02 -7.554128e+01 -1.326696e+02 5.486916e-02 -5.162215e+01
1860000000 2.608007e-02 -5.134010e+01 -7.294830e+01 -1.272369e+02 -7.054871e+01 -1.402035e+02 5.718885e-02 -5.178266e+01
1870000000 2.455384e-02 -5.163057e+01 -7.308582e+01 -1.127680e+02 -8.266597e+01 -1.757662e+02 5.906395e-02 -5.217794e+01
1880000000 2.737673e-02 -5.187596e+01 -7.106406e+01 -1.422092e+02 -7.096069e+01 1.663701e+02 5.784705e-02 -5.244714e+01
1890000000 2.895104e-02 -5.221797e+01 -7.029820e+01 -1.362837e+02 -6.764999e+01 -1.165995e+02 5.804570e-02 -5.275139e+01
1900000000 2.864637e-02 -5.241484e+01 -7.483086e+01 -1.218790e+02 -7.160886e+01 -1.102840e+02 6.201907e-02 -5.298537e+01
1910000000 2.594079e-02 -5.275335e+01 -7.215179e+01 -1.081418e+02 -7.081591e+01 -1.456755e+02 6.271476e-02 -5.332541e+01
1920000000 2.921049e-02 -5.307621e+01 -7.169846e+01 -1.285589e+02 -6.809106e+01 -1.388108e+02 6.422278e-02 -5.358613e+01
1930000000 2.595295e-02 -5.331639e+01 -7.113648e+01 -1.410609e+02 -6.823897e+01 -1.503344e+02 6.193767e-02 -5.390621e+01
1940000000 2.875159e-02 -5.360274e+01 -7.105705e+01 -1.567981e+02 -7.434470e+01 -1.506704e+02 5.933700e-02 -5.420754e+01
1950000000 2.630207e-02 -5.382074e+01 -7.015079e+01 -1.323332e+02 -7.127708e+01 -1.310273e+02 6.154965e-02 -5.450390e+01
1960000000 3.025559e-02 -5.407761e+01 -6.806580e+01 -1.441061e+02 -6.844863e+01 -1.433448e+02 6.603205e-02 -5.478576e+01
1970000000 2.457297e-02 -5.438950e+01 -7.532526e+01 -1.213006e+02 -7.545602e+01 -1.035960e+02 6.420425e-02 -5.510333e+01
1980000000 2.334398e-02 -5.465565e+01 -7.094682e+01 -1.242357e+02 -7.996905e+01 -1.722871e+02 6.920193e-02 -5.535965e+01
1990000000 2.829419e-02 -5.494069e+01 -7.079773e+01 -1.400454e+02 -7.591004e+01 -1.314218e+02 6.244807e-02 -5.577458e+01
2000000000 2.806933e-02 -5.537728e+01 -6.841870e+01 -1.267116e+02 -7.783150e+01 -1.474508e+02 6.043126e-02 -5.591117e+01
2010000000 2.729918e-02 -5.554738e+01 -7.065714e+01 -1.127455e+02 -7.075935e+01 -1.174712e+02 6.416515e-02 -5.605903e+01
2020000000 2.319206e-02 -5.565012e+01 -7.246329e+01 -1.331372e+02 -7.316747e+01 -1.116280e+02 6.703758e-02 -5.661453e+01
2030000000 2.361388e-02 -5.617656e+01 -7.226656e+01 -1.419316e+02 -7.177306e+01 -1.398132e+02 6.484090e-02 -5.674083e+01
2040000000 2.782024e-02 -5.629696e+01 -6.699937e+01 -1.328963e+02 -7.528065e+01 -6.626859e+01 6.767514e-02 -5.696858e+01
2050000000 2.645243e-02 -5.651349e+01 -6.982063e+01 -1.205344e+02 -6.776698e+01 -1.423817e+02 6.397039e-02 -5.726286e+01
2060000000 2.209661e-02 -5.691071e+01 -7.446819e+01 -9.188050e+01 -7.340687e+01 -1.235036e+02 6.661388e-02 -5.757441e+01
2070000000 2.426910e-02 -5.714347e+01 -7.438393e+01 -1.354872e+02 -7.675860e+01 -1.308883e+02 6.550294e-02 -5.789150e+01
2080000000 2.599863e-02 -5.744579e+01 -7.649690e+01 -5.815585e+01 -7.397876e+01 -8.271952e+01 6.372940e-02 -5.823448e+01
2090000000 2.743176e-02 -5.771930e+01 -7.458355e+01 -6.541358e+01 -6.984254e+01 -6.840654e+01 6.459275e-02 -5.848351e+01
2100000000 2.697063e-02 -5.799390e+01 -6.689735e+01 -8.775285e+01 -6.909244e+01 -8.681406e+01 6.960118e-02 -5.878736e+01
2110000000 2.911748e-02 -5.825412e+01 -6.684857e+01 -9.423573e+01 -6.564287e+01 -1.041859e+02 6.216294e-02 -5.956612e+01
2120000000 2.263053e-02 -5.850955e+01 -6.342684e+01 -1.043629e+02 -6.593157e+01 -1.087512e+02 6.967898e-02 -5.969230e+01
2130000000 2.891648e-02 -5.881201e+01 -6.419460e+01 -1.173398e+02 -6.286738e+01 -1.185116e+02 6.648172e-02 -5.998929e+01
2140000000 2.534023e-02 -5.907888e+01 -6.363110e+01 -1.218800e+02 -6.248312e+01 -1.321803e+02 6.717191e-02 -6.036505e+01
2150000000 2.582059e-02 -5.934400e+01 -6.360863e+01 -1.241779e+02 -6.249364e+01 -1.268697e+02 6.909611e-02 -6.040917e+01
2160000000 2.794148e-02 -5.963453e+01 -6.415405e+01 -1.220251e+02 -6.496031e+01 -1.153324e+02 6.767929e-02 -6.084501e+01
2170000000 2.914032e-02 -5.989434e+01 -6.494742e+01 -1.385323e+02 -6.481768e+01 -1.403530e+02 6.374928e-02 -6.139360e+01
2180000000 2.779858e-02 -6.016271e+01 -6.505376e+01 -1.279594e+02 -6.430502e+01 -1.341692e+02 7.129984e-02 -6.141458e+01
2190000000 2.979309e-02 -6.047631e+01 -6.493905e+01 -1.447961e+02 -6.284549e+01 -1.473212e+02 6.948494e-02 -6.171914e+01
2200000000 2.928205e-02 -6.069885e+01 -6.327406e+01 -1.416082e+02 -6.357073e+01 -1.480706e+02 6.373493e-02 -6.215065e+01
2210000000 2.891582e-02 -6.097338e+01 -6.202389e+01 -1.292786e+02 -6.384399e+01 -1.391331e+02 6.802028e-02 -6.218459e+01
2220000000 2.944336e-02 -6.127183e+01 -6.348663e+01 -1.448967e+02 -6.384508e+01 -1.444206e+02 6.496449e-02 -6.265435e+01
2230000000 3.058194e-02 -6.155604e+01 -6.282156e+01 -1.527361e+02 -6.377761e+01 -1.438474e+02 6.687516e-02 -6.300792e+01
2240000000 3.516896e-02 -6.179565e+01 -6.387732e+01 -1.453006e+02 -6.393177e+01 -1.386114e+02 7.233556e-02 -6.312568e+01
2250000000 3.047419e-02 -6.207820e+01 -6.381712e+01 -1.408688e+02 -6.241497e+01 -1.522942e+02 7.348736e-02 -6.337429e+01
2260000000 2.490074e-02 -6.237387e+01 -6.399788e+01 -1.420285e+02 -6.507971e+01 -1.619247e+02 6.356199e-02 -6.407674e+01
2270000000 3.063114e-02 -6.267041e+01 -6.417435e+01 -1.450729e+02 -6.721348e+01 -1.292910e+02 6.918666e-02 -6.363478e+01
2280000000 2.606549e-02 -6.294481e+01 -6.452345e+01 -1.439740e+02 -6.223732e+01 -1.345740e+02 7.039060e-02 -6.414789e+01
2290000000 2.995683e-02 -6.322238e+01 -6.734237e+01 -1.459016e+02 -6.383801e+01 -1.433960e+02 6.905502e-02 -6.468095e+01
2300000000 2.735088e-02 -6.350113e+01 -6.476660e+01 -1.311788e+02 -6.402683e+01 -1.324874e+02 7.116783e-02 -6.482655e+01
2310000000 2.409354e-02 -6.374413e+01 -6.385957e+01 -1.468784e+02 -6.361829e+01 -1.575354e+02 6.819338e-02 -6.514048e+01
2320000000 2.961321e-02 -6.409817e+01 -6.377918e+01 -1.400723e+02 -6.217210e+01 -1.534865e+02 6.335932e-02 -6.541884e+01
2330000000 3.590338e-02 -6.433310e+01 -6.302332e+01 -1.543049e+02 -6.353059e+01 -1.633307e+02 6.955560e-02 -6.569112e+01
2340000000 3.529820e-02 -6.459589e+01 -6.578783e+01 -1.548698e+02 -6.409444e+01 -1.593649e+02 6.973818e-02 -6.625082e+01
2350000000 3.419784e-02 -6.489208e+01 -6.440395e+01 -1.404228e+02 -6.401904e+01 -1.431048e+02 6.790437e-02 -6.627170e+01
2360000000 3.156035e-02 -6.517050e+01 -6.451946e+01 -1.586649e+02 -6.279020e+01 -1.548592e+02 7.003289e-02 -6.634089e+01
2370000000 3.273989e-02 -6.546401e+01 -6.562825e+01 -1.488780e+02 -6.427151e+01 -1.506083e+02 6.344653e-02 -6.698563e+01
2380000000 2.771921e-02 -6.575127e+01 -6.348844e+01 -1.548992e+02 -6.277064e+01 -1.280500e+02 6.180090e-02 -6.715199e+01
2390000000 2.928492e-02 -6.606625e+01 -6.454901e+01 -1.491448e+02 -6.418974e+01 -1.492604e+02 6.623464e-02 -6.730840e+01
2400000000 2.993387e-02 -6.633529e+01 -6.566500e+01 -1.638684e+02 -6.351190e+01 -1.595112e+02 6.593554e-02 -6.788702e+01
2410000000 2.885662e-02 -6.664826e+01 -6.311284e+01 -1.435966e+02 -6.436123e+01 -1.600822e+02 6.192167e-02 -6.808257e+01
2420000000 3.043921e-02 -6.694725e+01 -6.523507e+01 -1.468858e+02 -6.446463e+01 -1.536252e+02 7.302283e-02 -6.827306e+01
2430000000 2.928213e-02 -6.717818e+01 -6.411821e+01 -1.545997e+02 -6.295603e+01 -1.600068e+02 6.658754e-02 -6.887347e+01
2440000000 2.793567e-02 -6.749952e+01 -6.344684e+01 -1.629257e+02 -6.225227e+01 -1.575704e+02 6.940978e-02 -6.890331e+01
2450000000 3.202301e-02 -6.778436e+01 -6.270388e+01 -1.650869e+02 -6.566986e+01 -1.752581e+02 6.903408e-02 -6.908717e+01
2460000000 2.924018e-02 -6.808240e+01 -6.507533e+01 -1.450194e+02 -6.171997e+01 -1.642919e+02 6.828072e-02 -6.974080e+01
2470000000 2.163430e-02 -6.834188e+01 -6.367956e+01 -1.518308e+02 -6.261530e+01 -1.593038e+02 7.339170e-02 -6.969859e+01
2480000000 2.326107e-02 -6.861957e+01 -6.572978e+01 -1.519186e+02 -6.490334e+01 -1.564238e+02 7.128077e-02 -7.000089e+01
2490000000 2.702209e-02 -6.895337e+01 -6.697212e+01 -1.427913e+02 -6.535296e+01 -1.275937e+02 6.920981e-02 -7.025075e+01
2500000000 2.387473e-02 -6.921589e+01 -6.375561e+01 -1.521596e+02 -6.386804e+01 -1.552707e+02 7.382674e-02 -7.055008e+01
2510000000 1.771729e-02 -6.954378e+01 -6.319493e+01 -1.416449e+02 -6.377590e+01 -1.629542e+02 6.990739e-02 -7.092142e+01
2520000000 1.472218e-02 -6.985250e+01 -6.492599e+01 -1.471462e+02 -6.526062e+01 -1.495558e+02 7.365872e-02 -7.133839e+01
2530000000 2.422652e-02 -7.009999e+01 -6.853457e+01 -1.564533e+02 -6.446839e+01 -1.393060e+02 7.902762e-02 -7.130560e+01
2540000000 2.092187e-02 -7.039488e+01 -6.258365e+01 -1.302953e+02 -6.301128e+01 -1.421151e+02 8.001235e-02 -7.178724e+01
2550000000 2.507940e-02 -7.067992e+01 -6.427258e+01 -1.287642e+02 -6.393447e+01 -1.323435e+02 7.775749e-02 -7.222249e+01
2560000000 2.660427e-02 -7.096239e+01 -6.187406e+01 -1.271129e+02 -6.335869e+01 -1.412835e+02 8.277483e-02 -7.220820e+01
2570000000 3.302608e-02 -7.122778e+01 -6.072096e+01 -1.341907e+02 -6.179774e+01 -1.401270e+02 8.338316e-02 -7.184933e+01
2580000000 3.161589e-02 -7.155125e+01 -6.023145e+01 -1.426116e+02 -6.094199e+01 -1.416570e+02 7.883117e-02 -7.331656e+01
2590000000 3.406562e-02 -7.187390e+01 -6.010584e+01 -1.337641e+02 -5.985905e+01 -1.487109e+02 9.153313e-02 -7.312322e+01
2600000000 3.727107e-02 -7.213806e+01 -6.322108e+01 -1.410361e+02 -6.047022e+01 -1.408563e+02 8.364393e-02 -7.383295e+01
2610000000 3.176422e-02 -7.247264e+01 -6.161769e+01 -1.416650e+02 -6.389248e+01 -1.513772e+02 8.341151e-02 -7.394345e+01
2620000000 3.260999e-02 -7.277551e+01 -6.100724e+01 -1.538876e+02 -6.268103e+01 -1.517069e+02 8.422816e-02 -7.396735e+01
2630000000 3.541904e-02 -7.310514e+01 -6.295556e+01 -1.426188e+02 -6.092541e+01 -1.304079e+02 8.638047e-02 -7.461555e+01
