!Agilent Technologies,N5227A,US51270477,A.10.00.00

!File generated by LCAF-GAM-UPV software
!josevmart@iteam.upv.es
!S2P File: Measurements: S11, S21, S12, S22:
# Hz S  dB   R 50
1000000000 4.904895e-03 -2.910506e+01 -8.104106e+01 1.063875e+02 -7.818949e+01 6.613379e+01 2.194843e-02 -2.919268e+01
1010000000 1.004392e-02 -2.931157e+01 -7.469787e+01 -4.848064e+01 -8.080925e+01 5.649250e+01 1.803461e-02 -2.950419e+01
1020000000 4.566815e-03 -2.964944e+01 -8.660769e+01 -2.046218e+01 -9.192999e+01 3.472411e+01 2.015504e-02 -3.001968e+01
1030000000 1.008965e-02 -2.996873e+01 -8.058532e+01 6.325431e+01 -7.841998e+01 -6.574123e+01 2.059230e-02 -3.028618e+01
1040000000 4.898387e-03 -3.030257e+01 -8.334019e+01 3.598204e+01 -7.681834e+01 -4.094306e+01 2.491426e-02 -3.057816e+01
1050000000 -2.548570e-04 -3.053948e+01 -8.234641e+01 1.335709e+02 -8.033424e+01 -1.729204e+02 2.203947e-02 -3.086156e+01
1060000000 5.442237e-03 -3.079929e+01 -8.255289e+01 8.179785e+00 -7.436480e+01 1.419393e+02 1.547685e-02 -3.126147e+01
1070000000 6.621192e-03 -3.110412e+01 -7.792572e+01 -5.775595e+01 -7.543280e+01 -1.685402e+02 2.214824e-02 -3.146999e+01
1080000000 4.911399e-03 -3.163803e+01 -8.038982e+01 -2.687256e+01 -7.844392e+01 1.648935e+02 2.076007e-02 -3.179032e+01
1090000000 7.822223e-03 -3.174615e+01 -8.414754e+01 -1.705332e+02 -8.637985e+01 -6.416090e+01 2.381544e-02 -3.210295e+01
1100000000 1.080577e-03 -3.215321e+01 -8.050423e+01 1.496128e+02 -8.167023e+01 1.465659e+02 2.618241e-02 -3.234029e+01
1110000000 7.174970e-03 -3.259131e+01 -8.025035e+01 -1.507590e+02 -8.585522e+01 -3.970583e+01 2.638687e-02 -3.265420e+01
1120000000 6.659850e-03 -3.267322e+01 -8.019559e+01 -1.672666e+02 -1.044950e+02 1.669827e+02 2.219391e-02 -3.300491e+01
1130000000 7.313908e-04 -3.309906e+01 -8.662375e+01 -3.603899e+01 -7.817536e+01 -1.284878e+01 1.939599e-02 -3.316622e+01
1140000000 1.119780e-03 -3.337160e+01 -8.510279e+01 -1.672343e+02 -8.541222e+01 5.965404e-01 2.295376e-02 -3.356359e+01
1150000000 2.882057e-03 -3.358365e+01 -7.986714e+01 -3.007021e+01 -7.302015e+01 -1.233128e+02 2.753966e-02 -3.382459e+01
1160000000 5.121549e-03 -3.395825e+01 -7.214235e+01 -1.567179e+02 -8.064272e+01 -4.286149e+01 2.662038e-02 -3.411186e+01
1170000000 1.911375e-03 -3.425446e+01 -7.507342e+01 -1.046973e+02 -7.827806e+01 -1.321751e+02 2.883413e-02 -3.436770e+01
1180000000 7.266514e-03 -3.436584e+01 -7.908430e+01 -1.481113e+02 -8.331719e+01 -1.335562e+02 2.714753e-02 -3.463943e+01
1190000000 4.595561e-03 -3.468250e+01 -7.434959e+01 -1.136395e+02 -7.105908e+01 -5.328329e+01 2.574268e-02 -3.491170e+01
1200000000 2.516101e-03 -3.519719e+01 -8.401586e+01 -9.366949e+01 -7.241454e+01 1.783280e+02 2.935618e-02 -3.520733e+01
1210000000 6.933294e-03 -3.515950e+01 -7.652546e+01 -1.361124e+02 -7.608025e+01 -1.457236e+02 2.913501e-02 -3.597306e+01
1220000000 5.805126e-03 -3.572948e+01 -7.599950e+01 -1.589089e+02 -8.851813e+01 -1.593523e+02 2.770680e-02 -3.578418e+01
1230000000 9.130104e-03 -3.585921e+01 -7.456487e+01 -1.513393e+02 -7.150859e+01 -1.676337e+02 2.855093e-02 -3.609273e+01
1240000000 3.450339e-03 -3.624045e+01 -7.219897e+01 -1.609216e+02 -8.072343e+01 -1.521864e+02 2.886077e-02 -3.640720e+01
1250000000 9.971259e-03 -3.645507e+01 -8.902679e+01 -1.118034e+02 -7.051026e+01 -1.123488e+02 3.124448e-02 -3.665549e+01
1260000000 7.052615e-03 -3.667696e+01 -7.846046e+01 1.574682e+02 -9.366740e+01 -1.283025e+02 2.460453e-02 -3.695872e+01
1270000000 9.042265e-03 -3.711275e+01 -9.552341e+01 -2.772875e+00 -8.164735e+01 9.603236e+01 2.710419e-02 -3.725137e+01
1280000000 5.872471e-03 -3.728941e+01 -7.840997e+01 1.716543e+02 -7.654631e+01 1.380081e+02 2.791536e-02 -3.756191e+01
1290000000 9.012458e-03 -3.763266e+01 -8.495939e+01 1.541354e+02 -8.503522e+01 -4.455365e+01 2.788403e-02 -3.791980e+01
1300000000 1.293539e-02 -3.798130e+01 -8.982530e+01 -6.814836e+01 -7.303373e+01 -1.072686e+02 3.419973e-02 -3.803238e+01
1310000000 7.796094e-03 -3.816998e+01 -7.412914e+01 -1.300764e+02 -7.050082e+01 -9.447706e+01 2.637310e-02 -3.834023e+01
1320000000 9.333314e-03 -3.846709e+01 -7.458075e+01 -1.436296e+02 -7.422155e+01 -1.246833e+02 3.614502e-02 -3.872531e+01
1330000000 4.680845e-03 -3.887162e+01 -7.671184e+01 -1.306845e+02 -7.780577e+01 -1.251875e+02 2.861287e-02 -3.899454e+01
1340000000 9.631081e-03 -3.902547e+01 -7.846233e+01 -1.550189e+02 -7.324930e+01 -1.279826e+02 3.001991e-02 -3.926946e+01
1350000000 5.114286e-03 -3.938746e+01 -7.723666e+01 -1.775499e+02 -7.821861e+01 -1.404514e+02 2.940023e-02 -3.952938e+01
1360000000 9.313606e-03 -3.968802e+01 -7.815413e+01 -1.057860e+02 -7.519125e+01 1.238922e+02 3.634273e-02 -3.986180e+01
1370000000 4.049732e-03 -3.991630e+01 -7.213824e+01 -1.265656e+02 -7.831820e+01 -1.357036e+02 3.557108e-02 -4.013388e+01
1380000000 8.131503e-03 -4.020185e+01 -7.135111e+01 -1.380021e+02 -7.763870e+01 -1.377696e+02 3.669007e-02 -4.046690e+01
1390000000 1.113646e-02 -4.046166e+01 -7.465221e+01 -1.583854e+02 -7.722581e+01 -1.305018e+02 3.589560e-02 -4.076321e+01
1400000000 1.149532e-02 -4.074437e+01 -8.022170e+01 -1.328442e+02 -7.571602e+01 -7.250174e+01 3.510151e-02 -4.101133e+01
1410000000 9.804497e-03 -4.114291e+01 -7.566415e+01 -1.311250e+02 -8.023295e+01 -1.479173e+02 3.691171e-02 -4.135545e+01
1420000000 9.037116e-03 -4.137124e+01 -7.382319e+01 -1.068926e+02 -7.557661e+01 -1.537770e+02 3.716138e-02 -4.168525e+01
1430000000 8.943115e-03 -4.166753e+01 -7.760535e+01 -1.360392e+02 -7.499380e+01 -1.451384e+02 3.821118e-02 -4.198506e+01
1440000000 1.330812e-02 -4.203565e+01 -8.019614e+01 -1.638961e+02 -7.516804e+01 -1.445591e+02 4.042390e-02 -4.223341e+01
1450000000 1.207585e-02 -4.227235e+01 -7.432755e+01 -1.513383e+02 -7.708218e+01 1.462032e+02 3.492808e-02 -4.264753e+01
1460000000 1.174944e-02 -4.221428e+01 -7.370273e+01 -1.537729e+02 -7.256392e+01 1.729652e+02 3.135095e-02 -4.294041e+01
1470000000 1.170072e-02 -4.283216e+01 -7.029971e+01 -1.716716e+02 -7.270038e+01 -1.376956e+02 4.062486e-02 -4.315559e+01
1480000000 1.607556e-02 -4.323721e+01 -7.708882e+01 -1.067313e+02 -8.056402e+01 -9.233987e+01 4.182828e-02 -4.359566e+01
1490000000 1.107816e-02 -4.339632e+01 -7.452003e+01 -1.588330e+02 -7.158638e+01 -1.300446e+02 3.852276e-02 -4.373888e+01
1500000000 1.315210e-02 -4.376643e+01 -7.203212e+01 -1.201657e+02 -7.089001e+01 -1.125738e+02 3.836307e-02 -4.404844e+01
1510000000 8.877165e-03 -4.413385e+01 -7.189249e+01 1.715668e+02 -7.248752e+01 -1.118595e+02 3.596047e-02 -4.443062e+01
1520000000 1.312896e-02 -4.431446e+01 -7.495358e+01 -1.707250e+02 -7.937058e+01 -1.471451e+02 3.645782e-02 -4.471601e+01
1530000000 8.875870e-03 -4.458590e+01 -7.225039e+01 -1.496540e+02 -7.857871e+01 -1.530068e+02 3.660038e-02 -4.508743e+01
1540000000 1.190748e-02 -4.487624e+01 -7.568445e+01 -1.197502e+02 -8.014094e+01 -9.993584e+01 3.982210e-02 -4.537994e+01
1550000000 1.375724e-02 -4.517255e+01 -7.643060e+01 -1.305258e+02 -7.206639e+01 -1.110580e+02 3.610529e-02 -4.568278e+01
1560000000 1.325678e-02 -4.545781e+01 -7.579906e+01 -1.053173e+02 -7.354523e+01 -8.010812e+01 3.828013e-02 -4.595510e+01
1570000000 1.136455e-02 -4.573943e+01 -7.325069e+01 -1.412967e+02 -7.306534e+01 -9.409863e+01 3.547847e-02 -4.675808e+01
1580000000 7.970448e-03 -4.602211e+01 -7.257083e+01 -1.184594e+02 -7.334319e+01 -1.507029e+02 3.954396e-02 -4.700064e+01
1590000000 6.954562e-03 -4.633550e+01 -7.016624e+01 -1.169973e+02 -7.464249e+01 -9.915604e+01 3.823822e-02 -4.739741e+01
1600000000 9.343757e-03 -4.661147e+01 -6.872112e+01 -1.398739e+02 -6.846063e+01 -9.784135e+01 4.371874e-02 -4.758190e+01
1610000000 1.296237e-02 -4.686870e+01 -6.939012e+01 -8.538436e+01 -6.713326e+01 -1.263569e+02 3.528715e-02 -4.771324e+01
1620000000 7.193641e-03 -4.715631e+01 -6.843552e+01 -1.155133e+02 -6.729639e+01 -1.349399e+02 3.904501e-02 -4.840800e+01
1630000000 1.083775e-02 -4.745097e+01 -6.699873e+01 -1.429238e+02 -6.817090e+01 -1.381197e+02 4.267989e-02 -4.835612e+01
1640000000 7.478117e-03 -4.769490e+01 -6.825272e+01 -1.573445e+02 -7.068018e+01 -1.531382e+02 4.547648e-02 -4.877156e+01
1650000000 9.840507e-03 -4.798419e+01 -6.710466e+01 -1.668024e+02 -6.745281e+01 -1.578602e+02 4.220443e-02 -4.920855e+01
1660000000 8.153487e-03 -4.825515e+01 -6.765028e+01 -1.612590e+02 -6.948643e+01 -1.727436e+02 3.987573e-02 -4.925076e+01
1670000000 1.253994e-02 -4.855976e+01 -7.145457e+01 -1.462792e+02 -6.966335e+01 -1.498991e+02 4.002174e-02 -4.976952e+01
1680000000 1.688292e-02 -4.884917e+01 -7.322689e+01 -1.361768e+02 -7.184759e+01 -1.457167e+02 4.517806e-02 -5.015779e+01
1690000000 1.145103e-02 -4.916331e+01 -7.495700e+01 1.744096e+02 -7.265211e+01 -1.130459e+02 4.739692e-02 -5.006750e+01
1700000000 1.193454e-02 -4.941341e+01 -7.293479e+01 -1.501891e+02 -7.131820e+01 -1.183467e+02 4.547310e-02 -5.047087e+01
1710000000 1.237849e-02 -4.971586e+01 -7.022027e+01 -1.400747e+02 -7.197003e+01 -1.197471e+02 4.696408e-02 -5.078725e+01
1720000000 9.354274e-03 -5.003306e+01 -6.825342e+01 -1.306801e+02 -6.982625e+01 -1.368153e+02 4.645109e-02 -5.120141e+01
1730000000 1.196927e-02 -5.032140e+01 -7.047932e+01 -1.574269e+02 -7.113850e+01 -1.557727e+02 3.916706e-02 -5.133605e+01
1740000000 1.033571e-02 -5.063264e+01 -7.165340e+01 -1.669801e+02 -7.044090e+01 -1.426991e+02 4.185922e-02 -5.159355e+01
1750000000 1.271463e-02 -5.089290e+01 -7.235484e+01 -1.330332e+02 -7.371326e+01 -1.273123e+02 4.245830e-02 -5.193468e+01
1760000000 1.086030e-02 -5.119133e+01 -7.127016e+01 -1.457782e+02 -6.913377e+01 -1.100114e+02 4.781220e-02 -5.233512e+01
1770000000 1.628814e-02 -5.143332e+01 -6.892107e+01 -1.446571e+02 -6.855346e+01 -1.456376e+02 4.061121e-02 -5.249979e+01
1780000000 1.271573e-02 -5.175965e+01 -6.749220e+01 -1.325733e+02 -7.107433e+01 -1.499922e+02 4.785122e-02 -5.275145e+01
1790000000 1.563429e-02 -5.206838e+01 -6.803549e+01 -1.561474e+02 -7.054929e+01 -1.192332e+02 4.804396e-02 -5.308280e+01
1800000000 1.240433e-02 -5.233796e+01 -6.769604e+01 -1.300813e+02 -6.938701e+01 -1.375549e+02 4.433089e-02 -5.347263e+01
1810000000 1.040228e-02 -5.260176e+01 -6.945400e+01 -1.414987e+02 -6.760222e+01 -1.515126e+02 4.657932e-02 -5.376196e+01
1820000000 1.326255e-02 -5.290907e+01 -7.592201e+01 -1.691750e+02 -6.921552e+01 -1.453578e+02 4.586108e-02 -5.398917e+01
1830000000 1.394399e-02 -5.322434e+01 -6.660181e+01 -1.328838e+02 -6.950324e+01 -1.463085e+02 4.599905e-02 -5.420555e+01
1840000000 1.743445e-02 -5.349542e+01 -6.789390e+01 -1.270194e+02 -6.970603e+01 -1.449053e+02 4.869172e-02 -5.456123e+01
1850000000 1.371870e-02 -5.379265e+01 -7.432850e+01 -1.473088e+02 -6.369088e+01 -1.497176e+02 4.333513e-02 -5.478927e+01
1860000000 1.263415e-02 -5.410527e+01 -6.730465e+01 -1.250299e+02 -6.759716e+01 -1.354124e+02 4.633024e-02 -5.512663e+01
1870000000 1.125229e-02 -5.440750e+01 -6.964928e+01 -1.591425e+02 -6.767180e+01 -1.361406e+02 4.809733e-02 -5.547762e+01
1880000000 1.504324e-02 -5.470184e+01 -6.993066e+01 -1.388794e+02 -6.768526e+01 -1.245986e+02 4.985858e-02 -5.569914e+01
1890000000 1.556346e-02 -5.501672e+01 -6.676102e+01 -1.412488e+02 -6.624152e+01 -1.433792e+02 5.168384e-02 -5.601740e+01
1900000000 1.354883e-02 -5.531827e+01 -6.902824e+01 -1.481870e+02 -6.905795e+01 -1.439560e+02 5.249470e-02 -5.632849e+01
1910000000 1.124216e-02 -5.559230e+01 -6.559532e+01 -1.458816e+02 -6.831464e+01 -1.306566e+02 5.160067e-02 -5.656992e+01
1920000000 1.571984e-02 -5.592462e+01 -6.526529e+01 -1.439337e+02 -6.746122e+01 -1.593026e+02 5.284153e-02 -5.682060e+01
1930000000 1.134488e-02 -5.622845e+01 -6.589390e+01 -1.425456e+02 -6.587949e+01 -1.460144e+02 4.885066e-02 -5.718684e+01
1940000000 1.364569e-02 -5.651888e+01 -6.703765e+01 -1.607947e+02 -6.571856e+01 -1.555018e+02 4.777777e-02 -5.748779e+01
1950000000 1.193406e-02 -5.684049e+01 -7.080912e+01 -1.523501e+02 -6.835308e+01 -1.524344e+02 5.407943e-02 -5.773980e+01
1960000000 1.456588e-02 -5.712625e+01 -6.567823e+01 -1.443079e+02 -6.435326e+01 -1.403540e+02 5.336290e-02 -5.805729e+01
1970000000 1.596658e-02 -5.741908e+01 -6.744519e+01 -1.402550e+02 -6.890043e+01 -1.411428e+02 5.498280e-02 -5.820503e+01
1980000000 7.397754e-03 -5.773614e+01 -6.710772e+01 -1.396954e+02 -6.780999e+01 -1.666344e+02 5.817792e-02 -5.878103e+01
1990000000 1.598169e-02 -5.803143e+01 -6.763393e+01 -1.519090e+02 -6.660692e+01 -1.493489e+02 4.993543e-02 -5.897497e+01
2000000000 1.188963e-02 -5.860009e+01 -6.920291e+01 -1.457041e+02 -6.634287e+01 -1.351276e+02 4.711795e-02 -5.938305e+01
2010000000 8.265455e-03 -5.902067e+01 -6.867825e+01 -1.637384e+02 -6.664495e+01 -1.441342e+02 5.272293e-02 -5.966239e+01
2020000000 4.818675e-03 -5.927221e+01 -6.914602e+01 -1.399847e+02 -6.605009e+01 -1.439845e+02 5.529949e-02 -5.996278e+01
2030000000 2.658514e-03 -5.959199e+01 -6.880120e+01 -1.300388e+02 -6.938723e+01 -1.586538e+02 5.114289e-02 -6.024868e+01
2040000000 6.089251e-03 -5.996968e+01 -6.584197e+01 -1.404255e+02 -6.645441e+01 -1.261363e+02 5.790532e-02 -6.057783e+01
2050000000 8.648987e-03 -6.002328e+01 -6.694517e+01 -1.356853e+02 -6.790102e+01 -1.484071e+02 4.831362e-02 -6.086536e+01
2060000000 2.329409e-03 -6.042712e+01 -6.892426e+01 -1.373882e+02 -6.922334e+01 -1.656255e+02 5.283152e-02 -6.116962e+01
2070000000 6.879644e-03 -6.084854e+01 -7.000723e+01 -1.429025e+02 -6.927685e+01 -1.033764e+02 4.972088e-02 -6.149395e+01
2080000000 9.706927e-03 -6.089439e+01 -7.032653e+01 -1.109693e+02 -7.177542e+01 -1.016695e+02 4.912424e-02 -6.178856e+01
2090000000 5.390175e-03 -6.133998e+01 -6.546452e+01 -9.705260e+01 -6.618244e+01 -1.003981e+02 4.836679e-02 -6.208487e+01
2100000000 4.114446e-03 -6.180700e+01 -6.455209e+01 -1.077552e+02 -6.302928e+01 -1.196382e+02 5.194453e-02 -6.239555e+01
2110000000 7.724443e-03 -6.178548e+01 -6.333829e+01 -1.050950e+02 -6.482928e+01 -1.024919e+02 5.137451e-02 -6.270838e+01
2120000000 2.345831e-03 -6.220765e+01 -6.119963e+01 -1.176765e+02 -6.222969e+01 -1.161303e+02 5.812292e-02 -6.295529e+01
2130000000 7.294041e-03 -6.296126e+01 -6.068968e+01 -1.233730e+02 -6.153395e+01 -1.328727e+02 5.294143e-02 -6.328920e+01
2140000000 3.613524e-03 -6.277643e+01 -6.061506e+01 -1.288696e+02 -6.002101e+01 -1.300807e+02 5.215386e-02 -6.361529e+01
2150000000 4.241128e-03 -6.297172e+01 -6.028869e+01 -1.361987e+02 -6.111444e+01 -1.341066e+02 5.473177e-02 -6.390645e+01
2160000000 2.236922e-03 -6.366563e+01 -6.146549e+01 -1.288385e+02 -6.052239e+01 -1.392643e+02 5.390071e-02 -6.424363e+01
2170000000 5.244357e-03 -6.358373e+01 -6.087878e+01 -1.454966e+02 -5.996235e+01 -1.391938e+02 4.797012e-02 -6.454388e+01
2180000000 -1.283430e-03 -6.526042e+01 -6.085191e+01 -1.415056e+02 -6.073276e+01 -1.375505e+02 5.590757e-02 -6.488172e+01
2190000000 4.402997e-03 -6.457935e+01 -6.230553e+01 -1.464576e+02 -6.017117e+01 -1.468800e+02 5.561610e-02 -6.519278e+01
2200000000 4.873375e-03 -6.466795e+01 -6.157070e+01 -1.478906e+02 -6.166151e+01 -1.448204e+02 5.086651e-02 -6.550769e+01
2210000000 3.548707e-03 -6.543277e+01 -6.175326e+01 -1.508658e+02 -6.274620e+01 -1.529648e+02 5.333133e-02 -6.581227e+01
2220000000 1.641872e-03 -6.556007e+01 -6.177293e+01 -1.442974e+02 -6.124185e+01 -1.504168e+02 5.259924e-02 -6.611767e+01
2230000000 2.789084e-03 -6.558700e+01 -6.137456e+01 -1.464813e+02 -6.238827e+01 -1.372003e+02 5.406655e-02 -6.642068e+01
2240000000 8.506435e-03 -6.614114e+01 -5.975253e+01 -1.568958e+02 -6.121269e+01 -1.500544e+02 5.311510e-02 -6.675524e+01
2250000000 2.516585e-03 -6.628962e+01 -6.181495e+01 -1.497043e+02 -6.173395e+01 -1.426680e+02 5.805681e-02 -6.704303e+01
2260000000 -1.151991e-03 -6.669667e+01 -6.291164e+01 -1.540288e+02 -6.307872e+01 -1.376770e+02 4.768496e-02 -6.734150e+01
2270000000 -5.359064e-04 -6.732520e+01 -6.280259e+01 -1.517018e+02 -6.286553e+01 -1.411162e+02 5.129856e-02 -6.764088e+01
2280000000 -3.407184e-03 -6.727807e+01 -6.151958e+01 -1.556934e+02 -6.295081e+01 -1.385925e+02 4.904805e-02 -6.798091e+01
2290000000 4.360897e-03 -6.744415e+01 -6.229214e+01 -1.496909e+02 -6.293806e+01 -1.548768e+02 4.622691e-02 -6.830331e+01
2300000000 -9.326097e-04 -6.805956e+01 -6.164455e+01 -1.389515e+02 -6.129606e+01 -1.418057e+02 4.982479e-02 -6.862946e+01
2310000000 -6.605652e-03 -6.817412e+01 -6.037543e+01 -1.537952e+02 -6.144040e+01 -1.525564e+02 5.090088e-02 -6.893918e+01
2320000000 -2.097854e-03 -6.867118e+01 -6.093562e+01 -1.576445e+02 -6.050185e+01 -1.389093e+02 4.008194e-02 -6.929573e+01
2330000000 1.353247e-03 -6.914490e+01 -5.945896e+01 -1.589593e+02 -6.208848e+01 -1.396601e+02 4.885410e-02 -6.958678e+01
2340000000 3.145947e-03 -6.892773e+01 -6.113183e+01 -1.497211e+02 -6.348682e+01 -1.482601e+02 5.125604e-02 -6.991890e+01
2350000000 2.278115e-03 -6.956230e+01 -6.130257e+01 -1.509781e+02 -6.169529e+01 -1.348033e+02 4.694631e-02 -7.021635e+01
2360000000 -2.054938e-03 -7.009882e+01 -6.189425e+01 -1.527362e+02 -6.215060e+01 -1.381295e+02 4.390077e-02 -7.054064e+01
2370000000 -3.335380e-03 -7.003127e+01 -6.234053e+01 -1.688781e+02 -6.210433e+01 -1.536935e+02 4.415622e-02 -7.085916e+01
2380000000 -3.614736e-03 -7.061954e+01 -6.227536e+01 -1.542041e+02 -6.350528e+01 -1.668643e+02 4.067960e-02 -7.122634e+01
2390000000 -4.974677e-03 -7.104297e+01 -6.081071e+01 -1.615013e+02 -6.019832e+01 -1.714589e+02 3.965907e-02 -7.154760e+01
2400000000 -4.611766e-03 -7.091073e+01 -6.198037e+01 -1.476290e+02 -6.065632e+01 -1.650783e+02 4.578335e-02 -7.182610e+01
2410000000 -7.597299e-03 -7.156922e+01 -6.037424e+01 -1.512144e+02 -6.007555e+01 -1.554586e+02 4.203859e-02 -7.218192e+01
2420000000 -1.365169e-02 -7.207214e+01 -6.238529e+01 -1.679001e+02 -6.144808e+01 -1.611877e+02 5.205197e-02 -7.255324e+01
2430000000 -5.945324e-03 -7.190069e+01 -6.276029e+01 -1.708577e+02 -5.944823e+01 -1.543044e+02 4.259573e-02 -7.287471e+01
2440000000 -1.337632e-02 -7.267100e+01 -6.214105e+01 -1.630330e+02 -6.144897e+01 -1.536882e+02 4.307820e-02 -7.322549e+01
2450000000 -9.986740e-03 -7.292657e+01 -6.133492e+01 -1.507016e+02 -6.503084e+01 -1.456339e+02 4.799458e-02 -7.357541e+01
2460000000 -8.222373e-03 -7.290109e+01 -6.221600e+01 -1.606757e+02 -6.591101e+01 -1.497800e+02 4.598922e-02 -7.386014e+01
2470000000 -1.613058e-02 -7.358167e+01 -6.330267e+01 -1.469135e+02 -6.351322e+01 -1.662342e+02 4.606354e-02 -7.419843e+01
2480000000 -1.609563e-02 -7.379621e+01 -6.702043e+01 -1.502847e+02 -6.458756e+01 -1.533480e+02 4.245019e-02 -7.452678e+01
2490000000 -9.069212e-03 -7.383880e+01 -6.732537e+01 -1.683651e+02 -6.690605e+01 -1.640438e+02 3.910249e-02 -7.484542e+01
2500000000 -1.882330e-02 -7.477006e+01 -6.450765e+01 -1.432938e+02 -6.328693e+01 -1.489289e+02 4.530415e-02 -7.519648e+01
2510000000 -1.905676e-02 -7.479571e+01 -6.395787e+01 -1.347357e+02 -6.474937e+01 -1.433011e+02 4.140333e-02 -7.554049e+01
2520000000 -2.606298e-02 -7.497372e+01 -6.639651e+01 -1.424043e+02 -6.121504e+01 -1.365363e+02 4.617704e-02 -7.587478e+01
2530000000 -2.162773e-02 -7.573053e+01 -6.476865e+01 -1.324873e+02 -6.601164e+01 -1.381748e+02 4.848614e-02 -7.623237e+01
2540000000 -2.239335e-02 -7.569097e+01 -6.529201e+01 -1.379573e+02 -6.456848e+01 -1.250895e+02 4.723551e-02 -7.723720e+01
2550000000 -1.690538e-02 -7.607278e+01 -6.270103e+01 -1.320694e+02 -6.329237e+01 -1.241724e+02 5.127177e-02 -7.708891e+01
2560000000 -1.814595e-02 -7.652293e+01 -6.488361e+01 -1.351239e+02 -6.286494e+01 -1.280537e+02 4.973576e-02 -7.765905e+01
2570000000 -1.290228e-02 -7.676411e+01 -6.271464e+01 -1.249718e+02 -6.275725e+01 -1.234741e+02 4.217559e-02 -7.817989e+01
2580000000 -1.751562e-02 -7.714267e+01 -6.417110e+01 -1.557105e+02 -6.423692e+01 -1.406881e+02 5.114189e-02 -7.828107e+01
2590000000 -1.266428e-02 -7.753154e+01 -6.458611e+01 -1.433739e+02 -6.240088e+01 -1.351148e+02 5.266862e-02 -7.891833e+01
2600000000 -1.230791e-02 -7.789126e+01 -6.414449e+01 -1.500632e+02 -6.438882e+01 -1.461046e+02 5.018491e-02 -7.932177e+01
2610000000 -1.703893e-02 -7.831329e+01 -6.383550e+01 -1.573769e+02 -6.399278e+01 -1.445414e+02 4.786772e-02 -7.914124e+01
2620000000 -2.279754e-02 -7.920383e+01 -6.391654e+01 -1.529470e+02 -6.310965e+01 -1.380517e+02 4.715973e-02 -7.992787e+01
